Time [s],Channel 0,Channel 1
0.000000000,0,0
23.323288480,1,0
23.323709760,1,1
23.324024320,0,1
23.324368800,0,0
23.325112000,1,0
23.325863680,0,0
23.326358080,1,0
23.326441120,1,1
23.326645120,1,0
23.326676480,1,1
23.327002400,0,1
23.327437280,0,0
23.328060640,1,0
23.328856000,0,0
23.329356160,1,0
23.329443360,1,1
23.329475360,1,0
23.329722880,1,1
23.330337280,0,1
23.331218400,1,1
23.331787360,0,1
23.331806080,0,0
23.331838080,0,1
23.332174240,0,0
23.332710880,1,0
23.332988160,1,1
23.333404640,0,1
23.333749120,0,0
23.334406560,1,0
23.334872480,1,1
23.334888800,0,1
23.335383680,1,1
23.335826080,1,0
23.335858080,1,1
23.336085760,0,1
23.336363520,0,0
23.337104960,1,0
23.337526080,1,1
23.338146080,0,1
23.338646720,0,0
23.338662880,1,0
23.339297120,0,0
23.339739840,0,1
23.339772000,0,0
23.339832480,1,0
23.340109600,1,1
23.340212960,0,1
23.340489920,0,0
23.340613600,1,0
23.340890880,1,1
23.341014240,0,1
23.341291840,0,0
23.342011040,1,0
23.342432160,1,1
23.343052160,0,1
23.343518560,0,0
23.343534720,1,0
23.343955520,0,0
23.344443680,0,1
23.344475840,0,0
23.344660160,1,0
23.345075840,0,0
23.345504160,1,0
23.345766560,1,1
23.345799520,1,0
23.345830880,1,1
23.345925920,0,1
23.346247840,0,0
23.346445440,1,0
23.346722400,1,1
23.346821600,0,1
23.347099040,0,0
23.347521920,1,0
23.347866400,1,1
23.347923360,0,1
23.348200160,0,0
23.348324000,1,0
23.348607360,1,1
23.349444800,0,1
23.349865440,0,0
23.350485920,1,0
23.350951520,1,1
23.350967840,0,1
23.351383680,1,1
23.351832320,1,0
23.351864480,1,1
23.352393280,0,1
23.353408160,1,1
23.353819680,1,0
23.354036640,0,0
23.354044960,0,1
23.354313440,0,0
23.354430240,1,0
23.354713600,1,1
23.354965440,0,1
23.355243040,0,0
23.355631040,1,0
23.355975520,1,1
23.356633280,0,1
23.357099360,0,0
23.357115680,1,0
23.357577600,1,1
23.357644640,0,1
23.358648640,1,1
23.358925920,1,0
23.359155040,1,1
23.359747360,0,1
23.360213600,0,0
23.360229920,1,0
23.360648320,0,0
23.361135520,0,1
23.361167680,0,0
23.361652160,1,0
23.362364800,0,0
23.362926560,1,0
23.362951680,1,1
23.362983680,1,0
23.363203680,1,1
23.363346080,0,1
23.363668000,0,0
23.363872480,1,0
23.364149760,1,1
23.364836640,0,1
23.365257440,0,0
23.365878240,1,0
23.366344640,1,1
23.366360800,0,1
23.366781600,1,1
23.367269440,1,0
23.367301440,1,1
23.367486080,0,1
23.368198400,1,1
23.368693920,0,1
23.368718720,0,0
23.368750880,0,1
23.368971840,0,0
23.369052480,1,0
23.369374240,1,1
23.369874880,0,1
23.370219840,0,0
23.370248960,1,0
23.370526400,1,1
23.370800640,0,1
23.371077600,0,0
23.371148960,1,0
23.371425760,1,1
23.372145760,0,1
23.372566240,0,0
23.372582880,1,0
23.372859840,1,1
23.373257120,0,1
23.373647200,0,0
23.373672640,1,0
23.374093920,0,0
23.374581760,0,1
23.374613920,0,0
23.375094880,1,0
23.375805440,0,0
23.376367200,1,0
23.376392320,1,1
23.376424480,1,0
23.376644800,1,1
23.376762560,0,1
23.377084480,0,0
23.377588320,1,0
23.377933280,1,1
23.378261440,0,1
23.378650880,0,0
23.378676960,1,0
23.379139680,0,0
23.379582080,0,1
23.379614240,0,0
23.380267520,1,0
23.380688960,1,1
23.381009120,0,1
23.381409120,0,0
23.381424960,1,0
23.381891840,0,0
23.382334080,0,1
23.382366240,0,0
23.382423680,1,0
23.382701280,1,1
23.383063040,0,1
23.383407520,0,0
23.384065600,1,0
23.384531840,1,1
23.384547680,0,1
23.385008000,1,1
23.385450400,1,0
23.385482400,1,1
23.385966880,0,1
23.386677120,1,1
23.387245440,0,1
23.387264160,0,0
23.387296320,0,1
23.387568160,0,0
23.387771360,1,0
23.388048320,1,1
23.388468640,0,1
23.388813600,0,0
23.389470880,1,0
23.389936640,1,1
23.389953120,0,1
23.390413280,1,1
23.390773920,0,1
23.390856000,0,0
23.390888000,0,1
23.391182400,1,1
23.391573120,0,1
23.391625120,0,0
23.391657280,0,1
23.391861280,0,0
23.391973760,1,0
23.392251520,1,1
23.392374400,0,1
23.392651360,0,0
23.393371040,1,0
23.393792320,1,1
23.394412480,0,1
23.394879200,0,0
23.394895040,1,0
23.395360640,0,0
23.395803680,0,1
23.395835840,0,0
23.396491680,1,0
23.396913600,1,1
23.396929280,0,1
23.397206240,0,0
23.397286400,1,0
23.397608000,1,1
23.397809280,0,1
23.398086720,0,0
23.398777120,1,0
23.399197600,1,1
23.399214240,0,1
23.399497440,0,0
23.400041280,1,0
23.400395520,1,1
23.400412160,0,1
23.400689120,0,0
23.400797600,1,0
23.401202400,0,0
23.401645280,0,1
23.401677440,0,0
23.401885280,1,0
23.402230080,1,1
23.402286720,0,1
23.402564160,0,0
23.402815360,1,0
23.403092800,1,1
23.403187840,0,1
23.403464800,0,0
23.403888160,1,0
23.404233120,1,1
23.404289600,0,1
23.404567200,0,0
23.404696320,1,0
23.405018080,1,1
23.405811840,0,1
23.406233120,0,0
23.406852960,1,0
23.407319040,1,1
23.407334880,0,1
23.407756800,1,1
23.408162720,0,1
23.408244960,0,0
23.408277120,0,1
23.408571840,1,1
23.409014720,1,0
23.409046720,1,1
23.409591200,0,1
23.410012320,0,0
23.410028480,1,0
23.410305760,1,1
23.410396960,0,1
23.410674560,0,0
23.411224960,1,0
23.411569440,1,1
23.411599200,0,1
23.411876480,0,0
23.412005760,1,0
23.412328160,1,1
23.412525280,0,1
23.412802240,0,0
23.413200000,1,0
23.413544960,1,1
23.414202080,0,1
23.414668000,0,0
23.414684160,1,0
23.415144640,0,0
23.415587360,0,1
23.415619520,0,0
23.415803840,1,0
23.416512160,0,0
23.417007680,1,0
23.417022720,1,1
23.417054880,1,0
23.417284640,1,1
23.417411360,0,1
23.417732800,0,0
23.417934080,1,0
23.418211680,1,1
23.418902560,0,1
23.419323360,0,0
23.419644000,1,0
23.420044320,1,1
23.420060160,0,1
23.420527360,1,1
23.420969760,1,0
23.421001760,1,1
23.421358880,0,1
23.421704320,0,0
23.422032160,1,0
23.422431200,1,1
23.422448160,0,1
23.422911840,1,1
23.423354720,1,0
23.423386880,1,1
23.423743360,0,1
23.424088000,0,0
23.424117120,1,0
23.424394400,1,1
23.424514560,0,1
23.424792000,0,0
23.424921760,1,0
23.425243520,1,1
23.425441280,0,1
23.425718400,0,0
23.425816320,1,0
23.426093600,1,1
23.426516640,0,1
23.426861120,0,0
23.426918080,1,0
23.427195040,1,1
23.427318720,0,1
23.427602240,0,0
23.428143200,1,0
23.428487680,1,1
23.428817120,0,1
23.429162080,0,0
23.429226880,1,0
23.429549280,1,1
23.429759520,0,1
23.430081280,0,0
23.430577920,1,0
23.430932320,1,1
23.431548960,0,1
23.432015040,0,0
23.432031360,1,0
23.432445760,0,0
23.432934080,0,1
23.432966240,0,0
23.433150080,1,0
23.433861120,0,0
23.434356640,1,0
23.434371520,1,1
23.434403680,1,0
23.434633920,1,1
23.434727840,0,1
23.435055520,0,0
23.435256800,1,0
23.435534080,1,1
23.435928640,0,1
23.436272960,0,0
23.436924800,1,0
23.437352960,1,1
23.437413120,0,1
23.437872640,1,1
23.438233440,0,1
23.438315040,0,0
23.438347200,0,1
23.438941440,1,1
23.439369760,0,1
23.439384800,0,0
23.439416960,0,1
23.439646880,0,0
23.439740800,1,0
23.440062880,1,1
23.440856000,0,1
23.441276480,0,0
23.441897280,1,0
23.442362880,1,1
23.442687040,0,1
23.443318560,1,1
23.443746400,0,1
23.443828960,0,0
23.444042240,0,1
23.444075040,0,0
23.444570880,1,0
23.444915680,1,1
23.445541920,0,1
23.446007840,0,0
23.446024000,1,0
23.446486240,1,1
23.446508320,0,1
23.446830720,0,0
23.447031040,1,0
23.447308160,1,1
23.447442400,0,1
23.447719200,0,0
23.447843040,1,0
23.448120320,1,1
23.448243680,0,1
23.448521120,0,0
23.449240320,1,0
23.449661600,1,1
23.449975840,0,1
23.450320480,0,0
23.450396320,1,0
23.450862880,0,0
23.451304960,0,1
23.451337120,0,0
23.451394720,1,0
23.451672640,1,1
23.451748160,0,1
23.452025120,0,0
23.452448480,1,0
23.452793280,1,1
23.452849920,0,1
23.453127360,0,0
23.453250560,1,0
23.453527360,1,1
23.453657280,0,1
23.453978880,0,0
23.454476160,1,0
23.454821120,1,1
23.454852800,0,1
23.455129760,0,0
23.455253440,1,0
23.455530240,1,1
23.456098400,0,1
23.456443520,0,0
23.456468800,1,0
23.456745600,1,1
23.456855680,0,1
23.457132640,0,0
23.457417280,1,0
23.457694720,1,1
23.457756800,0,1
23.458034400,0,0
23.458457120,1,0
23.458801440,1,1
23.459459360,0,1
23.459925600,0,0
23.459941760,1,0
23.460403680,1,1
23.460425920,0,1
23.460748320,0,0
23.461544480,1,0
23.461955200,1,1
23.462585280,0,1
23.463051200,0,0
23.463067680,1,0
23.463485440,0,0
23.463973280,0,1
23.464005440,0,0
23.464189920,1,0
23.464901120,0,0
23.465396640,1,0
23.465411680,1,1
23.465443680,1,0
23.465674400,1,1
23.465771680,0,1
23.466093440,0,0
23.466294720,1,0
23.466571360,1,1
23.467262880,0,1
23.467683360,0,0
23.467700000,1,0
23.467983040,1,1
23.468227680,0,1
23.468505120,0,0
23.468568960,1,0
23.468852800,1,1
23.469565760,0,1
23.469986720,0,0
23.470002880,1,0
23.470280480,1,1
23.470377760,0,1
23.470699840,0,0
23.470900800,1,0
23.471177440,1,1
23.471868640,0,1
23.472289280,0,0
23.472609920,1,0
23.473010240,1,1
23.473026240,0,1
23.473493440,1,1
23.473936160,1,0
23.473968320,1,1
23.474025600,0,1
23.474302880,0,0
23.474376320,1,0
23.474653760,1,1
23.474777120,0,1
23.475054720,0,0
23.475177600,1,0
23.475454560,1,1
23.476174400,0,1
23.476595520,0,0
23.476611520,1,0
23.476888480,1,1
23.477285760,0,1
23.477675520,0,0
23.477701280,1,0
23.478122560,0,0
23.478528800,1,0
23.478610720,1,1
23.478642880,1,0
23.479233760,0,0
23.479661760,1,0
23.479676480,1,1
23.479708640,1,0
23.479938720,1,1
23.480219360,0,1
23.480496480,0,0
23.480585120,1,0
23.480862560,1,1
23.481285440,0,1
23.481629920,0,0
23.481686880,1,0
23.481963680,1,1
23.482215360,0,1
23.482492800,0,0
23.482588000,1,0
23.482865440,1,1
23.483288320,0,1
23.483632800,0,0
23.484290560,1,0
23.484756320,1,1
23.484772800,0,1
23.485240640,0,0
23.485301600,1,0
23.485709760,0,0
23.486152640,0,1
23.486184800,0,0
23.486688160,1,0
23.487109440,1,1
23.487125280,0,1
23.487408640,0,0
23.487652800,1,0
23.487929920,1,1
23.488294080,0,1
23.488639040,0,0
23.489296000,1,0
23.489761600,1,1
23.489778240,0,1
23.490238400,1,1
23.490681120,1,0
23.490713280,1,1
23.490897600,0,1
23.491606080,1,1
23.492101600,0,1
23.492116480,0,0
23.492148640,0,1
23.492378560,0,0
23.492549600,1,0
23.492958240,0,0
23.493318560,1,0
23.493400640,1,1
23.493604000,1,0
23.493635680,1,1
23.493701120,0,1
23.493978400,0,0
23.494101760,1,0
23.494378720,1,1
23.494502400,0,1
23.494779840,0,0
23.495499040,1,0
23.495919520,1,1
23.496240000,0,1
23.496640480,0,0
23.496656320,1,0
23.497123520,0,0
23.497565920,0,1
23.497598080,0,0
23.497655520,1,0
23.497933120,1,1
23.498006880,0,1
23.498284480,0,0
23.498407520,1,0
23.498684480,1,1
23.498808160,0,1
23.499085120,0,0
23.499804800,1,0
23.500225440,1,1
23.500546240,0,1
23.500946560,0,0
23.501569760,1,0
23.502198080,0,0
23.502698080,1,0
23.502775200,1,1
23.502807360,1,0
23.503023040,1,1
23.503520160,0,1
23.503864480,0,0
23.504210880,1,0
23.504556000,1,1
23.504644000,0,1
23.505262080,1,1
23.505622400,0,1
23.505704640,0,0
23.505908160,0,1
23.505939680,0,0
23.506316480,1,0
23.506661120,1,1
23.506717920,0,1
23.506994880,0,0
23.507246400,1,0
23.507523520,1,1
23.507619040,0,1
23.507896480,0,0
23.508319360,1,0
23.508664000,1,1
23.508720800,0,1
23.508998080,0,0
23.509121440,1,0
23.509398880,1,1
23.509646400,0,1
23.509923360,0,0
23.510322240,1,0
23.510667200,1,1
23.511324800,0,1
23.511790880,0,0
23.511807040,1,0
23.512269280,1,1
23.512291200,0,1
23.512613600,0,0
23.512813920,1,0
23.513091200,1,1
23.513822240,0,1
23.514243520,0,0
23.514259360,1,0
23.514536000,1,1
23.514634400,0,1
23.514956000,0,0
23.515753120,1,0
23.516173760,1,1
23.516794080,0,1
23.517260480,0,0
23.517276160,1,0
23.517691840,0,0
23.518104000,1,0
23.518140960,1,1
23.518173120,1,0
23.518566400,1,1
23.519177920,0,1
23.519598880,0,0
23.520219360,1,0
23.520685280,1,1
23.520701760,0,1
23.521123360,1,1
23.521610560,1,0
23.521642720,1,1
23.522002560,0,1
23.522347360,0,0
23.522436640,1,0
23.522713440,1,1
23.522843360,0,1
23.523165280,0,0
23.523362720,1,0
23.523640320,1,1
23.524334400,0,1
23.524755680,0,0
23.524771520,1,0
23.525048960,1,1
23.525140160,0,1
23.525416960,0,0
23.525676160,1,0
23.525953120,1,1
23.526637280,0,1
23.527057920,0,0
23.527074400,1,0
23.527351200,1,1
23.527748480,0,1
23.528138240,0,0
23.528163840,1,0
23.528585280,0,0
23.528991680,1,0
23.529073600,1,1
23.529105600,1,0
23.529397120,0,0
23.529757440,1,0
23.529840160,1,1
23.530043840,1,0
23.530075360,1,1
23.530147040,0,1
23.530424160,0,0
23.530547680,1,0
23.530824960,1,1
23.531248000,0,1
23.531592320,0,0
23.531649440,1,0
23.531926240,1,1
23.532050080,0,1
23.532327360,0,0
23.533170880,1,0
23.533591360,1,1
23.533906080,0,1
23.534260960,0,0
23.534282880,1,0
23.534639520,1,1
23.534665760,0,1
23.535243520,1,1
23.535685920,1,0
23.535717920,1,1
23.535954080,0,1
23.536298720,0,0
23.536956000,1,0
23.537422560,1,1
23.537438080,0,1
23.537900000,0,0
23.537922240,1,0
23.538243840,1,1
23.538868320,0,1
23.539282560,1,1
23.539776960,0,1
23.540039200,0,0
23.540072160,0,1
23.540103680,0,0
23.540165920,1,0
23.540488320,1,1
23.541284480,0,1
23.541705760,0,0
23.542325600,1,0
23.542791200,1,1
23.542807520,0,1
23.543229440,1,1
23.543717280,1,0
23.543749280,1,1
23.544404960,0,1
23.544826720,0,0
23.544842080,1,0
23.545119520,1,1
23.545312160,0,1
23.545720960,1,1
23.546081280,0,1
23.546163520,0,0
23.546366880,0,1
23.546398400,0,0
23.547062880,1,0
23.547484000,1,1
23.547500160,0,1
23.547777440,0,0
23.547868640,1,0
23.548152000,1,1
23.548396800,0,1
23.548673920,0,0
23.549365760,1,0
23.549787200,1,1
23.550107360,0,1
23.550507200,0,0
23.550523680,1,0
23.550991040,0,0
23.551433920,0,1
23.551466080,0,0
23.552119040,1,0
23.552540640,1,1
23.553160000,0,1
23.553626080,0,0
23.553642400,1,0
23.554058400,0,0
23.554507520,0,1
23.554539680,0,0
23.554643840,1,0
23.554921120,1,1
23.554976800,0,1
23.555253760,0,0
23.555677120,1,0
23.556022240,1,1
23.556078560,0,1
23.556355520,0,0
23.556479200,1,0
23.556762240,1,1
23.557600000,0,1
23.558020640,0,0
23.558641280,1,0
23.559107360,1,1
23.559123200,0,1
23.559589920,1,1
23.560032320,1,0
23.560064320,1,1
23.560720640,0,1
23.561141920,0,0
23.561761760,1,0
23.562227840,1,1
23.562243840,0,1
23.562711040,1,1
23.563153600,1,0
23.563185760,1,1
23.563246400,0,1
23.563524160,0,0
23.563886560,1,0
23.564230880,1,1
23.564888800,0,1
23.565355200,0,0
23.565370880,1,0
23.565839040,1,1
23.565900000,0,1
23.566607680,1,1
23.567050080,1,0
23.567082240,1,1
23.567332640,0,1
23.567677280,0,0
23.567708960,1,0
23.568031040,1,1
23.568285920,0,1
23.568691360,1,1
23.569134400,1,0
23.569166560,1,1
23.569689600,0,1
23.570111040,0,0
23.570126720,1,0
23.570403680,1,1
23.570495360,0,1
23.570772320,0,0
23.571023680,1,0
23.571300960,1,1
23.571992480,0,1
23.572413280,0,0
23.572733440,1,0
23.573133920,1,1
23.573149760,0,1
23.573571520,1,1
23.574058720,1,0
23.574090880,1,1
23.574744000,0,1
23.575165280,0,0
23.575181120,1,0
23.575458080,1,1
23.575607360,0,1
23.575929600,0,0
23.576130240,1,0
23.576407680,1,1
23.577098560,0,1
23.577519840,0,0
23.577535840,1,0
23.577813280,1,1
23.577904320,0,1
23.578181280,0,0
23.578432800,1,0
23.578709600,1,1
23.579401440,0,1
23.579822080,0,0
23.579838720,1,0
23.580121600,1,1
23.580366240,0,1
23.580643840,0,0
23.580707680,1,0
23.580985120,1,1
23.581108320,0,1
23.581385280,0,0
23.581508960,1,0
23.581785920,1,1
23.582209280,0,1
23.582554240,0,0
23.582610720,1,0
23.582887520,1,1
23.583135840,0,1
23.583412800,0,0
23.583511840,1,0
23.583789280,1,1
23.584212160,0,1
23.584556640,0,0
23.584613600,1,0
23.584890400,1,1
23.585138720,0,1
23.585416000,0,0
23.585514720,1,0
23.585792320,1,1
23.586215040,0,1
23.586559680,0,0
23.586616480,1,0
23.586893760,1,1
23.587023360,0,1
23.587345600,0,0
23.587842240,1,0
23.588186880,1,1
23.588521440,0,1
23.588911680,0,0
23.589582240,1,0
23.590164800,0,0
23.590659200,1,0
23.590918400,1,1
23.590951360,1,0
23.590982880,1,1
23.591326880,0,1
23.591716800,0,0
23.591742400,1,0
23.592163680,0,0
23.592570080,1,0
23.592652000,1,1
23.592684160,1,0
23.592975680,0,0
23.593418400,0,1
23.593450560,0,0
23.593932000,1,0
23.594353120,1,1
23.594369280,0,1
23.594646400,0,0
23.594733600,1,0
23.595056000,1,1
23.595556000,0,1
23.595900640,0,0
23.596232960,1,0
23.596622720,1,1
23.596648480,0,1
23.597111360,1,1
23.597553760,1,0
23.597585760,1,1
23.597643520,0,1
23.597921440,0,0
23.598627520,1,0
23.599048000,1,1
23.599368960,0,1
23.599769280,0,0
23.599785280,1,0
23.600200800,0,0
23.600643840,0,1
23.600676000,0,0
23.601082560,1,0
23.601427680,1,1
23.601749600,0,1
23.602154880,0,0
23.602171520,1,0
23.602583360,0,0
23.603026880,0,1
23.603058880,0,0
23.603589600,1,0
23.604300160,0,0
23.604861920,1,0
23.604887680,1,1
23.604919840,1,0
23.605139040,1,1
23.605246080,0,1
23.605568320,0,0
23.605772480,1,0
23.606049920,1,1
23.606141280,0,1
23.606418400,0,0
23.606841600,1,0
23.607186560,1,1
23.607243040,0,1
23.607520640,0,0
23.607643680,1,0
23.607920480,1,1
23.608768000,0,1
23.609189440,0,0
23.609204960,1,0
23.609481920,1,1
23.609546080,0,1
23.609822880,0,0
23.610080480,1,0
23.610357760,1,1
23.610447200,0,1
23.610724640,0,0
23.611147520,1,0
23.611492000,1,1
23.611548800,0,1
23.611826240,0,0
23.611949440,1,0
23.612232800,1,1
23.612773760,0,1
23.613118080,0,0
23.613453760,1,0
23.613843840,1,1
23.614167680,0,1
23.614798720,1,1
23.615226880,0,1
23.615309280,0,0
23.615512800,0,1
23.615544480,0,0
23.616347360,1,0
23.616768800,1,1
23.616784480,0,1
23.617068000,0,0
23.617312160,1,0
23.617588960,1,1
23.617656480,0,1
23.617933440,0,0
23.618356800,1,0
23.618701760,1,1
23.619359200,0,1
23.619825600,0,0
23.619841440,1,0
23.620301760,0,0
23.620662560,1,0
23.620744480,1,1
23.620776640,1,0
23.621370400,0,0
23.621798720,1,0
23.621813440,1,1
23.621845440,1,0
23.622075520,1,1
23.622180640,0,1
23.622585120,1,1
23.623027680,1,0
23.623059680,1,1
23.623559520,0,1
23.623980480,0,0
27.137146880,0,0
