Time [s],Channel 0,Channel 1
0.000000000,0,0
23.312054880,1,0
23.312841280,1,1
23.313778560,0,1
23.314378880,0,0
23.314392320,1,0
23.314668800,1,1
23.314780640,0,1
23.315056960,0,0
23.317580960,1,0
23.318680640,1,1
23.319617120,0,1
23.320216640,0,0
23.325584960,1,0
23.327683520,1,1
23.327697440,0,1
23.327973920,0,0
23.328084160,1,0
23.328360480,1,1
23.330698720,0,1
23.331736320,0,0
23.334332640,1,0
23.335493920,1,1
23.335508320,0,1
23.335785280,0,0
23.335886880,1,0
23.336163680,1,1
23.339608000,0,1
23.341020320,0,0
23.345092160,1,0
23.346752800,1,1
23.346767200,0,1
23.347044000,0,0
23.347189600,1,0
23.347466560,1,1
23.352017280,0,1
23.353803680,0,0
23.358244800,1,0
23.360030240,1,1
23.360044640,0,1
23.360321440,0,0
23.360392320,1,0
23.360669280,1,1
23.360792960,0,1
23.361069440,0,0
23.362669920,1,0
23.363456640,1,1
23.367344640,0,1
23.368943360,0,0
23.368957280,1,0
23.369233760,1,1
23.369295680,0,1
23.369572160,0,0
23.372279200,1,0
23.373440480,1,1
23.376037440,0,1
23.377199520,0,0
23.377213280,1,0
23.377489920,1,1
23.377598400,0,1
23.377874720,0,0
23.383532640,1,0
23.385692960,1,1
23.389949920,0,1
23.391672960,0,0
23.391687360,1,0
23.391963840,1,1
23.392101280,0,1
23.392378080,0,0
23.395453600,1,0
23.396740320,1,1
23.401918400,0,1
23.403953760,0,0
23.407657920,1,0
23.409193920,1,1
23.409208160,0,1
23.409484960,0,0
23.409604800,1,0
23.409881600,1,1
23.412772640,0,1
23.413997280,0,0
23.416593440,1,0
23.417755200,1,1
23.417769120,0,1
23.418045920,0,0
23.418107520,1,0
23.418383840,1,1
23.422381920,0,1
23.423981280,0,0
23.426946080,1,0
23.428233120,1,1
23.428246720,0,1
23.428523040,0,0
23.428610240,1,0
23.428886400,1,1
23.434913600,0,1
23.437199680,0,0
23.441455840,1,0
23.443179520,1,1
23.443193440,0,1
23.443470400,0,0
23.443612960,1,0
23.443889440,1,1
23.444013760,0,1
23.444290080,0,0
23.450132320,1,0
23.452355520,1,1
23.456612160,0,1
23.458335200,0,0
23.458349760,1,0
23.458626560,1,1
23.458716480,0,1
23.458993440,0,0
23.460408960,1,0
23.461133920,1,1
23.464652160,0,1
23.466126080,0,0
23.466140000,1,0
23.466416480,1,1
23.466519200,0,1
23.466795520,0,0
23.469318080,1,0
23.470417920,1,1
23.475964800,0,1
23.478125600,0,0
23.478139520,1,0
23.478416480,1,1
23.478521920,0,1
23.478798400,0,0
23.478922560,1,0
23.479199040,1,1
23.483381440,0,1
23.485041920,0,0
23.485241440,1,0
23.485581760,1,1
23.485624800,0,1
23.485901760,0,0
23.486025280,1,0
23.486301760,1,1
23.491590720,0,1
23.493626080,0,0
23.499727040,1,0
23.502075520,1,1
23.502089440,0,1
23.502365920,0,0
23.502428160,1,0
23.502704320,1,1
23.507255840,0,1
23.509042560,0,0
23.512192320,1,0
23.513540960,1,1
23.513555520,0,1
23.513831840,0,0
23.513930880,1,0
23.514207840,1,1
23.518020960,0,1
23.519557280,0,0
23.520678240,1,0
23.521340480,1,1
23.527256640,0,1
23.529543200,0,0
23.529556960,1,0
23.529833280,1,1
23.529934400,0,1
23.530210560,0,0
23.534762080,1,0
23.536548800,1,1
23.538223040,0,1
23.539072160,0,0
23.539086720,1,0
23.539363040,1,1
23.539437120,0,1
23.539713920,0,0
23.542604960,1,0
23.543829440,1,1
23.546794720,0,1
23.548081440,0,0
23.548095200,1,0
23.548371520,1,1
23.548439840,0,1
23.548716160,0,0
23.554558560,1,0
23.556781760,1,1
23.561960640,0,1
23.563997280,0,0
23.564011040,1,0
23.564288000,1,1
23.564442720,0,1
23.564718880,0,0
23.564843360,1,0
23.565119680,1,1
23.568011200,0,1
23.569235200,0,0
23.572016480,1,0
23.573240320,1,1
23.573254560,0,1
23.573531360,0,0
23.573646080,1,0
23.573923040,1,1
23.575154080,0,1
23.575816640,0,0
23.578412800,1,0
23.579574400,1,1
23.579588800,0,1
23.579865440,0,0
23.579948800,1,0
23.580225760,1,1
23.583485440,0,1
23.584834240,0,0
23.586324640,1,0
23.587112160,1,1
23.587125920,0,1
23.587402720,0,0
23.587551360,1,0
23.587827840,1,1
23.594038880,0,1
23.596386880,0,0
23.596954560,1,0
23.597430080,1,1
23.600948320,0,1
23.602422080,0,0
23.602436160,1,0
23.602713120,1,1
23.602854880,0,1
23.603131360,0,0
23.603625280,1,0
23.604038080,1,1
23.608294080,0,1
23.610017760,0,0
23.610031680,1,0
23.610308160,1,1
23.610457600,0,1
23.610734080,0,0
23.614178720,1,0
23.615590560,1,1
23.617449760,0,1
23.618361600,0,0
23.618375520,1,0
23.618652000,1,1
23.618760320,0,1
23.619036640,0,0
23.625432320,1,0
23.627841920,1,1
23.630438560,0,1
23.631600320,0,0
23.631614080,1,0
23.631890560,1,1
23.631963040,0,1
23.632239520,0,0
23.632363680,1,0
23.632640640,1,1
23.636084800,0,1
23.637496160,0,0
23.637880000,1,0
23.638292480,1,1
23.638307200,0,1
23.638583520,0,0
23.638666400,1,0
23.638943360,1,1
23.644416160,0,1
23.646513120,0,0
23.648188000,1,0
23.649038240,1,1
23.649052160,0,1
23.649329280,0,0
23.649469120,1,0
23.649745760,1,1
23.654481280,0,1
23.656329280,0,0
23.662245440,1,0
23.664530400,1,1
23.664544160,0,1
23.664820800,0,0
23.664972000,1,0
23.665248480,1,1
23.665372640,0,1
23.665649440,0,0
23.672044640,1,0
23.674453920,1,1
23.679079360,0,1
23.680927840,0,0
23.680941440,1,0
23.681217920,1,1
23.681275520,0,1
23.681551680,0,0
23.685365440,1,0
23.686901280,1,1
23.690050880,0,1
23.691399520,0,0
23.691413600,1,0
23.691690080,1,1
23.691778240,0,1
23.692054880,0,0
23.697896800,1,0
23.700119840,1,1
23.700133760,0,1
23.700410560,0,0
23.700480320,1,0
23.700756640,1,1
23.700880960,0,1
23.701157120,0,0
23.702573440,1,0
23.703297600,1,1
23.709582880,0,1
23.711992320,0,0
23.715142400,1,0
23.716491040,1,1
23.716504800,0,1
23.716781760,0,0
23.716884480,1,0
23.717160960,1,1
23.719314560,0,1
23.720288640,0,0
23.723438880,1,0
23.724787520,1,1
23.724801280,0,1
23.725078400,0,0
23.725187200,1,0
23.725463520,1,1
23.730568160,0,1
23.732540800,0,0
23.735875360,1,0
23.737286400,1,1
23.737300160,0,1
23.737576480,0,0
23.737689920,1,0
23.737966240,1,1
23.739566720,0,1
23.740354080,0,0
23.746085600,1,0
23.748307840,1,1
23.748321760,0,1
23.748598720,0,0
23.748692640,1,0
23.748968960,1,1
23.749093280,0,1
23.749369760,0,0
23.755396320,1,0
23.757681440,1,1
23.762859680,0,1
23.764894880,0,0
23.764908800,1,0
23.765185280,1,1
23.765296160,0,1
23.765572480,0,0
23.766250880,1,0
23.766725600,1,1
23.772457440,0,1
23.774679200,0,0
23.774693600,1,0
23.774970400,1,1
23.775098880,0,1
23.775375840,0,0
23.778082240,1,0
23.779243840,1,1
23.779627040,0,1
23.780039680,0,0
23.780054400,1,0
23.780331200,1,1
23.780401600,0,1
23.780678560,0,0
23.781725120,1,0
23.782325600,1,1
23.787688640,0,1
23.789786080,0,0
23.793673440,1,0
23.795271200,1,1
23.795285760,0,1
23.795562560,0,0
23.795704960,1,0
23.795981920,1,1
23.797766240,0,1
23.798615200,0,0
23.799552480,1,0
23.800152320,1,1
23.800166080,0,1
23.800442720,0,0
23.800507680,1,0
23.800783840,1,1
23.805519680,0,1
23.807368000,0,0
23.813283840,1,0
23.815568320,1,1
23.815582720,0,1
23.815859200,0,0
23.816010560,1,0
23.816287360,1,1
23.822129120,0,1
23.824352000,0,0
23.824365920,1,0
23.824643040,1,1
23.824712640,0,1
23.824988960,0,0
23.825113280,1,0
23.825389760,1,1
23.825513920,0,1
23.825790560,0,0
23.827759680,1,0
23.828671040,1,1
23.829976960,0,1
23.830701280,0,0
23.830715520,1,0
23.830992320,1,1
23.831116480,0,1
23.831393280,0,0
23.835390880,1,0
23.836988960,1,1
23.843089920,0,1
23.845437280,0,0
23.845450880,1,0
23.845727680,1,1
23.845819360,0,1
23.846095520,0,0
23.852122400,1,0
23.854407360,1,1
23.859954560,0,1
23.862114240,0,0
23.862128480,1,0
23.862405440,1,1
23.862522240,0,1
23.862799200,0,0
23.862922880,1,0
23.863199360,1,1
23.866275200,0,1
23.867560960,0,0
23.870895520,1,0
23.872306400,1,1
23.872320640,0,1
23.872597120,0,0
23.872725600,1,0
23.873002400,1,1
23.878106560,0,1
23.880079680,0,0
23.883044960,1,0
23.884332160,1,1
23.884345600,0,1
23.884621920,0,0
23.884728320,1,0
23.885004800,1,1
23.891215840,0,1
23.893563200,0,0
23.894315040,1,0
23.894852000,1,1
23.894866400,0,1
23.895142720,0,0
23.895231040,1,0
23.895508000,1,1
23.897292480,0,1
23.898141760,0,0
23.901660640,1,0
23.903134080,1,1
23.908497280,0,1
23.910595040,0,0
23.910608960,1,0
23.910885920,1,1
23.911034560,0,1
23.911311040,0,0
23.915677920,1,0
23.917400960,1,1
23.921288800,0,1
23.922887040,0,0
23.922900960,1,0
23.923178080,1,1
23.923237280,0,1
23.923513760,0,0
23.927142880,1,0
23.928616160,1,1
23.932319680,0,1
23.933855520,0,0
23.933869920,1,0
23.934146720,1,1
23.934240160,0,1
23.934517120,0,0
23.935563680,1,0
23.936164160,1,1
23.941342880,0,1
23.943377920,0,0
23.943392000,1,0
23.943668960,1,1
23.943742880,0,1
23.944019200,0,0
23.944143520,1,0
23.944420000,1,1
23.950815360,0,1
23.953224800,0,0
23.957850240,1,0
23.959698560,1,1
23.959712320,0,1
23.959989440,0,0
23.960046400,1,0
23.960322880,1,1
23.964136320,0,1
23.965671520,0,0
23.969190560,1,0
23.970664000,1,1
23.970678560,0,1
23.970955360,0,0
23.971049120,1,0
23.971326080,1,1
23.972557120,0,1
23.973219360,0,0
23.973602720,1,0
23.974014880,1,1
23.974029280,0,1
23.974306080,0,0
23.974451680,1,0
23.974728800,1,1
23.978910560,0,1
23.980571200,0,0
23.982245440,1,0
23.983094400,1,1
23.984031360,0,1
23.984631520,0,0
23.984645440,1,0
23.984922400,1,1
23.985055040,0,1
23.985331360,0,0
23.988407360,1,0
23.989693120,1,1
23.991183360,0,1
23.991971200,0,0
23.991985120,1,0
23.992262080,1,1
23.992357760,0,1
23.992634080,0,0
23.994972320,1,0
23.996009120,1,1
23.996208320,0,1
23.996548960,0,0
23.996572000,1,0
23.996848480,1,1
23.996960480,0,1
23.997236640,0,0
23.997915200,1,0
23.998389600,1,1
24.002830720,0,1
24.004616640,0,0
24.004630400,1,0
24.004907360,1,1
24.005063200,0,1
24.005339360,0,0
24.005463840,1,0
24.005740000,1,1
24.011766880,0,1
24.014051840,0,0
24.019598880,1,0
24.021758720,1,1
24.021772960,0,1
24.022049600,0,0
24.022166560,1,0
24.022443520,1,1
24.024965600,0,1
24.026064640,0,0
24.030321120,1,0
24.032043680,1,1
24.032058080,0,1
24.032334720,0,0
24.032469440,1,0
24.032746240,1,1
24.039141280,0,1
24.041551200,0,0
24.046176160,1,0
24.048024160,1,1
24.048038400,0,1
24.048314720,0,0
24.048372160,1,0
24.048649120,1,1
24.052462240,0,1
24.053998240,0,0
24.058254240,1,0
24.059978080,1,1
24.060545600,0,1
24.061020640,0,0
24.061034720,1,0
24.061311040,1,1
24.061375680,0,1
24.061652000,0,0
24.068047520,1,0
24.070456960,1,1
24.075451360,0,1
24.077423520,0,0
24.077438080,1,0
24.077714400,1,1
24.077778560,0,1
24.078055520,0,0
24.083712800,1,0
24.085872480,1,1
24.088469280,0,1
24.089630080,0,0
24.089644640,1,0
24.089920800,1,1
24.089981280,0,1
24.090258080,0,0
24.095177760,1,0
24.097087680,1,1
24.100422240,0,1
24.101832800,0,0
24.105352000,1,0
24.106825120,1,1
24.106839520,0,1
24.107116000,0,0
24.107184800,1,0
24.107461760,1,1
24.108508320,0,1
24.109108640,0,0
24.114287520,1,0
24.116322240,1,1
24.116336800,0,1
24.116613760,0,0
24.116687520,1,0
24.116964480,1,1
24.122806080,0,1
24.125029280,0,0
24.125596800,1,0
24.126071840,1,1
24.126085760,0,1
24.126362080,0,0
24.126490240,1,0
24.126766560,1,1
24.128182720,0,1
24.128906560,0,0
24.128921120,1,0
24.129197920,1,1
24.129292160,0,1
24.129569120,0,0
24.129692800,1,0
24.129969280,1,1
24.130093440,0,1
24.130369760,0,0
24.130679360,1,0
24.131020000,1,1
24.136812800,0,1
24.139036000,0,0
24.139049600,1,0
24.139326080,1,1
24.139396160,0,1
24.139672480,0,0
24.140166560,1,0
24.140578720,1,1
24.145941920,0,1
24.148039520,0,0
24.148053440,1,0
24.148330560,1,1
24.148398880,0,1
24.148675200,0,0
24.152120160,1,0
24.153532000,1,1
24.158525760,0,1
24.160499680,0,0
24.160513440,1,0
24.160789760,1,1
24.160901760,0,1
24.161177920,0,0
24.167573600,1,0
24.169983040,1,1
24.175161760,0,1
24.177196480,0,0
24.179977600,1,0
24.181201280,1,1
24.181215680,0,1
24.181492320,0,0
24.181605280,1,0
24.181882240,1,1
24.184404320,0,1
24.185503200,0,0
24.189759840,1,0
24.191482560,1,1
24.191496800,0,1
24.191773440,0,0
24.191908000,1,0
24.192185120,1,1
24.198580000,0,1
24.200989920,0,0
24.206168160,1,0
24.208203360,1,1
24.208217120,0,1
24.208493280,0,0
24.208610880,1,0
24.208887200,1,1
24.211778720,0,1
24.213002560,0,0
24.216336960,1,0
24.217748800,1,1
24.217763040,0,1
24.218039040,0,0
24.218113600,1,0
24.218390560,1,1
24.218514240,0,1
24.218791200,0,0
24.220575520,1,0
24.221424800,1,1
24.222546080,0,1
24.223208000,0,0
24.223222560,1,0
24.223498880,1,1
24.223616960,0,1
24.223893760,0,0
24.225862560,1,0
24.226774080,1,1
24.233059360,0,1
24.235468800,0,0
24.235483360,1,0
24.235759840,1,1
24.235819680,0,1
24.236096640,0,0
24.237327680,1,0
24.237989600,1,1
24.238188800,0,1
24.238529280,0,0
24.238621760,1,0
24.238898240,1,1
24.239022240,0,1
24.239298720,0,0
24.245325440,1,0
24.247610560,1,1
24.253895200,0,1
24.256304480,0,0
24.257794880,1,0
24.258582240,1,1
24.258595840,0,1
24.258872800,0,0
24.258925760,1,0
24.259202240,1,1
24.262278080,0,1
24.263563840,0,0
24.266529600,1,0
24.267816000,1,1
24.267829920,0,1
24.268107040,0,0
24.268228640,1,0
24.268505120,1,1
24.271765280,0,1
24.273114080,0,0
24.276817120,1,0
24.278353120,1,1
24.278366880,0,1
24.278643360,0,0
24.278731360,1,0
24.279007680,1,1
24.284296800,0,1
24.286331840,0,0
24.292432640,1,0
24.294779520,1,1
24.299958240,0,1
24.301993920,0,0
24.302008160,1,0
24.302285120,1,1
24.302434880,0,1
24.302711840,0,0
24.308738080,1,0
24.311022720,1,1
24.313435040,0,1
24.314534240,0,0
24.314548000,1,0
24.314824960,1,1
24.314937760,0,1
24.315214080,0,0
24.317736800,1,0
24.318836000,1,1
24.319772480,0,1
24.320372000,0,0
24.320386400,1,0
24.320662880,1,1
24.320740320,0,1
24.321017120,0,0
24.323723840,1,0
24.324884800,1,1
24.326928480,0,1
24.327902240,0,0
24.327916640,1,0
24.328193600,1,1
24.328343040,0,1
24.328619840,0,0
24.328743680,1,0
24.329020160,1,1
24.335231200,0,1
24.337578400,0,0
24.339436960,1,0
24.340348320,1,1
24.340362720,0,1
24.340639520,0,0
24.340746560,1,0
24.341023520,1,1
24.341885600,0,1
24.342422880,0,0
24.343544320,1,0
24.344206720,1,1
24.344220320,0,1
24.344496640,0,0
24.344649120,1,0
24.344925280,1,1
24.350583360,0,1
24.352743040,0,0
24.356630880,1,0
24.358229760,1,1
24.358243680,0,1
24.358520480,0,0
24.358652000,1,0
24.358928320,1,1
24.360160000,0,1
24.360822240,0,0
24.365816160,1,0
24.367789280,1,1
24.369278880,0,1
24.370066560,0,0
24.370080800,1,0
24.370357120,1,1
24.370455360,0,1
24.370732320,0,0
24.372701120,1,0
24.373612640,1,1
24.374733920,0,1
24.375395840,0,0
24.375410400,1,0
24.375686720,1,1
24.375758080,0,1
24.376035040,0,0
24.376343840,1,0
24.376684000,1,1
24.382477280,0,1
24.384699680,0,0
24.384714240,1,0
24.384990560,1,1
24.385060800,0,1
24.385337600,0,0
24.385831040,1,0
24.386243360,1,1
24.391790880,0,1
24.393950720,0,0
24.393965120,1,0
24.394241600,1,1
24.394363520,0,1
24.394640320,0,0
24.394764160,1,0
24.395041280,1,1
24.396272160,0,1
24.396934400,0,0
24.396948320,1,0
24.397231520,1,1
24.397366080,0,1
24.397642560,0,0
24.397766720,1,0
24.398043200,1,1
24.399459200,0,1
24.400183040,0,0
24.400382560,1,0
24.400723200,1,1
24.400768800,0,1
24.401045280,0,0
24.401169280,1,0
24.401445600,1,1
24.405812640,0,1
24.407535680,0,0
24.411239200,1,0
24.412775360,1,1
24.412789280,0,1
24.413066240,0,0
24.413172160,1,0
24.413448640,1,1
24.418921920,0,1
24.421019200,0,0
24.422509280,1,0
24.423296480,1,1
24.426630560,0,1
24.428041600,0,0
24.428055520,1,0
24.428332480,1,1
24.428475520,0,1
24.428751840,0,0
24.434963040,1,0
24.437310080,1,1
24.439168800,0,1
24.440080160,0,0
24.440094560,1,0
24.440371360,1,1
24.440478400,0,1
24.440755200,0,0
24.441617600,1,0
24.442154720,1,1
24.443829600,0,1
24.444679040,0,0
24.444692800,1,0
24.444969760,1,1
24.445080960,0,1
24.445357440,0,0
24.451015200,1,0
24.453175360,1,1
24.455956160,0,1
24.457180480,0,0
24.462358720,1,0
24.464393600,1,1
24.464407840,0,1
24.464684160,0,0
24.464784480,1,0
24.465061440,1,1
24.469612320,0,1
24.471398720,0,0
24.475285920,1,0
24.476884000,1,1
24.476898400,0,1
24.477175040,0,0
24.477287360,1,0
24.477564320,1,1
24.478610880,0,1
24.479211360,0,0
24.484943360,1,0
24.487165280,1,1
24.487179680,0,1
24.487456320,0,0
24.487590080,1,0
24.487867040,1,1
24.492786560,0,1
24.494697120,0,0
24.498953280,1,0
24.500676480,1,1
24.500690240,0,1
24.500967200,0,0
24.501092800,1,0
24.501369280,1,1
24.501493440,0,1
24.501770080,0,0
24.507427840,1,0
24.509587680,1,1
24.514213120,0,1
24.516061600,0,0
24.516075520,1,0
24.516352480,1,1
24.516496320,0,1
24.516772800,0,0
24.521692960,1,0
24.523603200,1,1
24.525830720,0,1
24.526867040,0,0
24.526881440,1,0
24.527157760,1,1
24.527299040,0,1
24.527576000,0,0
24.531757920,1,0
24.533418240,1,1
24.536383840,0,1
24.537670080,0,0
24.537684000,1,0
24.537960960,1,1
24.538101920,0,1
24.538378240,0,0
24.541823040,1,0
24.543235040,1,1
24.548413120,0,1
24.550448000,0,0
24.555626880,1,0
24.557662560,1,1
24.557676800,0,1
24.557953760,0,0
24.558105440,1,0
24.558382560,1,1
24.564408480,0,1
24.566693120,0,0
24.569474400,1,0
24.570697920,1,1
24.570712480,0,1
24.570988800,0,0
24.571108160,1,0
24.571384960,1,1
24.575751520,0,1
24.577475040,0,0
24.581362560,1,0
24.582960160,1,1
24.582974720,0,1
24.583251040,0,0
24.583310880,1,0
24.583587840,1,1
24.587216480,0,1
24.588690240,0,0
24.592946560,1,0
24.594669760,1,1
24.594683680,0,1
24.594960480,0,0
24.595013600,1,0
24.595290080,1,1
24.595414400,0,1
24.595690720,0,0
24.597291200,1,0
24.598078400,1,1
24.598277280,0,1
24.598626720,0,0
24.598641280,1,0
24.598917920,1,1
24.599016960,0,1
24.599293760,0,0
24.602000480,1,0
24.603161440,1,1
24.605020640,0,1
24.605932320,0,0
24.605946560,1,0
24.606223040,1,1
24.606319680,0,1
24.606596480,0,0
24.608565440,1,0
24.609476800,1,1
24.610413920,0,1
24.611013760,0,0
25.962741760,0,0
