Time [s],Channel 0,Channel 1
0.000000000,0,0
18.731936160,1,0
18.732212320,1,1
18.732523360,0,1
18.732863520,0,0
18.733308320,1,0
18.733710880,1,1
18.734293600,0,1
18.734768320,0,0
18.735519680,1,0
18.736056960,1,1
18.736992960,0,1
18.737591360,0,0
18.738712480,1,0
18.739373280,1,1
18.740678560,0,1
18.741401760,0,0
18.742891680,1,0
18.743676960,1,1
18.745351520,0,1
18.746199680,0,0
18.748057920,1,0
18.748968640,1,1
18.751011520,0,1
18.751984160,0,0
18.754211520,1,0
18.755246720,1,1
18.757658560,0,1
18.758755360,0,0
18.761352320,1,0
18.762511360,1,1
18.765292800,0,1
18.766514240,0,0
18.769480160,1,0
18.770763840,1,1
18.773914240,0,1
18.775260960,0,0
18.778595200,1,0
18.780003840,1,1
18.783522720,0,1
18.784993760,0,0
18.788697120,1,0
18.790230400,1,1
18.794118080,0,1
18.795713120,0,0
18.799786080,1,0
18.801443360,1,1
18.805700800,0,1
18.807420320,0,0
18.811862080,1,0
18.813643840,1,1
18.818270080,0,1
18.820115040,0,0
18.824925280,1,0
18.826832480,1,1
18.831827040,0,1
18.833796160,0,0
18.838975360,1,0
18.841007520,1,1
18.846371360,0,1
18.848464640,0,0
18.854013440,1,0
18.856168960,1,1
18.861902240,0,1
18.864120640,0,0
18.870038400,1,0
18.872318720,1,1
18.878420800,0,1
18.880763680,0,0
18.887049920,1,0
18.889454240,1,1
18.889467360,0,1
18.889744000,0,0
18.890048000,1,0
18.890387520,1,1
18.890832960,0,1
18.891234720,0,0
18.891817920,1,0
18.892291520,1,1
18.893042880,0,1
18.893578880,0,0
18.894514560,1,0
18.895113120,1,1
18.896232640,0,1
18.896893440,0,0
18.898197280,1,0
18.898920640,1,1
18.900408640,0,1
18.901194560,0,0
18.902866880,1,0
18.903713920,1,1
18.905571200,0,1
18.906480800,0,0
18.908522240,1,0
18.909493920,1,1
18.911719840,0,1
18.912753760,0,0
18.915163840,1,0
18.916260480,1,1
18.918854400,0,1
18.920013760,0,0
18.922791840,1,0
18.924013760,1,1
18.926976160,0,1
18.928260000,0,0
18.931406560,1,0
18.932751680,1,1
18.936083360,0,1
18.937490560,0,0
18.941006400,1,0
18.942476480,1,1
18.946176640,0,1
18.947708320,0,0
18.951592800,1,0
18.953187680,1,1
18.957256000,0,1
18.958913120,0,0
18.963165600,1,0
18.964884800,1,1
18.969321760,0,1
18.971103520,0,0
18.975724640,1,0
18.977568160,1,1
18.982374240,0,1
18.984279520,0,0
18.989270080,1,0
18.991237760,1,1
18.996412320,0,1
18.998442400,0,0
19.003801280,1,0
19.005894560,1,1
19.011437280,0,1
19.013592320,0,0
19.019319360,1,0
19.021536480,1,1
19.027447840,0,1
19.029727360,0,0
19.035823040,1,0
19.038164160,1,1
19.044444640,0,1
19.046848160,0,0
19.046861760,1,0
19.047137760,1,1
19.047472800,0,1
19.047812960,0,0
19.048257760,1,0
19.048660000,1,1
19.049242720,0,1
19.049716800,0,0
19.050467680,1,0
19.051004320,1,1
19.051939360,0,1
19.052537440,0,0
19.053657440,1,0
19.054317920,1,1
19.055622240,0,1
19.056344960,0,0
19.057833600,1,0
19.058618720,1,1
19.060291520,0,1
19.061139360,0,0
19.062995840,1,0
19.063905920,1,1
19.065946880,0,1
19.066919040,0,0
19.069144320,1,0
19.070178720,1,1
19.072588160,0,1
19.073684480,0,0
19.076278720,1,0
19.077437440,1,1
19.080216320,0,1
19.081437440,0,0
19.084400640,1,0
19.085683840,1,1
19.088831040,0,1
19.090176960,0,0
19.093508000,1,0
19.094915680,1,1
19.098431200,0,1
19.099901440,0,0
19.103601440,1,0
19.105134080,1,1
19.109017920,0,1
19.110612480,0,0
19.114681280,1,0
19.116337760,1,1
19.120591040,0,1
19.122309760,0,0
19.126747200,1,0
19.128528640,1,1
19.133150400,0,1
19.134994400,0,0
19.139799680,1,0
19.141705440,1,1
19.146695520,0,1
19.148663520,0,0
19.153837760,1,0
19.155868640,1,1
19.161226880,0,1
19.163319680,0,0
19.168862880,1,0
19.171017120,1,1
19.176744800,0,1
19.178961440,0,0
19.184873440,1,0
19.187152320,1,1
19.193248480,0,1
19.195590400,0,0
19.201870240,1,0
19.204274080,1,1
19.204287360,0,1
19.204564160,0,0
19.204897600,1,0
19.205237280,1,1
19.205682560,0,1
19.206084480,0,0
19.206667520,1,0
19.207140960,1,1
19.207892480,0,1
19.208428320,0,0
19.209364000,1,0
19.209962880,1,1
19.211082080,0,1
19.211743040,0,0
19.213046720,1,0
19.213769760,1,1
19.215257920,0,1
19.216043680,0,0
19.217715840,1,0
19.218563040,1,1
19.220420160,0,1
19.221329600,0,0
19.223370880,1,0
19.224342400,1,1
19.226568320,0,1
19.227602240,0,0
19.230012320,1,0
19.231109120,1,1
19.233702720,0,1
19.234862240,0,0
19.237640320,1,0
19.238861760,1,1
19.241824480,0,1
19.243108160,0,0
19.246254720,1,0
19.247600320,1,1
19.250931840,0,1
19.252339360,0,0
19.255855200,1,0
19.257324800,1,1
19.261025120,0,1
19.262556960,0,0
19.266441600,1,0
19.268036480,1,1
19.272104640,0,1
19.273761760,0,0
19.278014240,1,0
19.279733280,1,1
19.284170240,0,1
19.285952160,0,0
19.290573280,1,0
19.292417120,1,1
19.297223040,0,1
19.299128480,0,0
19.304118720,1,0
19.306086240,1,1
19.311261120,0,1
19.313291360,0,0
19.318650400,1,0
19.320743680,1,1
19.326286240,0,1
19.328441120,0,0
19.334168320,1,0
19.336385280,1,1
19.342296800,0,1
19.344576640,0,0
19.350672160,1,0
19.353013280,1,1
19.359293600,0,1
19.361697120,0,0
19.361710720,1,0
19.361986560,1,1
19.362322560,0,1
19.362662720,0,0
19.363107520,1,0
19.363509920,1,1
19.364092480,0,1
19.364566720,0,0
19.365317440,1,0
19.365853920,1,1
19.366789120,0,1
19.367387200,0,0
19.368507200,1,0
19.369167680,1,1
19.370471840,0,1
19.371194720,0,0
19.372683200,1,0
19.373468320,1,1
19.375141280,0,1
19.375989120,0,0
19.377845600,1,0
19.378755680,1,1
19.380796640,0,1
19.381768960,0,0
19.383994080,1,0
19.385028480,1,1
19.387438080,0,1
19.388534080,0,0
19.391128640,1,0
19.392287680,1,1
19.395066240,0,1
19.396287360,0,0
19.399250400,1,0
19.400533440,1,1
19.403680800,0,1
19.405026720,0,0
19.408357600,1,0
19.409765440,1,1
19.413280800,0,1
19.414751200,0,0
19.418450880,1,0
19.419983200,1,1
19.423867200,0,1
19.425461760,0,0
19.429530560,1,0
19.431187200,1,1
19.435440160,0,1
19.437158880,0,0
19.441596320,1,0
19.443377280,1,1
19.447999360,0,1
19.449843520,0,0
19.454648960,1,0
19.456554880,1,1
19.461544800,0,1
19.463512960,0,0
19.468687040,1,0
19.470717600,1,1
19.476076000,0,1
19.478168800,0,0
19.483712160,1,0
19.485866560,1,1
19.491594080,0,1
19.493810720,0,0
19.499722720,1,0
19.502001440,1,1
19.508097920,0,1
19.510439680,0,0
19.516719680,1,0
19.519123680,1,1
19.519136640,0,1
19.519413280,0,0
19.519747360,1,0
19.520086880,1,1
19.520532320,0,1
19.520934240,0,0
19.521517280,1,0
19.521991040,1,1
19.522742240,0,1
19.523278400,0,0
19.524213920,1,0
19.524812480,1,1
19.525932000,0,1
19.526592960,0,0
19.527896640,1,0
19.528620000,1,1
19.530108000,0,1
19.530893760,0,0
19.532565920,1,0
19.533412960,1,1
19.535270240,0,1
19.536179680,0,0
19.538221280,1,0
19.539192800,1,1
19.541418720,0,1
19.542452480,0,0
19.544862720,1,0
19.545959360,1,1
19.548553120,0,1
19.549712640,0,0
19.552490720,1,0
19.553712640,1,1
19.556675040,0,1
19.557959040,0,0
19.561105600,1,0
19.562450720,1,1
19.565782400,0,1
19.567189760,0,0
19.570705600,1,0
19.572175680,1,1
19.575875840,0,1
19.577407680,0,0
19.581292320,1,0
19.582887200,1,1
19.586955520,0,1
19.588612640,0,0
19.592865280,1,0
19.594584320,1,1
19.599021440,0,1
19.600803680,0,0
19.605424640,1,0
19.607267840,1,1
19.612074080,0,1
19.613979520,0,0
19.618969920,1,0
19.620937600,1,1
19.626112160,0,1
19.628142560,0,0
19.633501440,1,0
19.635594720,1,1
19.641137440,0,1
19.643292320,0,0
19.649019520,1,0
19.651236640,1,1
19.657148000,0,1
19.659427680,0,0
19.665523200,1,0
19.667864320,1,1
19.674144960,0,1
19.676548320,0,0
19.676562080,1,0
19.676838080,1,1
19.677172320,0,1
19.677512480,0,0
19.677957280,1,0
19.678359360,1,1
19.678942240,0,1
19.679416320,0,0
19.680167040,1,0
19.680703680,1,1
19.681638720,0,1
19.682236960,0,0
19.683356800,1,0
19.684017120,1,1
19.685321600,0,1
19.686044320,0,0
19.687532800,1,0
19.688317920,1,1
19.689990720,0,1
19.690838720,0,0
19.692695040,1,0
19.693604800,1,1
19.695646080,0,1
19.696618240,0,0
19.698843360,1,0
19.699878080,1,1
19.702287360,0,1
19.703383520,0,0
19.705977920,1,0
19.707136960,1,1
19.709915520,0,1
19.711136800,0,0
19.714099840,1,0
19.715382880,1,1
19.718530400,0,1
19.719876160,0,0
19.723207200,1,0
19.724614720,1,1
19.728130400,0,1
19.729600800,0,0
19.733300640,1,0
19.734833280,1,1
19.738717120,0,1
19.740311520,0,0
19.744380320,1,0
19.746036640,1,1
19.750290080,0,1
19.752008640,0,0
19.756446240,1,0
19.758227680,1,1
19.762849440,0,1
19.764693440,0,0
19.769498880,1,0
19.771404640,1,1
19.776394720,0,1
19.778362880,0,0
19.783537120,1,0
19.785567840,1,1
19.790926400,0,1
19.793019200,0,0
19.798562400,1,0
19.800716640,1,1
19.806444480,0,1
19.808660960,0,0
19.814572960,1,0
19.816851840,1,1
19.822948160,0,1
19.825290240,0,0
19.831569920,1,0
19.833973600,1,1
19.833986880,0,1
19.834263680,0,0
19.834597120,1,0
19.834936800,1,1
19.835382080,0,1
19.835784000,0,0
19.836367040,1,0
19.836840480,1,1
19.837592000,0,1
19.838127840,0,0
19.839063520,1,0
19.839662240,1,1
19.840781600,0,1
19.841442560,0,0
19.842746240,1,0
19.843469280,1,1
19.844957440,0,1
19.845743200,0,0
19.847415360,1,0
19.848262560,1,1
19.850119680,0,1
19.851029280,0,0
19.853070560,1,0
19.854042080,1,1
19.856268000,0,1
19.857301760,0,0
19.859711840,1,0
19.860808640,1,1
19.863402400,0,1
19.864561920,0,0
19.867340000,1,0
19.868561440,1,1
19.871524160,0,1
19.872807840,0,0
19.875954560,1,0
19.877299840,1,1
19.880631520,0,1
19.882039040,0,0
19.885554880,1,0
19.887024640,1,1
19.890724960,0,1
19.892256960,0,0
19.896141440,1,0
19.897736320,1,1
19.901804640,0,1
19.903461760,0,0
19.907714400,1,0
19.909433280,1,1
19.913870400,0,1
19.915652480,0,0
19.920273600,1,0
19.922117280,1,1
19.926923360,0,1
19.928828800,0,0
19.933819200,1,0
19.935786720,1,1
19.940961440,0,1
19.942991520,0,0
19.948350560,1,0
19.950444000,1,1
19.955986560,0,1
19.958141600,0,0
19.963868640,1,0
19.966085760,1,1
19.971997280,0,1
19.974276640,0,0
19.980372320,1,0
19.982713600,1,1
19.988994080,0,1
19.991397760,0,0
19.991411200,1,0
19.991687040,1,1
19.992021920,0,1
19.992362080,0,0
19.992806880,1,0
19.993209280,1,1
19.993791840,0,1
19.994266080,0,0
19.995016800,1,0
19.995553440,1,1
19.996488480,0,1
19.997086560,0,0
19.998206560,1,0
19.998867040,1,1
20.000171200,0,1
20.000894080,0,0
20.002382560,1,0
20.003167360,1,1
20.004840480,0,1
20.005688160,0,0
20.007544640,1,0
20.008454720,1,1
20.010495680,0,1
20.011467840,0,0
20.013693120,1,0
20.014727360,1,1
20.017136960,0,1
20.018233120,0,0
20.020827520,1,0
20.021986400,1,1
20.024765280,0,1
20.025986400,0,0
20.028949440,1,0
20.030232320,1,1
20.033379680,0,1
20.034725600,0,0
20.038056640,1,0
20.039464320,1,1
20.042979840,0,1
20.044450240,0,0
20.048149760,1,0
20.049682080,1,1
20.053566240,0,1
20.055160480,0,0
20.059229440,1,0
20.060886080,1,1
20.065139200,0,1
20.066857920,0,0
20.071295200,1,0
20.073076480,1,1
20.077698400,0,1
20.079542560,0,0
20.084348160,1,0
20.086254080,1,1
20.091244000,0,1
20.093212160,0,0
20.098386240,1,0
20.100416960,1,1
20.105775360,0,1
20.107868000,0,0
20.113411360,1,0
20.115565760,1,1
20.121293440,0,1
20.123510080,0,0
20.129421920,1,0
20.131700960,1,1
20.137797120,0,1
20.140138880,0,0
20.146418720,1,0
20.148822720,1,1
20.148835680,0,1
20.149112640,0,0
20.149446880,1,0
20.149786400,1,1
20.150231840,0,1
20.150633600,0,0
20.151216800,1,0
20.151690400,1,1
20.152441760,0,1
20.152977600,0,0
20.153913440,1,0
20.154512000,1,1
20.155631360,0,1
20.156292480,0,0
20.157596160,1,0
20.158319520,1,1
20.159807520,0,1
20.160593120,0,0
20.162265280,1,0
20.163112480,1,1
20.164969600,0,1
20.165878880,0,0
20.167920640,1,0
20.168892160,1,1
20.171117920,0,1
20.172151840,0,0
20.174561920,1,0
20.175658400,1,1
20.178252320,0,1
20.179411680,0,0
20.182189920,1,0
20.183411520,1,1
20.186374080,0,1
20.187657920,0,0
20.190804480,1,0
20.192149760,1,1
20.195481440,0,1
20.196888640,0,0
20.200404640,1,0
20.201874560,1,1
20.205574720,0,1
20.207106560,0,0
20.210991200,1,0
20.212585920,1,1
20.216654400,0,1
20.218311360,0,0
20.222564000,1,0
20.224283040,1,1
20.228720160,0,1
20.230502080,0,0
20.235123200,1,0
20.236966720,1,1
20.241772960,0,1
20.243678400,0,0
20.248668800,1,0
20.250636480,1,1
20.255811040,0,1
20.257841280,0,0
20.263200160,1,0
20.265293440,1,1
20.270836160,0,1
20.272990880,0,0
20.278718080,1,0
20.280935360,1,1
20.286846880,0,1
20.289126400,0,0
20.295221920,1,0
20.297563040,1,1
20.303843680,0,1
20.306247040,0,0
20.306260640,1,0
20.306536800,1,1
20.306871680,0,1
20.307212000,0,0
20.307656640,1,0
20.308058880,1,1
20.308641600,0,1
20.309115680,0,0
20.309866560,1,0
20.310403360,1,1
20.311338240,0,1
20.311936480,0,0
20.313056320,1,0
20.313716640,1,1
20.315020960,0,1
20.315743840,0,0
20.317232320,1,0
20.318017280,1,1
20.319690240,0,1
20.320537920,0,0
20.322394560,1,0
20.323304480,1,1
20.325345440,0,1
20.326317760,0,0
20.328542880,1,0
20.329577440,1,1
20.331986880,0,1
20.333083200,0,0
20.335677440,1,0
20.336836160,1,1
20.339615040,0,1
20.340836160,0,0
20.343799360,1,0
20.345082560,1,1
20.348229760,0,1
20.349575680,0,0
20.352906720,1,0
20.354314400,1,1
20.357829920,0,1
20.359300480,0,0
20.363000160,1,0
20.364532640,1,1
20.368416480,0,1
20.370010880,0,0
20.374079840,1,0
20.375736160,1,1
20.379989600,0,1
20.381708000,0,0
20.386145600,1,0
20.387927040,1,1
20.392548640,0,1
20.394392960,0,0
20.399198240,1,0
20.401103840,1,1
20.406093920,0,1
20.408062080,0,0
20.413236320,1,0
20.415267040,1,1
20.420625280,0,1
20.422718080,0,0
20.428261280,1,0
20.430415520,1,1
20.436143360,0,1
20.438360000,0,0
20.444272000,1,0
20.446550880,1,1
20.452647200,0,1
20.454989120,0,0
20.461268960,1,0
20.463672800,1,1
20.463685920,0,1
20.463962560,0,0
20.464296640,1,0
20.464636160,1,1
20.465081600,0,1
20.465483520,0,0
20.466066560,1,0
20.466540000,1,1
20.467291520,0,1
20.467827520,0,0
20.468763040,1,0
20.469361760,1,1
20.470481120,0,1
20.471142080,0,0
20.472445760,1,0
20.473168800,1,1
20.474656960,0,1
20.475442560,0,0
20.477114880,1,0
20.477962080,1,1
20.479819200,0,1
20.480728640,0,0
20.482770080,1,0
20.483741600,1,1
20.485967360,0,1
20.487001120,0,0
20.489411360,1,0
20.490508320,1,1
20.493101760,0,1
20.494261280,0,0
20.497039360,1,0
20.498260800,1,1
20.501223520,0,1
20.502507040,0,0
20.505653760,1,0
20.506999360,1,1
20.510330720,0,1
20.511738400,0,0
20.515254240,1,0
20.516723840,1,1
20.520424160,0,1
20.521956000,0,0
20.525840640,1,0
20.527435520,1,1
20.531503680,0,1
20.533160800,0,0
20.537413440,1,0
20.539132480,1,1
20.543569440,0,1
20.545351520,0,0
20.549972480,1,0
20.551816320,1,1
20.556622240,0,1
20.558527680,0,0
20.563518080,1,0
20.565485600,1,1
20.570660480,0,1
20.572690560,0,0
20.578049600,1,0
20.580142880,1,1
20.585685600,0,1
20.587840480,0,0
20.593567520,1,0
20.595784480,1,1
20.601696160,0,1
20.603975520,0,0
20.610071200,1,0
20.612412320,1,1
20.618692800,0,1
20.621096320,0,0
20.621109760,1,0
20.621385760,1,1
20.621721440,0,1
20.622061600,0,0
20.622506400,1,0
20.622908800,1,1
20.623491360,0,1
20.623965600,0,0
20.624716320,1,0
20.625252960,1,1
20.626188000,0,1
20.626786080,0,0
20.627906080,1,0
20.628566400,1,1
20.629870720,0,1
20.630593600,0,0
20.632082080,1,0
20.632866880,1,1
20.634540000,0,1
20.635387840,0,0
20.637244320,1,0
20.638154240,1,1
20.640195200,0,1
20.641167360,0,0
20.643392640,1,0
20.644427040,1,1
20.646836640,0,1
20.647932800,0,0
20.650527200,1,0
20.651686080,1,1
20.654464800,0,1
20.655686080,0,0
20.658648960,1,0
20.659931840,1,1
20.663079360,0,1
20.664425440,0,0
20.667756160,1,0
20.669163840,1,1
20.672679360,0,1
20.674149760,0,0
20.677849440,1,0
20.679381760,1,1
20.683265920,0,1
20.684860640,0,0
20.688929120,1,0
20.690585760,1,1
20.694838880,0,1
20.696557440,0,0
20.700994880,1,0
20.702776160,1,1
20.707398080,0,1
20.709242080,0,0
20.714047680,1,0
20.715953600,1,1
20.720943360,0,1
20.722911520,0,0
20.728085760,1,0
20.730116320,1,1
20.735474880,0,1
20.737567360,0,0
20.743110880,1,0
20.745265280,1,1
20.750992800,0,1
20.753209600,0,0
20.759121440,1,0
20.761400000,1,1
20.767496480,0,1
20.769838240,0,0
20.776118240,1,0
20.778522240,1,1
20.778535200,0,1
20.778811840,0,0
20.779146240,1,0
20.779485760,1,1
20.779931200,0,1
20.780333120,0,0
20.780916160,1,0
20.781389920,1,1
20.782141120,0,1
20.782677280,0,0
20.783612800,1,0
20.784211360,1,1
20.785330880,0,1
20.785991680,0,0
20.787295520,1,0
20.788018880,1,1
20.789506880,0,1
20.790292480,0,0
20.791964800,1,0
20.792811840,1,1
20.794669120,0,1
20.795578560,0,0
20.797620000,1,0
20.798591840,1,1
20.800817440,0,1
20.801851360,0,0
20.804261280,1,0
20.805357920,1,1
20.807951840,0,1
20.809111200,0,0
20.811889440,1,0
20.813111200,1,1
20.816073440,0,1
20.817357440,0,0
20.820503840,1,0
20.821848960,1,1
20.825180800,0,1
20.826588320,0,0
20.830104000,1,0
20.831573760,1,1
20.835274080,0,1
20.836806080,0,0
20.840690560,1,0
20.842285600,1,1
20.846353760,0,1
20.848010720,0,0
20.852263520,1,0
20.853982400,1,1
20.858419520,0,1
20.860201600,0,0
20.864822720,1,0
20.866666240,1,1
20.871472480,0,1
20.873377760,0,0
20.878368160,1,0
20.880335840,1,1
20.885510560,0,1
20.887540480,0,0
20.892899520,1,0
20.894992640,1,1
20.900535520,0,1
20.902690400,0,0
20.908417600,1,0
20.910634880,1,1
20.916546240,0,1
20.918825920,0,0
20.924921280,1,0
20.927262240,1,1
20.933543040,0,1
20.935946400,0,0
20.935960000,1,0
20.936236160,1,1
20.936571200,0,1
20.936911360,0,0
20.937356160,1,0
20.937758400,1,1
20.938341120,0,1
20.938815360,0,0
20.939566080,1,0
20.940102880,1,1
20.941037760,0,1
20.941635840,0,0
20.942755840,1,0
20.943416000,1,1
20.944720480,0,1
20.945443200,0,0
20.946931840,1,0
20.947716960,1,1
20.949389600,0,1
20.950237600,0,0
23.026728960,0,0
