Time [s],Channel 0,Channel 1
0.000000000,0,0
11.024615840,1,0
11.024892480,1,1
11.025203680,0,1
11.025543680,0,0
11.025989760,1,0
11.026391840,1,1
11.026977280,0,1
11.027452320,0,0
11.028209280,1,0
11.028746400,1,1
11.029688640,0,1
11.030286560,0,0
11.031415040,1,0
11.032075520,1,1
11.033389440,0,1
11.034111680,0,0
11.035610880,1,0
11.036395520,1,1
11.038080000,0,1
11.038927200,0,0
11.040796640,1,0
11.041705600,1,1
11.043760800,0,1
11.044731840,0,0
11.046972320,1,0
11.048005440,1,1
11.050431360,0,1
11.051525600,0,0
11.054137600,1,0
11.055293920,1,1
11.058091360,0,1
11.059309920,0,0
11.062292640,1,0
11.063573120,1,1
11.066741440,0,1
11.068084320,0,0
11.071437600,1,0
11.072842240,1,1
11.076380960,0,1
11.077848000,0,0
11.081572320,1,0
11.083101760,1,1
11.087011200,0,1
11.088601920,0,0
11.092697600,1,0
11.094350080,1,1
11.098631200,0,1
11.100345920,0,0
11.104812480,1,0
11.106589440,1,1
11.111241280,0,1
11.113080000,0,0
11.117916960,1,0
11.119817920,1,1
11.124840480,0,1
11.126803520,0,0
11.132011360,1,0
11.134036640,1,1
11.139429760,0,1
11.141516160,0,0
11.147095840,1,0
11.149244480,1,1
11.155009120,0,1
11.157219840,0,0
11.163169920,1,0
11.165442240,1,1
11.171578080,0,1
11.173913120,0,0
11.180233760,1,0
11.182631360,1,1
11.182645920,0,1
11.182922880,0,0
11.183229280,1,0
11.183568960,1,1
11.184015360,0,1
11.184416960,0,0
11.185003040,1,0
11.185477440,1,1
11.186234880,0,1
11.186771360,0,0
11.187714240,1,0
11.188312960,1,1
11.189440800,0,1
11.190101440,0,0
11.191415040,1,0
11.192137920,1,1
11.193636640,0,1
11.194421760,0,0
11.196105920,1,0
11.196952640,1,1
11.198822880,0,1
11.199731040,0,0
11.201787040,1,0
11.202757440,1,1
11.204998720,0,1
11.206031200,0,0
11.208457920,1,0
11.209552800,1,1
11.212164160,0,1
11.213320800,0,0
11.216118080,1,0
11.217337120,1,1
11.220319680,0,1
11.221600800,0,0
11.224768480,1,0
11.226111200,1,1
11.229464960,0,1
11.230868960,0,0
11.234408640,1,0
11.235875200,1,1
11.239600000,0,1
11.241128800,0,0
11.245039040,1,0
11.246630240,1,1
11.250725440,0,1
11.252378080,0,0
11.256658880,1,0
11.258373920,1,1
11.262840320,0,1
11.264617600,0,0
11.269269120,1,0
11.271107360,1,1
11.275945120,0,1
11.277845440,0,0
11.282868800,1,0
11.284831040,1,1
11.290039680,0,1
11.292064480,0,0
11.297458560,1,0
11.299545760,1,1
11.305124800,0,1
11.307273760,0,0
11.313038400,1,0
11.315249440,1,1
11.321199520,0,1
11.323472800,0,0
11.329608000,1,0
11.331942880,1,1
11.338264320,0,1
11.340660960,0,0
11.340676160,1,0
11.340952480,1,1
11.341254720,0,1
11.341595040,0,0
11.342040960,1,0
11.342443040,1,1
11.343028480,0,1
11.343503360,0,0
11.344260480,1,0
11.344797440,1,1
11.345739840,0,1
11.346338080,0,0
11.347466240,1,0
11.348126720,1,1
11.349440640,0,1
11.350162880,0,0
11.351662240,1,0
11.352446560,1,1
11.354131360,0,1
11.354978720,0,0
11.356848160,1,0
11.357757120,1,1
11.359812320,0,1
11.360783200,0,0
11.363024000,1,0
11.364057120,1,1
11.366483040,0,1
11.367577440,0,0
11.370189440,1,0
11.371345920,1,1
11.374143360,0,1
11.375361600,0,0
11.378344960,1,0
11.379625440,1,1
11.382793920,0,1
11.384137280,0,0
11.387490400,1,0
11.388895200,1,1
11.392434240,0,1
11.393901120,0,0
11.397625760,1,0
11.399155040,1,1
11.403064800,0,1
11.404655360,0,0
11.408751200,1,0
11.410403680,1,1
11.414684960,0,1
11.416399520,0,0
11.420866400,1,0
11.422643040,1,1
11.427295360,0,1
11.429134240,0,0
11.433971360,1,0
11.435872480,1,1
11.440895200,0,1
11.442857600,0,0
11.448065920,1,0
11.450091520,1,1
11.455484960,0,1
11.457571680,0,0
11.463151200,1,0
11.465300000,1,1
11.471064960,0,1
11.473275360,0,0
11.479226080,1,0
11.481498560,1,1
11.487634560,0,1
11.489970080,0,0
11.496290880,1,0
11.498688160,1,1
11.498702720,0,1
11.498979520,0,0
11.499280320,1,0
11.499619840,1,1
11.500066400,0,1
11.500468160,0,0
11.501054080,1,0
11.501528640,1,1
11.502285920,0,1
11.502822240,0,0
11.503765280,1,0
11.504364000,1,1
11.505491680,0,1
11.506152640,0,0
11.507465920,1,0
11.508188640,1,1
11.509687520,0,1
11.510472480,0,0
11.512156640,1,0
11.513003200,1,1
11.514873440,0,1
11.515781920,0,0
11.517837440,1,0
11.518808000,1,1
11.521049120,0,1
11.522081440,0,0
11.524508160,1,0
11.525603040,1,1
11.528214560,0,1
11.529371200,0,0
11.532168320,1,0
11.533387360,1,1
11.536369920,0,1
11.537650720,0,0
11.540818880,1,0
11.542161440,1,1
11.545515360,0,1
11.546919520,0,0
11.550459040,1,0
11.551925600,1,1
11.555650400,0,1
11.557178880,0,0
11.561089440,1,0
11.562680480,1,1
11.566775840,0,1
11.568428640,0,0
11.572709440,1,0
11.574424640,1,1
11.578890880,0,1
11.580668160,0,0
11.585320000,1,0
11.587158080,1,1
11.591996000,0,1
11.593896640,0,0
11.598919680,1,0
11.600881920,1,1
11.606090560,0,1
11.608115200,0,0
11.613509440,1,0
11.615596640,1,1
11.621175680,0,1
11.623324960,0,0
11.629089440,1,0
11.631300480,1,1
11.637250400,0,1
11.639523360,0,0
11.645658880,1,0
11.647993920,1,1
11.654315200,0,1
11.656712000,0,0
11.656727040,1,0
11.657003520,1,1
11.657305920,0,1
11.657645920,0,0
11.658092000,1,0
11.658494080,1,1
11.659079680,0,1
11.659554400,0,0
11.660311520,1,0
11.660848640,1,1
11.661790880,0,1
11.662388640,0,0
11.663517280,1,0
11.664177920,1,1
11.665491680,0,1
11.666213920,0,0
11.667713280,1,0
11.668497920,1,1
11.670182560,0,1
11.671029280,0,0
11.672899200,1,0
11.673808000,1,1
11.675863360,0,1
11.676834240,0,0
11.679075040,1,0
11.680108320,1,1
11.682534240,0,1
11.683628480,0,0
11.686240800,1,0
11.687396960,1,1
11.690194560,0,1
11.691413120,0,0
11.694396160,1,0
11.695676480,1,1
11.698844960,0,1
11.700188000,0,0
11.703541440,1,0
11.704946240,1,1
11.708485120,0,1
11.709952160,0,0
11.713676640,1,0
11.715205760,1,1
11.719115520,0,1
11.720705920,0,0
11.724801920,1,0
11.726454080,1,1
11.730735520,0,1
11.732450240,0,0
11.736916960,1,0
11.738693760,1,1
11.743345920,0,1
11.745184640,0,0
11.750021760,1,0
11.751922880,1,1
11.756945600,0,1
11.758908480,0,0
11.764116640,1,0
11.766142240,1,1
11.771535680,0,1
11.773622240,0,0
11.779201920,1,0
11.781350880,1,1
11.787115680,0,1
11.789326400,0,0
11.795276800,1,0
11.797549440,1,1
11.803685440,0,1
11.806020800,0,0
11.812341600,1,0
11.814738880,1,1
11.814753600,0,1
11.815030560,0,0
11.815331360,1,0
11.815671200,1,1
11.816117600,0,1
11.816519040,0,0
11.817105120,1,0
11.817579520,1,1
11.818337120,0,1
11.818873440,0,0
11.819816480,1,0
11.820415200,1,1
11.821542880,0,1
11.822203520,0,0
11.823517120,1,0
11.824239840,1,1
11.825738720,0,1
11.826523840,0,0
11.828208000,1,0
11.829054560,1,1
11.830924800,0,1
11.831833120,0,0
11.833888960,1,0
11.834859200,1,1
11.837100640,0,1
11.838132960,0,0
11.840559680,1,0
11.841654720,1,1
11.844266080,0,1
11.845422720,0,0
11.848220000,1,0
11.849438880,1,1
11.852421600,0,1
11.853702560,0,0
11.856870400,1,0
11.858212960,1,1
11.861567040,0,1
11.862971360,0,0
11.866510720,1,0
11.867977280,1,1
11.871702240,0,1
11.873230880,0,0
11.877141280,1,0
11.878732480,1,1
11.882827680,0,1
11.884480480,0,0
11.888761440,1,0
11.890476480,1,1
11.894942880,0,1
11.896720160,0,0
11.901371680,1,0
11.903210080,1,1
11.908047680,0,1
11.909948160,0,0
11.914971520,1,0
11.916933600,1,1
11.922142400,0,1
11.924167520,0,0
11.929561440,1,0
11.931648640,1,1
11.937227680,0,1
11.939376800,0,0
11.945141440,1,0
11.947352480,1,1
11.953302560,0,1
11.955575840,0,0
11.961711200,1,0
11.964046080,1,1
11.970367520,0,1
11.972764160,0,0
11.972779520,1,0
11.973055680,1,1
11.973356960,0,1
11.973697280,0,0
11.974143040,1,0
11.974545280,1,1
11.975130720,0,1
11.975605440,0,0
11.976362560,1,0
11.976899680,1,1
11.977841920,0,1
11.978440160,0,0
11.979568480,1,0
11.980228960,1,1
11.981542880,0,1
11.982264800,0,0
11.983764320,1,0
11.984548800,1,1
11.986233600,0,1
11.987080640,0,0
11.988950400,1,0
11.989859200,1,1
11.991914400,0,1
11.992885280,0,0
11.995126080,1,0
11.996159200,1,1
11.998585280,0,1
11.999679520,0,0
12.002291680,1,0
12.003448000,1,1
12.006245600,0,1
12.007463840,0,0
12.010447200,1,0
12.011727520,1,1
12.014896000,0,1
12.016239200,0,0
12.019592480,1,0
12.020997280,1,1
12.024536320,0,1
12.026003200,0,0
12.029727840,1,0
12.031256800,1,1
12.035166720,0,1
12.036757440,0,0
12.040853280,1,0
12.042505760,1,1
12.046786880,0,1
12.048501440,0,0
12.052968320,1,0
12.054745120,1,1
12.059397280,0,1
12.061236320,0,0
12.066073280,1,0
12.067974560,1,1
12.072997120,0,1
12.074959680,0,0
12.080168000,1,0
12.082193440,1,1
12.087587040,0,1
12.089673760,0,0
12.095253280,1,0
12.097402080,1,1
12.103167040,0,1
12.105377440,0,0
12.111328160,1,0
12.113600800,1,1
12.119736800,0,1
12.122072160,0,0
12.128393120,1,0
12.130790400,1,1
12.130805120,0,1
12.131081920,0,0
12.131382560,1,0
12.131722080,1,1
12.132168640,0,1
12.132570400,0,0
12.133156160,1,0
12.133630560,1,1
12.134388000,0,1
12.134924320,0,0
12.135867360,1,0
12.136466080,1,1
12.137593920,0,1
12.138254880,0,0
12.139568160,1,0
12.140290880,1,1
12.141789760,0,1
12.142574720,0,0
12.144258880,1,0
12.145105280,1,1
12.146975680,0,1
12.147884160,0,0
12.149939840,1,0
12.150910240,1,1
12.153151360,0,1
12.154183840,0,0
12.156610560,1,0
12.157705440,1,1
12.160316960,0,1
12.161473920,0,0
12.164270880,1,0
12.165490080,1,1
12.168472480,0,1
12.169753440,0,0
12.172921440,1,0
12.174264000,1,1
12.177617920,0,1
12.179022080,0,0
12.182561600,1,0
12.184028320,1,1
12.187753120,0,1
12.189281600,0,0
12.193192000,1,0
12.194783360,1,1
12.198878560,0,1
12.200531360,0,0
12.204812160,1,0
12.206527360,1,1
12.210993600,0,1
12.212770560,0,0
12.217422400,1,0
12.219260800,1,1
12.224098560,0,1
12.225999200,0,0
12.231022400,1,0
12.232984640,1,1
12.238193280,0,1
12.240218240,0,0
12.245612320,1,0
12.247699680,1,1
12.253278560,0,1
12.255428000,0,0
12.261192320,1,0
12.263403520,1,1
12.269353440,0,1
12.271626400,0,0
12.277762080,1,0
12.280096960,1,1
12.286418400,0,1
12.288815200,0,0
12.288830400,1,0
12.289106720,1,1
12.289408000,0,1
12.289748160,0,0
12.290194240,1,0
12.290596320,1,1
12.291181760,0,1
12.291656640,0,0
12.292413600,1,0
12.292950720,1,1
12.293892960,0,1
12.294491040,0,0
12.295619520,1,0
12.296280160,1,1
12.297593920,0,1
12.298316160,0,0
12.299815360,1,0
12.300600000,1,1
12.302284640,0,1
12.303131520,0,0
12.305001440,1,0
12.305910080,1,1
12.307965440,0,1
12.308936480,0,0
12.311177120,1,0
12.312210400,1,1
12.314636320,0,1
12.315730400,0,0
12.318342720,1,0
12.319499040,1,1
12.322296640,0,1
12.323515040,0,0
12.326498080,1,0
12.327778720,1,1
12.330947040,0,1
12.332290240,0,0
12.335643520,1,0
12.337048320,1,1
12.340587200,0,1
12.342054560,0,0
12.345778720,1,0
12.347308000,1,1
12.351217760,0,1
12.352808160,0,0
12.356904160,1,0
12.358556480,1,1
12.362837760,0,1
12.364552480,0,0
12.369019200,1,0
12.370795840,1,1
12.375448000,0,1
12.377286880,0,0
12.382124000,1,0
12.384025120,1,1
12.389047840,0,1
12.391010720,0,0
12.396218880,1,0
12.398244480,1,1
12.403637920,0,1
12.405724480,0,0
12.411304160,1,0
12.413452800,1,1
12.419217920,0,1
12.421427680,0,0
12.427379040,1,0
12.429651520,1,1
12.435787680,0,1
12.438123040,0,0
12.444444000,1,0
12.446841120,1,1
12.446855840,0,1
12.447132800,0,0
12.447433600,1,0
12.447773120,1,1
12.448219680,0,1
12.448621440,0,0
12.449207360,1,0
12.449681760,1,1
12.450439200,0,1
12.450975680,0,0
12.451918560,1,0
12.452517120,1,1
12.453644960,0,1
12.454305760,0,0
12.455619360,1,0
12.456342080,1,1
12.457840960,0,1
12.458626080,0,0
12.460310080,1,0
12.461156480,1,1
12.463026880,0,1
12.463935200,0,0
12.465991040,1,0
12.466961440,1,1
12.469202560,0,1
12.470235200,0,0
12.472661760,1,0
12.473756480,1,1
12.476368000,0,1
12.477524800,0,0
12.480322080,1,0
12.481541280,1,1
12.484523520,0,1
12.485804640,0,0
12.488972640,1,0
12.490315040,1,1
12.493669120,0,1
12.495073120,0,0
12.498612640,1,0
12.500079360,1,1
12.503804160,0,1
12.505332640,0,0
12.509243200,1,0
12.510834240,1,1
12.514929600,0,1
12.516582240,0,0
12.520863200,1,0
12.522578240,1,1
12.527044640,0,1
12.528821920,0,0
12.533473440,1,0
12.535311680,1,1
12.540149440,0,1
12.542050240,0,0
12.547073280,1,0
12.549035520,1,1
12.554244320,0,1
12.556269280,0,0
12.561663360,1,0
12.563750560,1,1
12.569329600,0,1
12.571478720,0,0
12.577243360,1,0
12.579454240,1,1
12.585404480,0,1
12.587677600,0,0
12.593812960,1,0
12.596147680,1,1
12.602469280,0,1
12.604865920,0,0
12.604881280,1,0
12.605157440,1,1
12.605459200,0,1
12.605799360,0,0
12.606245280,1,0
12.606647200,1,1
12.607232800,0,1
12.607707680,0,0
12.608464640,1,0
12.609001760,1,1
12.609944000,0,1
12.610542080,0,0
12.611670560,1,0
12.612330880,1,1
12.613644960,0,1
12.614367040,0,0
12.615866400,1,0
12.616650880,1,1
12.618335680,0,1
12.619182880,0,0
12.621052480,1,0
12.621961120,1,1
12.624016640,0,1
12.624987360,0,0
12.627228160,1,0
12.628261280,1,1
12.630687360,0,1
12.631781760,0,0
12.634393920,1,0
12.635550080,1,1
12.638347840,0,1
12.639566240,0,0
12.642549280,1,0
12.643829600,1,1
12.646998240,0,1
12.648341280,0,0
12.651694720,1,0
12.653099200,1,1
12.656638400,0,1
12.658105440,0,0
12.661829920,1,0
12.663359200,1,1
12.667268960,0,1
12.668859680,0,0
12.672955360,1,0
12.674607680,1,1
12.678889120,0,1
12.680603680,0,0
12.685070560,1,0
12.686847200,1,1
12.691499360,0,1
12.693338240,0,0
12.698175360,1,0
12.700076320,1,1
12.705099040,0,1
12.707061760,0,0
12.712270080,1,0
12.714295680,1,1
12.719689120,0,1
12.721776000,0,0
12.727355360,1,0
12.729504000,1,1
12.735269120,0,1
12.737479680,0,0
12.743430240,1,0
12.745702880,1,1
12.751838880,0,1
12.754174400,0,0
12.760495200,1,0
12.762892480,1,1
12.762907200,0,1
12.763184000,0,0
12.763484640,1,0
12.763824320,1,1
12.764270880,0,1
12.764672480,0,0
12.765258400,1,0
12.765732800,1,1
12.766490240,0,1
12.767026720,0,0
12.767969600,1,0
12.768568480,1,1
12.769696160,0,1
12.770357120,0,0
12.771670400,1,0
12.772392960,1,1
12.773892000,0,1
12.774676960,0,0
12.776361120,1,0
12.777207680,1,1
12.779077920,0,1
12.779986400,0,0
12.782042080,1,0
12.783012320,1,1
12.785253600,0,1
12.786286080,0,0
12.788712800,1,0
12.789807680,1,1
12.792419040,0,1
12.793576000,0,0
12.796372960,1,0
12.797591680,1,1
12.800574560,0,1
12.801855680,0,0
12.805023520,1,0
12.806366080,1,1
12.809720000,0,1
12.811124320,0,0
12.814663680,1,0
12.816130080,1,1
12.819855040,0,1
12.821383680,0,0
12.825294080,1,0
12.826885280,1,1
12.830980480,0,1
12.832633280,0,0
12.836914240,1,0
12.838629120,1,1
12.843095680,0,1
12.844872800,0,0
12.849524480,1,0
12.851362720,1,1
12.856200480,0,1
12.858100960,0,0
12.863124160,1,0
12.865086400,1,1
12.870295040,0,1
12.872319840,0,0
12.877713920,1,0
12.879801280,1,1
12.885380160,0,1
12.887529280,0,0
12.893293920,1,0
12.895504960,1,1
12.901454880,0,1
12.903728320,0,0
12.909863360,1,0
12.912198400,1,1
12.918519840,0,1
12.920916480,0,0
12.920931680,1,0
12.921207840,1,1
12.921510240,0,1
12.921850240,0,0
12.922296320,1,0
12.922698560,1,1
12.923284000,0,1
12.923759040,0,0
12.924515840,1,0
12.925052800,1,1
12.925995200,0,1
12.926593120,0,0
12.927721600,1,0
12.928382080,1,1
12.929696000,0,1
12.930418240,0,0
12.931917600,1,0
12.932701920,1,1
12.934386880,0,1
12.935233760,0,0
12.937103520,1,0
12.938012480,1,1
12.940067680,0,1
12.941038560,0,0
12.943279360,1,0
12.944312320,1,1
12.946738560,0,1
12.947832640,0,0
12.950444960,1,0
12.951601280,1,1
12.954398720,0,1
12.955617280,0,0
12.958600320,1,0
12.959880800,1,1
12.963049280,0,1
12.964392480,0,0
12.967745760,1,0
12.969150560,1,1
12.972689440,0,1
12.974156480,0,0
12.977880960,1,0
12.979410080,1,1
12.983319840,0,1
12.984910240,0,0
12.989006240,1,0
12.990658560,1,1
12.994939840,0,1
12.996654560,0,0
13.001121280,1,0
13.002897760,1,1
13.007550240,0,1
13.009389120,0,0
13.014226080,1,0
13.016127200,1,1
13.021149920,0,1
13.023112800,0,0
13.028320960,1,0
13.030346400,1,1
13.035739840,0,1
13.037826720,0,0
13.043406080,1,0
13.045554880,1,1
13.051320000,0,1
13.053530560,0,0
13.059480960,1,0
13.061753440,1,1
13.067889600,0,1
13.070224960,0,0
13.076545920,1,0
13.078943200,1,1
13.078957760,0,1
13.079234720,0,0
13.079535840,1,0
13.079875360,1,1
13.080321920,0,1
13.080723520,0,0
13.081309440,1,0
13.081784000,1,1
13.082541440,0,1
13.083077760,0,0
13.084020800,1,0
13.084619200,1,1
13.085747200,0,1
13.086408320,0,0
13.087721600,1,0
13.088444160,1,1
13.089943040,0,1
13.090728000,0,0
13.092412320,1,0
13.093258720,1,1
13.095128960,0,1
13.096037440,0,0
13.098093120,1,0
13.099063520,1,1
13.101304800,0,1
13.102337280,0,0
13.104763840,1,0
13.105858560,1,1
13.108470240,0,1
13.109626880,0,0
13.112424000,1,0
13.113643040,1,1
13.116625600,0,1
13.117906720,0,0
13.121074560,1,0
13.122416960,1,1
13.125771040,0,1
13.127175200,0,0
13.130714720,1,0
13.132181280,1,1
13.135906080,0,1
13.137434880,0,0
13.141345120,1,0
13.142936160,1,1
13.147031520,0,1
13.148684480,0,0
13.152965280,1,0
13.154680480,1,1
13.159146720,0,1
13.160923840,0,0
13.165575520,1,0
13.167413760,1,1
13.172251520,0,1
13.174152160,0,0
13.179175360,1,0
13.181137600,1,1
13.186346080,0,1
13.188370880,0,0
13.193764960,1,0
13.195852160,1,1
13.201431200,0,1
13.203580320,0,0
13.209344960,1,0
13.211556000,1,1
13.217505920,0,1
13.219779040,0,0
13.225914560,1,0
13.228249280,1,1
13.234570880,0,1
13.236967520,0,0
13.236982720,1,0
13.237258880,1,1
13.237561280,0,1
13.237901600,0,0
13.238347520,1,0
13.238749440,1,1
13.239335040,0,1
13.239809920,0,0
13.240566880,1,0
13.241104000,1,1
13.242046240,0,1
13.242644480,0,0
13.243772800,1,0
13.244433120,1,1
13.245747040,0,1
13.246469280,0,0
13.247968640,1,0
13.248753120,1,1
13.250437920,0,1
13.251284960,0,0
19.964887040,0,0
