Time [s],Channel 0,Channel 1
0.000000000,0,0
27.151375360,1,0
27.151651680,1,1
27.151966080,0,1
27.152242720,0,0
27.152752160,1,0
27.153028800,1,1
27.153746720,0,1
27.154024160,0,0
27.154988480,1,0
27.155266080,1,1
27.156477600,0,1
27.156754560,0,0
27.158214720,1,0
27.158491840,1,1
27.160199200,0,1
27.160476000,0,0
27.162431040,1,0
27.162708000,1,1
27.164910400,0,1
27.165187840,0,0
27.167637120,1,0
27.167913760,1,1
27.170611360,0,1
27.170888960,0,0
27.173832960,1,0
27.174110560,1,1
27.177302080,0,1
27.177579040,0,0
27.181018880,1,0
27.181296160,1,1
27.184982880,0,1
27.185259680,0,0
27.189194560,1,0
27.189471680,1,1
27.193653440,0,1
27.193930720,0,0
27.198359520,1,0
27.198636320,1,1
27.203313440,0,1
27.203591040,0,0
27.208514880,1,0
27.208792480,1,1
27.213963520,0,1
27.214240640,0,0
27.219660000,1,0
27.219937440,1,1
27.225603360,0,1
27.225880320,0,0
27.231794720,1,0
27.232071520,1,1
27.238233280,0,1
27.238510880,0,0
27.244919680,1,0
27.245196640,1,1
27.251853280,0,1
27.252130720,0,0
27.259034240,1,0
27.259311840,1,1
27.266463040,0,1
27.266740000,0,0
27.274138720,1,0
27.274415840,1,1
27.282062240,0,1
27.282339200,0,0
27.290233120,1,0
27.290510080,1,1
27.298651520,0,1
27.298928960,0,0
27.307317440,1,0
27.307594240,1,1
27.309736800,0,1
27.310014240,0,0
27.310291520,1,0
27.310568000,1,1
27.311077760,0,1
27.311355040,0,0
27.312072320,1,0
27.312348960,1,1
27.313314080,0,1
27.313590720,0,0
27.314803360,1,0
27.315080640,1,1
27.316540480,0,1
27.316817280,0,0
27.318525120,1,0
27.318802240,1,1
27.320757120,0,1
27.321034400,0,0
27.323236640,1,0
27.323513440,1,1
27.325963680,0,1
27.326240960,0,0
27.328938080,1,0
27.329214720,1,1
27.332160000,0,1
27.332436800,0,0
27.335629440,1,0
27.335906720,1,1
27.339346400,0,1
27.339623200,0,0
27.343310880,1,0
27.343588000,1,1
27.347522560,0,1
27.347800000,0,0
27.351981760,1,0
27.352258400,1,1
27.356688000,0,1
27.356965120,0,0
27.361642400,1,0
27.361919040,1,1
27.366843840,0,1
27.367120640,0,0
27.372292960,1,0
27.372570240,1,1
27.377989760,0,1
27.378266400,0,0
27.383933760,1,0
27.384211040,1,1
27.390125440,0,1
27.390402880,0,0
27.396564160,1,0
27.396840800,1,1
27.403250560,0,1
27.403527840,0,0
27.410184480,1,0
27.410460960,1,1
27.417365760,0,1
27.417642400,0,0
27.424794720,1,0
27.425071840,1,1
27.432471200,0,1
27.432747840,0,0
27.440395040,1,0
27.440672160,1,1
27.448566400,0,1
27.448843680,0,0
27.456985120,1,0
27.457262080,1,1
27.465651520,0,1
27.465928640,0,0
27.468070560,1,0
27.468347200,1,1
27.468617120,0,1
27.468893600,0,0
27.469403200,1,0
27.469680000,1,1
27.470397920,0,1
27.470675360,0,0
27.471639520,1,0
27.471916800,1,1
27.473128800,0,1
27.473405600,0,0
27.474865920,1,0
27.475143040,1,1
27.476850560,0,1
27.477127360,0,0
27.479082560,1,0
27.479359040,1,1
27.481561920,0,1
27.481839040,0,0
27.484288800,1,0
27.484565600,1,1
27.487263200,0,1
27.487540480,0,0
27.490484960,1,0
27.490762080,1,1
27.493954240,0,1
27.494231040,0,0
27.497671040,1,0
27.497948160,1,1
27.501635520,0,1
27.501912320,0,0
27.505847200,1,0
27.506123840,1,1
27.510306240,0,1
27.510583360,0,0
27.515012960,1,0
27.515289600,1,1
27.519967200,0,1
27.520244480,0,0
27.525168640,1,0
27.525445760,1,1
27.530617600,0,1
27.530894400,0,0
27.536314560,1,0
27.536591840,1,1
27.542258720,0,1
27.542535520,0,0
27.548450400,1,0
27.548727040,1,1
27.554889120,0,1
27.555166240,0,0
27.561575680,1,0
27.561852320,1,1
27.568509600,0,1
27.568786880,0,0
27.575690880,1,0
27.575968000,1,1
27.583119840,0,1
27.583396640,0,0
27.590796160,1,0
27.591073280,1,1
27.598720160,0,1
27.598996960,0,0
27.606891360,1,0
27.607168000,1,1
27.615310240,0,1
27.615587360,0,0
27.623976640,1,0
27.624253440,1,1
27.626395680,0,1
27.626673120,0,0
27.626942560,1,0
27.627218720,1,1
27.627728800,0,1
27.628005920,0,0
27.628723360,1,0
27.629000160,1,1
27.629964960,0,1
27.630241760,0,0
27.631454240,1,0
27.631731360,1,1
27.633191200,0,1
27.633468000,0,0
27.635175840,1,0
27.635453280,1,1
27.637407840,0,1
27.637685280,0,0
27.639887360,1,0
27.640164160,1,1
27.642614240,0,1
27.642891360,0,0
27.645588640,1,0
27.645865440,1,1
27.648810560,0,1
27.649087200,0,0
27.652279840,1,0
27.652556960,1,1
27.655996800,0,1
27.656273440,0,0
27.659961120,1,0
27.660238400,1,1
27.664172960,0,1
27.664450240,0,0
27.668632000,1,0
27.668908480,1,1
27.673338720,0,1
27.673615840,0,0
27.678292960,1,0
27.678569760,1,1
27.683494560,0,1
27.683771040,0,0
27.688943520,1,0
27.689220480,1,1
27.694640320,0,1
27.694916960,0,0
27.700584480,1,0
27.700861760,1,1
27.706776160,0,1
27.707053440,0,0
27.713214720,1,0
27.713491360,1,1
27.719901280,0,1
27.720178560,0,0
27.726835200,1,0
27.727112000,1,1
27.734016640,0,1
27.734293440,0,0
27.741445600,1,0
27.741722720,1,1
27.749122080,0,1
27.749398880,0,0
27.757045920,1,0
27.757323520,1,1
27.765217280,0,1
27.765494560,0,0
27.773636160,1,0
27.773912800,1,1
27.782302400,0,1
27.782579680,0,0
27.784721600,1,0
27.784998240,1,1
27.785268000,0,1
27.785544800,0,0
27.786054240,1,0
27.786330720,1,1
27.787048800,0,1
27.787326080,0,0
27.788290560,1,0
27.788567840,1,1
27.789779680,0,1
27.790056480,0,0
27.791516800,1,0
27.791793920,1,1
27.793501280,0,1
27.793777920,0,0
27.795733280,1,0
27.796009920,1,1
27.798212640,0,1
27.798490080,0,0
27.800939520,1,0
27.801216160,1,1
27.803913920,0,1
27.804191200,0,0
27.807135680,1,0
27.807413120,1,1
27.810604960,0,1
27.810881920,0,0
27.814321920,1,0
27.814599040,1,1
27.818286240,0,1
27.818562880,0,0
27.822498080,1,0
27.822774880,1,1
27.826957120,0,1
27.827234400,0,0
27.831663840,1,0
27.831940320,1,1
27.836618080,0,1
27.836895360,0,0
27.841819360,1,0
27.842096000,1,1
27.847268480,0,1
27.847544960,0,0
27.852965280,1,0
27.853242560,1,1
27.858909280,0,1
27.859186080,0,0
27.865100960,1,0
27.865377760,1,1
27.871539680,0,1
27.871816800,0,0
27.878226240,1,0
27.878503040,1,1
27.885160160,0,1
27.885437440,0,0
27.892341600,1,0
27.892619040,1,1
27.899770560,0,1
27.900047200,0,0
27.907447040,1,0
27.907724160,1,1
27.915370880,0,1
27.915647520,0,0
27.923542240,1,0
27.923819040,1,1
27.931961120,0,1
27.932238080,0,0
27.940627360,1,0
27.940904160,1,1
27.943046560,0,1
27.943323840,0,0
27.943593600,1,0
27.943869920,1,1
27.944379680,0,1
27.944656800,0,0
27.945374400,1,0
27.945651040,1,1
27.946616000,0,1
27.946892800,0,0
27.948105280,1,0
27.948382560,1,1
27.949842400,0,1
27.950119040,0,0
27.951826880,1,0
27.952104320,1,1
27.954058880,0,1
27.954336320,0,0
27.956538400,1,0
27.956815040,1,1
27.959265280,0,1
27.959542400,0,0
27.962239680,1,0
27.962516480,1,1
27.965461600,0,1
27.965738400,0,0
27.968930880,1,0
27.969208160,1,1
27.972647840,0,1
27.972924480,0,0
27.976612160,1,0
27.976889600,1,1
27.980824000,0,1
27.981101440,0,0
27.985283040,1,0
27.985559840,1,1
27.989989760,0,1
27.990266880,0,0
27.994944000,1,0
27.995220640,1,1
28.000145440,0,1
28.000422080,0,0
28.005594400,1,0
28.005871520,1,1
28.011291200,0,1
28.011567840,0,0
28.017235360,1,0
28.017512640,1,1
28.023427040,0,1
28.023704480,0,0
28.029865600,1,0
28.030142400,1,1
28.036552160,0,1
28.036829280,0,0
28.043486080,1,0
28.043762880,1,1
28.050667520,0,1
28.050944320,0,0
28.058096480,1,0
28.058374080,1,1
28.065772960,0,1
28.066049600,0,0
28.073696800,1,0
28.073974080,1,1
28.081868160,0,1
28.082145600,0,0
28.090287040,1,0
28.090564000,1,1
28.098953440,0,1
28.099230400,0,0
28.101372480,1,0
28.101649120,1,1
28.101919040,0,1
28.102196000,0,0
28.102705280,1,0
28.102981920,1,1
28.103699840,0,1
28.103976960,0,0
28.104941440,1,0
28.105218880,1,1
28.106430720,0,1
28.106707520,0,0
28.108167840,1,0
28.108445120,1,1
28.110152480,0,1
28.110428960,0,0
28.112384480,1,0
28.112661120,1,1
28.114863840,0,1
28.115141120,0,0
28.117590720,1,0
28.117867680,1,1
28.120565280,0,1
28.120842560,0,0
28.123787200,1,0
28.124064320,1,1
28.127256480,0,1
28.127533440,0,0
28.130973440,1,0
28.131250560,1,1
28.134937760,0,1
28.135214560,0,0
28.139149600,1,0
28.139426240,1,1
28.143608480,0,1
28.143885760,0,0
28.148315200,1,0
28.148592000,1,1
28.153269440,0,1
28.153546720,0,0
28.158470880,1,0
28.158748320,1,1
28.163920000,0,1
28.164196800,0,0
28.169616960,1,0
28.169894240,1,1
28.175561280,0,1
28.175837760,0,0
28.181752960,1,0
28.182029600,1,1
28.188191680,0,1
28.188468960,0,0
28.194878240,1,0
28.195155040,1,1
28.201812160,0,1
28.202089600,0,0
28.208993600,1,0
28.209270880,1,1
28.216422560,0,1
28.216699200,0,0
28.224099040,1,0
28.224376160,1,1
28.232022880,0,1
28.232299520,0,0
28.240194240,1,0
28.240470880,1,1
28.248613120,0,1
28.248890400,0,0
28.257279360,1,0
28.257556160,1,1
28.259698400,0,1
28.259975680,0,0
28.260244640,1,0
28.260520960,1,1
28.261030720,0,1
28.261307840,0,0
28.262025280,1,0
28.262301920,1,1
28.263266880,0,1
28.263543520,0,0
28.264756160,1,0
28.265033440,1,1
28.266493120,0,1
28.266770080,0,0
28.268477600,1,0
28.268755040,1,1
28.270709600,0,1
28.270986880,0,0
28.273188960,1,0
28.273465760,1,1
28.275915840,0,1
28.276193280,0,0
28.278890240,1,0
28.279167040,1,1
28.282112000,0,1
28.282388480,0,0
28.285581280,1,0
28.285858560,1,1
28.289298240,0,1
28.289575200,0,0
28.293262560,1,0
28.293540000,1,1
28.297474400,0,1
28.297751680,0,0
28.301933280,1,0
28.302210240,1,1
28.306640000,0,1
28.306917280,0,0
28.311594240,1,0
28.311871040,1,1
28.316795840,0,1
28.317072320,0,0
28.322244640,1,0
28.322521760,1,1
28.327941440,0,1
28.328218240,0,0
28.333885440,1,0
28.334162880,1,1
28.340077120,0,1
28.340354560,0,0
28.346515680,1,0
28.346792480,1,1
28.353202240,0,1
28.353479520,0,0
28.360136160,1,0
28.360412960,1,1
28.367317440,0,1
28.367594080,0,0
28.374746400,1,0
28.375023520,1,1
28.382422720,0,1
28.382699680,0,0
28.390346720,1,0
28.390624320,1,1
28.398518080,0,1
28.398795200,0,0
28.406936960,1,0
28.407213600,1,1
28.415603200,0,1
28.415880480,0,0
28.418022560,1,0
28.418299360,1,1
28.418570080,0,1
28.418846720,0,0
28.419356160,1,0
28.419633120,1,1
28.420350880,0,1
28.420628160,0,0
28.421592480,1,0
28.421869920,1,1
28.423081760,0,1
28.423358560,0,0
28.424818880,1,0
28.425096160,1,1
28.426803520,0,1
28.427080160,0,0
28.429035520,1,0
28.429312320,1,1
28.431514880,0,1
28.431792000,0,0
28.434241760,1,0
28.434518400,1,1
28.437216320,0,1
28.437493600,0,0
28.440438080,1,0
28.440715520,1,1
28.443907520,0,1
28.444184160,0,0
28.447624320,1,0
28.447901600,1,1
28.451588800,0,1
28.451865600,0,0
28.455800480,1,0
28.456077280,1,1
28.460259520,0,1
28.460536640,0,0
28.464966080,1,0
28.465242720,1,1
28.469920320,0,1
28.470197760,0,0
28.475121760,1,0
28.475399040,1,1
28.480570720,0,1
28.480847680,0,0
28.486267680,1,0
28.486544800,1,1
28.492211840,0,1
28.492488480,0,0
28.498403520,1,0
28.498680160,1,1
28.504842080,0,1
28.505119200,0,0
28.511528640,1,0
28.511805280,1,1
28.518462560,0,1
28.518740000,0,0
28.525643840,1,0
28.525921280,1,1
28.533072800,0,1
28.533349600,0,0
28.540749280,1,0
28.541026400,1,1
28.548673120,0,1
28.548949920,0,0
28.556844480,1,0
28.557121120,1,1
28.565263360,0,1
28.565540480,0,0
28.573929760,1,0
28.574206720,1,1
28.576348800,0,1
28.576626080,0,0
28.576895520,1,0
28.577172000,1,1
28.577681760,0,1
28.577958880,0,0
28.578676320,1,0
28.578952960,1,1
28.579918080,0,1
28.580194720,0,0
28.581407200,1,0
28.581684640,1,1
28.583144320,0,1
28.583420960,0,0
28.585128960,1,0
28.585406240,1,1
28.587360800,0,1
28.587638240,0,0
28.589840320,1,0
28.590117120,1,1
28.592567200,0,1
28.592844160,0,0
28.595541600,1,0
28.595818240,1,1
28.598763360,0,1
28.599040160,0,0
28.602232640,1,0
28.602509920,1,1
28.605949600,0,1
28.606226240,0,0
28.609913920,1,0
28.610191200,1,1
28.614125760,0,1
28.614403200,0,0
28.618584800,1,0
28.618861760,1,1
28.623291360,0,1
28.623568480,0,0
28.628245600,1,0
28.628522240,1,1
28.633447040,0,1
28.633723840,0,0
28.638896000,1,0
28.639173280,1,1
28.644592960,0,1
28.644869600,0,0
28.650536960,1,0
28.650814400,1,1
28.656728640,0,1
28.657005920,0,0
28.663167360,1,0
28.663444160,1,1
28.669853920,0,1
28.670131040,0,0
28.676787840,1,0
28.677064480,1,1
28.683969120,0,1
28.684245920,0,0
28.691398080,1,0
28.691675360,1,1
28.699074400,0,1
28.699351040,0,0
28.706998400,1,0
28.707275680,1,1
28.715169760,0,1
28.715447200,0,0
28.723588480,1,0
28.723865280,1,1
28.732254880,0,1
28.732532000,0,0
28.734673920,1,0
28.734950720,1,1
28.735221120,0,1
28.735497920,0,0
28.736007200,1,0
28.736284160,1,1
28.737001760,0,1
28.737279040,0,0
28.738243520,1,0
28.738520800,1,1
28.739732800,0,1
28.740009600,0,0
28.741469760,1,0
28.741747040,1,1
28.743454400,0,1
28.743731040,0,0
28.745686400,1,0
28.745963040,1,1
28.748165920,0,1
28.748443200,0,0
28.750892800,1,0
28.751169600,1,1
28.753867200,0,1
28.754144480,0,0
28.757088960,1,0
28.757366400,1,1
28.760558400,0,1
28.760835040,0,0
28.764275200,1,0
28.764552480,1,1
28.768239520,0,1
28.768516160,0,0
28.772451360,1,0
28.772728000,1,1
28.776910400,0,1
28.777187520,0,0
28.781616960,1,0
28.781893760,1,1
28.786571200,0,1
28.786848320,0,0
28.791772640,1,0
28.792049920,1,1
28.797221600,0,1
28.797498400,0,0
28.802918560,1,0
28.803195840,1,1
28.808862560,0,1
28.809139200,0,0
28.815054240,1,0
28.815331040,1,1
28.821492960,0,1
28.821770240,0,0
28.828179360,1,0
28.828456160,1,1
28.835113440,0,1
28.835390560,0,0
28.842294720,1,0
28.842572160,1,1
28.849723680,0,1
28.850000480,0,0
28.857400160,1,0
28.857677440,1,1
28.865324000,0,1
28.865600640,0,0
28.873495360,1,0
28.873772000,1,1
28.881914240,0,1
28.882191360,0,0
28.890580480,1,0
28.890857440,1,1
28.892999680,0,1
28.893276960,0,0
28.893546560,1,0
28.893822880,1,1
28.894332800,0,1
28.894609920,0,0
28.895327360,1,0
28.895604160,1,1
28.896568960,0,1
28.896845760,0,0
28.898058240,1,0
28.898335520,1,1
28.899795360,0,1
28.900072000,0,0
28.901779840,1,0
28.902057280,1,1
28.904011840,0,1
28.904289120,0,0
28.906491360,1,0
28.906768160,1,1
28.909218240,0,1
28.909495520,0,0
28.912192640,1,0
28.912469600,1,1
28.915414560,0,1
28.915691200,0,0
28.918883840,1,0
28.919161120,1,1
28.922600800,0,1
28.922877600,0,0
28.926565120,1,0
28.926842560,1,1
28.930776960,0,1
28.931054080,0,0
28.935236000,1,0
28.935512800,1,1
28.939942720,0,1
28.940219840,0,0
28.944896960,1,0
28.945173760,1,1
28.950098400,0,1
28.950375040,0,0
28.955547520,1,0
28.955824480,1,1
28.961244320,0,1
28.961521120,0,0
28.967188640,1,0
28.967466080,1,1
28.973380160,0,1
28.973657440,0,0
28.979818880,1,0
28.980095840,1,1
28.986505440,0,1
28.986782720,0,0
28.993439360,1,0
28.993716320,1,1
29.000620800,0,1
29.000897280,0,0
29.008049760,1,0
29.008326880,1,1
29.015726240,0,1
29.016003040,0,0
29.023650080,1,0
29.023927360,1,1
29.031821440,0,1
29.032098560,0,0
29.040240320,1,0
29.040517120,1,1
29.048906560,0,1
29.049183840,0,0
29.051325600,1,0
29.051602400,1,1
29.051872160,0,1
29.052148800,0,0
29.052658240,1,0
29.052934880,1,1
29.053652800,0,1
29.053930240,0,0
29.054894560,1,0
29.055171840,1,1
29.056383680,0,1
29.056660480,0,0
29.058120800,1,0
29.058397920,1,1
29.060105280,0,1
29.060382080,0,0
29.062337280,1,0
29.062613920,1,1
29.064816640,0,1
29.065093760,0,0
29.067543520,1,0
29.067820320,1,1
29.070517920,0,1
29.070795360,0,0
29.073739680,1,0
29.074017120,1,1
29.077209120,0,1
29.077485760,0,0
29.080926080,1,0
29.081203200,1,1
29.084890400,0,1
29.085167200,0,0
29.089102240,1,0
29.089379040,1,1
29.093561280,0,1
29.093838400,0,0
29.098267840,1,0
29.098544640,1,1
29.103222080,0,1
29.103499520,0,0
29.108423520,1,0
29.108700960,1,1
29.113872480,0,1
29.114149120,0,0
29.119569440,1,0
29.119846560,1,1
29.125513600,0,1
29.125790240,0,0
29.131705120,1,0
29.131981760,1,1
29.138143840,0,1
29.138420960,0,0
29.144830400,1,0
29.145107200,1,1
29.151764320,0,1
29.152041920,0,0
29.158945760,1,0
29.159223040,1,1
29.166374720,0,1
29.166651360,0,0
29.174051200,1,0
29.174328480,1,1
29.181975040,0,1
29.182252160,0,0
29.190146400,1,0
29.190423200,1,1
29.198565280,0,1
29.198842400,0,0
29.207231680,1,0
29.207508480,1,1
29.209650720,0,1
29.209928160,0,0
29.210197600,1,0
29.210473920,1,1
29.210983680,0,1
29.211260800,0,0
29.211978400,1,0
29.212255040,1,1
29.213220000,0,1
29.213496800,0,0
29.214709280,1,0
29.214986400,1,1
29.216446240,0,1
29.216723040,0,0
29.218430880,1,0
29.218708320,1,1
29.220662880,0,1
29.220940160,0,0
29.223142400,1,0
29.223419200,1,1
29.225869280,0,1
29.226146400,0,0
29.228843680,1,0
29.229120320,1,1
29.232065600,0,1
29.232342400,0,0
29.235535040,1,0
29.235812160,1,1
29.239251840,0,1
29.239528480,0,0
29.243216160,1,0
29.243493440,1,1
29.247427840,0,1
29.247705440,0,0
29.251886880,1,0
29.252163680,1,1
29.256593600,0,1
29.256870720,0,0
29.261547840,1,0
29.261824640,1,1
29.266749280,0,1
29.267026080,0,0
29.272198240,1,0
29.272475360,1,1
29.277895200,0,1
29.278171680,0,0
29.283839200,1,0
29.284116640,1,1
29.290031040,0,1
29.290308320,0,0
29.296469760,1,0
29.296746560,1,1
29.303156320,0,1
29.303433440,0,0
29.310090240,1,0
29.310367040,1,1
29.317271680,0,1
29.317548480,0,0
29.324700480,1,0
29.324977760,1,1
29.332376960,0,1
29.332653600,0,0
29.340300960,1,0
29.340578240,1,1
29.348472160,0,1
29.348749600,0,0
29.356891040,1,0
29.357167680,1,1
29.365557440,0,1
29.365834560,0,0
29.367976480,1,0
29.368253280,1,1
29.368523040,0,1
29.368799840,0,0
29.369309280,1,0
29.369585920,1,1
29.370303840,0,1
29.370581120,0,0
29.371545440,1,0
29.371822880,1,1
29.373034720,0,1
29.373311680,0,0
29.374771840,1,0
29.375049120,1,1
29.376756480,0,1
29.377032960,0,0
29.378988480,1,0
29.379264960,1,1
29.381467840,0,1
29.381744960,0,0
32.547799040,0,0
