Time [s],Channel 0,Channel 1
0.000000000,0,0
21.285939840,1,0
21.286217280,1,1
21.286385120,0,1
21.286663040,0,0
21.287351840,1,0
21.287710080,1,1
21.287877440,0,1
21.288155200,0,0
21.288615520,1,0
21.288892960,1,1
21.289857760,0,1
21.290134720,0,0
21.290609600,1,0
21.290977600,1,1
21.290993600,0,1
21.291270400,0,0
21.291371840,1,0
21.291649760,1,1
21.292670880,0,1
21.292948320,0,0
21.293152480,1,0
21.293429440,1,1
21.293597600,0,1
21.293875520,0,0
21.293986560,1,0
21.294263520,1,1
21.295229440,0,1
21.295506240,0,0
21.295979840,1,0
21.296332800,1,1
21.296359040,0,1
21.296635840,0,0
21.297085600,1,0
21.297414240,1,1
21.297611200,0,1
21.297888320,0,0
21.298556320,1,0
21.298833280,1,1
21.299301920,0,1
21.299579200,0,0
21.299686720,1,0
21.300083680,1,1
21.300100000,0,1
21.300377440,0,0
21.301216320,1,0
21.301493120,1,1
21.302197920,0,1
21.302520640,0,0
21.302688960,1,0
21.302966240,1,1
21.303176800,0,1
21.303498720,0,0
21.304001120,1,0
21.304278720,1,1
21.304982240,0,1
21.305304480,0,0
21.305472960,1,0
21.305750400,1,1
21.305961280,0,1
21.306282880,0,0
21.306484160,1,0
21.306761600,1,1
21.306868640,0,1
21.307146080,0,0
21.307571360,1,0
21.307848160,1,1
21.307970400,0,1
21.308248320,0,0
21.308375200,1,0
21.308652800,1,1
21.309448000,0,1
21.309724800,0,0
21.310193280,1,0
21.310471360,1,1
21.310581760,0,1
21.310938560,0,0
21.311309440,1,0
21.311586720,1,1
21.311674880,0,1
21.311952320,0,0
21.312377440,1,0
21.312654400,1,1
21.312776640,0,1
21.313054400,0,0
21.313183680,1,0
21.313506080,1,1
21.314004800,0,1
21.314281600,0,0
21.314979840,1,0
21.315257600,1,1
21.315779200,0,1
21.316056640,0,0
21.316312960,1,0
21.316590400,1,1
21.316691360,0,1
21.316968640,0,0
21.317227200,1,0
21.317504000,1,1
21.317701920,0,1
21.317979360,0,0
21.318083200,1,0
21.318360640,1,1
21.318483840,0,1
21.318760800,0,0
21.319186400,1,0
21.319463200,1,1
21.320189760,0,1
21.320512640,0,0
21.320680160,1,0
21.320958080,1,1
21.321213280,0,1
21.321490720,0,0
21.321992800,1,0
21.322269600,1,1
21.322992160,0,1
21.323314720,0,0
21.323482560,1,0
21.323760000,1,1
21.324015840,0,1
21.324292960,0,0
21.324493440,1,0
21.324771040,1,1
21.325489760,0,1
21.325766880,0,0
21.325934880,1,0
21.326212960,1,1
21.326302560,0,1
21.326579360,0,0
21.326780800,1,0
21.327057600,1,1
21.327792640,0,1
21.328070080,0,0
21.328844640,1,0
21.329166880,1,1
21.329335520,0,1
21.329612800,0,0
21.329827200,1,0
21.330148640,1,1
21.330349760,0,1
21.330627200,0,0
21.330698240,1,0
21.330975840,1,1
21.331098880,0,1
21.331375680,0,0
21.331499520,1,0
21.331776480,1,1
21.332498560,0,1
21.332775840,0,0
21.333550400,1,0
21.333872800,1,1
21.334352000,0,1
21.334671200,0,0
21.335052800,1,0
21.335329600,1,1
21.335430880,0,1
21.335708800,0,0
21.335810240,1,0
21.336132160,1,1
21.336631520,0,1
21.336908160,0,0
21.337009440,1,0
21.337287360,1,1
21.337412640,0,1
21.337734400,0,0
21.338233920,1,0
21.338510720,1,1
21.339216000,0,1
21.339545440,0,0
21.339706560,1,0
21.339984160,1,1
21.340194880,0,1
21.340516960,0,0
21.340717280,1,0
21.340994240,1,1
21.341413120,0,1
21.341689760,0,0
21.341812160,1,0
21.342090080,1,1
21.342219360,0,1
21.342541120,0,0
21.342739040,1,0
21.343015840,1,1
21.343416000,0,1
21.343693120,0,0
21.344418880,1,0
21.344741120,1,1
21.344909280,0,1
21.345187200,0,0
21.345397440,1,0
21.345719040,1,1
21.346221440,0,1
21.346498240,0,0
21.347221760,1,0
21.347544640,1,1
21.347712320,0,1
21.347990080,0,0
21.348199680,1,0
21.348522080,1,1
21.349023680,0,1
21.349300480,0,0
21.350025280,1,0
21.350348000,1,1
21.350515680,0,1
21.350792960,0,0
21.351003840,1,0
21.351325760,1,1
21.351526080,0,1
21.351803520,0,0
21.352522560,1,0
21.352799520,1,1
21.352967680,0,1
21.353245760,0,0
21.353329280,1,0
21.353606080,1,1
21.353807360,0,1
21.354084160,0,0
21.354825440,1,0
21.355102720,1,1
21.355877120,0,1
21.356199680,0,0
21.356368320,1,0
21.356645600,1,1
21.356853920,0,1
21.357130560,0,0
21.357837920,1,0
21.358160320,1,1
21.358632160,0,1
21.358909600,0,0
21.359169440,1,0
21.359446880,1,1
21.359547520,0,1
21.359824800,0,0
21.360635840,1,0
21.360957600,1,1
21.361433760,0,1
21.361753280,0,0
21.362427840,1,0
21.362704800,1,1
21.362873120,0,1
21.363150400,0,0
21.363263680,1,0
21.363540320,1,1
21.364339360,0,1
21.364616800,0,0
21.365391040,1,0
21.365713440,1,1
21.365739680,0,1
21.366016960,0,0
21.366185120,1,0
21.366462400,1,1
21.367021600,0,1
21.367299040,0,0
21.367506240,1,0
21.367783840,1,1
21.367884960,0,1
21.368162080,0,0
21.368249120,1,0
21.368571040,1,1
21.369366400,0,1
21.369643840,0,0
21.369811200,1,0
21.370089120,1,1
21.370343680,0,1
21.370620960,0,0
21.370745920,1,0
21.371022880,1,1
21.371146560,0,1
21.371423520,0,0
21.371849120,1,0
21.372126560,1,1
21.372851840,0,1
21.373174080,0,0
21.373342240,1,0
21.373620160,1,1
21.373830240,0,1
21.374151840,0,0
21.374654400,1,0
21.374931360,1,1
21.375654880,0,1
21.375977760,0,0
21.376145280,1,0
21.376423200,1,1
21.376627360,0,1
21.376910880,0,0
21.377155200,1,0
21.377432160,1,1
21.378152480,0,1
21.378429280,0,0
21.378597600,1,0
21.378874880,1,1
21.378961760,0,1
21.379283520,0,0
21.379484640,1,0
21.379762080,1,1
21.380455360,0,1
21.380732640,0,0
21.380900480,1,0
21.381178240,1,1
21.381258880,0,1
21.381536320,0,0
21.381663680,1,0
21.381940640,1,1
21.382141760,0,1
21.382418560,0,0
21.382560640,1,0
21.382837920,1,1
21.382961280,0,1
21.383238720,0,0
21.383361920,1,0
21.383638880,1,1
21.384360800,0,1
21.384637600,0,0
21.385412480,1,0
21.385735040,1,1
21.385903680,0,1
21.386181760,0,0
21.386439840,1,0
21.386716800,1,1
21.386918080,0,1
21.387194880,0,0
21.387266400,1,0
21.387543840,1,1
21.387667040,0,1
21.387944800,0,0
21.388067680,1,0
21.388344640,1,1
21.388468320,0,1
21.388745120,0,0
21.388868960,1,0
21.389146400,1,1
21.389571680,0,1
21.389849120,0,0
21.389970720,1,0
21.390248000,1,1
21.390377760,0,1
21.390699680,0,0
21.390897280,1,0
21.391174720,1,1
21.391574560,0,1
21.391851360,0,0
21.391973600,1,0
21.392251520,1,1
21.392374240,0,1
21.392651520,0,0
21.392781440,1,0
21.393103040,1,1
21.393898880,0,1
21.394175840,0,0
21.394343840,1,0
21.394621280,1,1
21.394683040,0,1
21.395004640,0,0
21.395804000,1,0
21.396081280,1,1
21.396248800,0,1
21.396526240,0,0
21.397286080,1,0
21.397608480,1,1
21.397776000,0,1
21.398053280,0,0
21.398266720,1,0
21.398588960,1,1
21.399387520,0,1
21.399665120,0,0
21.400439360,1,0
21.400762240,1,1
21.400787840,0,1
21.401065280,0,0
21.401233120,1,0
21.401510880,1,1
21.402070400,0,1
21.402347840,0,0
21.402555200,1,0
21.402832160,1,1
21.402986560,0,1
21.403264160,0,0
21.403546880,1,0
21.403824480,1,1
21.404189600,0,1
21.404466560,0,0
21.405192480,1,0
21.405515360,1,1
21.406293120,0,1
21.406612640,0,0
21.406991680,1,0
21.407268960,1,1
21.407436800,0,1
21.407714240,0,0
21.408398880,1,0
21.408721280,1,1
21.408888800,0,1
21.409166080,0,0
21.409374400,1,0
21.409651680,1,1
21.409837280,0,1
21.410114720,0,0
21.410315200,1,0
21.410592160,1,1
21.410695360,0,1
21.410972160,0,0
21.411096000,1,0
21.411373440,1,1
21.411496640,0,1
21.411774240,0,0
21.412495680,1,0
21.412772480,1,1
21.412940640,0,1
21.413218560,0,0
21.413299040,1,0
21.413575840,1,1
21.413722080,0,1
21.413998880,0,0
21.414199680,1,0
21.414477120,1,1
21.414600800,0,1
21.414878240,0,0
21.415303520,1,0
21.415580320,1,1
21.415702560,0,1
21.415980320,0,0
21.416103200,1,0
21.416380800,1,1
21.416639520,0,1
21.416916480,0,0
21.417306400,1,0
21.417583200,1,1
21.417705440,0,1
21.417983520,0,0
21.418129280,1,0
21.418406400,1,1
21.418905440,0,1
21.419182240,0,0
21.419606880,1,0
21.419890560,1,1
21.420037120,0,1
21.420314560,0,0
21.420569760,1,0
21.420847040,1,1
21.421642240,0,1
21.421919520,0,0
21.422388000,1,0
21.422665920,1,1
21.423469920,0,1
21.423747360,0,0
21.424125920,1,0
21.424402880,1,1
21.424571200,0,1
21.424848480,0,0
21.425221280,1,0
21.425543040,1,1
21.426255840,0,1
21.426575840,0,0
21.426953440,1,0
21.427230400,1,1
21.427398400,0,1
21.427676480,0,0
21.428546560,1,0
21.428823360,1,1
21.429298560,0,1
21.429621440,0,0
21.429722080,1,0
21.429999360,1,1
21.430213440,0,1
21.430535360,0,0
21.430732640,1,0
21.431010240,1,1
21.431719360,0,1
21.431996160,0,0
21.432164480,1,0
21.432442400,1,1
21.432556000,0,1
21.432832800,0,0
21.433034080,1,0
21.433310880,1,1
21.434022240,0,1
21.434299680,0,0
21.435073760,1,0
21.435396000,1,1
21.435564480,0,1
21.435841920,0,0
21.436100640,1,0
21.436377440,1,1
21.436880480,0,1
21.437157920,0,0
21.437862560,1,0
21.438184960,1,1
21.438353440,0,1
21.438631360,0,0
21.438886400,1,0
21.439163200,1,1
21.439962720,0,1
21.440239520,0,0
21.440714080,1,0
21.441036480,1,1
21.441137600,0,1
21.441415360,0,0
21.441673760,1,0
21.441951200,1,1
21.442746240,0,1
21.443023200,0,0
21.443492160,1,0
21.443770240,1,1
21.444532320,0,1
21.444851360,0,0
21.445230080,1,0
21.445507520,1,1
21.445675200,0,1
21.445952640,0,0
21.446669600,1,0
21.446946880,1,1
21.447452960,0,1
21.447730400,0,0
21.447964800,1,0
21.448242720,1,1
21.448340160,0,1
21.448617120,0,0
21.449495520,1,0
21.449772480,1,1
21.450546560,0,1
21.450868960,0,0
21.451036960,1,0
21.451314880,1,1
21.451573600,0,1
21.451850560,0,0
21.452649600,1,0
21.452926560,1,1
21.453400640,0,1
21.453723200,0,0
21.454351840,1,0
21.454628960,1,1
21.454863680,0,1
21.455146880,0,0
21.455566880,1,0
21.455844320,1,1
21.456249760,0,1
21.456527040,0,0
21.457252480,1,0
21.457574720,1,1
21.457742720,0,1
21.458020160,0,0
21.458276160,1,0
21.458553120,1,1
21.459055520,0,1
21.459332800,0,0
21.460055840,1,0
21.460378080,1,1
21.460546240,0,1
21.460824160,0,0
21.461079520,1,0
21.461356480,1,1
21.462155200,0,1
21.462432000,0,0
21.463206880,1,0
21.463529120,1,1
21.463697600,0,1
21.463975680,0,0
21.464189120,1,0
21.464510720,1,1
21.464712000,0,1
21.464988800,0,0
21.465656480,1,0
21.465933760,1,1
21.466408320,0,1
21.466730720,0,0
21.466832800,1,0
21.467110880,1,1
21.467324480,0,1
21.467646240,0,0
21.467971840,1,0
21.468248800,1,1
21.468749920,0,1
21.469027360,0,0
21.469194560,1,0
21.469471840,1,1
21.469569600,0,1
21.469891680,0,0
21.470092480,1,0
21.470369920,1,1
21.470464800,0,1
21.470741920,0,0
21.470865440,1,0
21.471142400,1,1
21.471266080,0,1
21.471543360,0,0
21.472265120,1,0
21.472542560,1,1
21.473310400,0,1
21.473594240,0,0
21.474420960,1,0
21.474784480,1,1
21.474801280,0,1
21.475078400,0,0
21.475626880,1,0
21.475904320,1,1
21.476372480,0,1
21.476650240,0,0
21.477081280,1,0
21.477438560,1,1
21.477540320,0,1
21.477818080,0,0
21.478246400,1,0
21.478523840,1,1
21.479022720,0,1
21.479306720,0,0
21.480003520,1,0
21.480326720,1,1
21.480494560,0,1
21.480771680,0,0
21.480976480,1,0
21.481259680,1,1
21.481806560,0,1
21.482084000,0,0
21.482184480,1,0
21.482461920,1,1
21.482579360,0,1
21.482856640,0,0
21.482993120,1,0
21.483270720,1,1
21.483467680,0,1
21.483744640,0,0
21.484183200,1,0
21.484460160,1,1
21.485186080,0,1
21.485508960,0,0
21.485676480,1,0
21.485954240,1,1
21.486164640,0,1
21.486486880,0,0
21.486988480,1,0
21.487265440,1,1
21.487988960,0,1
21.488311680,0,0
21.488479360,1,0
21.488756640,1,1
21.489012640,0,1
21.489289920,0,0
21.490088320,1,0
21.490365760,1,1
21.490533440,0,1
21.490811040,0,0
21.490911520,1,0
21.491189120,1,1
21.491389280,0,1
21.491666240,0,0
21.491790560,1,0
21.492067520,1,1
21.492789440,0,1
21.493066720,0,0
21.493841280,1,0
21.494163520,1,1
21.494332160,0,1
21.494609600,0,0
21.494868320,1,0
21.495145280,1,1
21.495944480,0,1
21.496221600,0,0
21.496995840,1,0
21.497318240,1,1
21.497486400,0,1
21.497763680,0,0
21.497972000,1,0
21.498255040,1,1
21.499098080,0,1
21.499375520,0,0
21.499849280,1,0
21.500171680,1,1
21.500273920,0,1
21.500552000,0,0
21.500765440,1,0
21.501087040,1,1
21.501710400,0,1
21.501987040,0,0
21.502490560,1,0
21.502767680,1,1
21.503311040,0,1
21.503634080,0,0
21.503734880,1,0
21.504012160,1,1
21.504223680,0,1
21.504500480,0,0
21.505049760,1,0
21.505326880,1,1
21.506031200,0,1
21.506353440,0,0
21.506521760,1,0
21.506799840,1,1
21.507054400,0,1
21.507331200,0,0
21.507532800,1,0
21.507809760,1,1
21.508210560,0,1
21.508487840,0,0
21.508609600,1,0
21.508887200,1,1
21.509016800,0,1
21.509338240,0,0
21.510134240,1,0
21.510411680,1,1
21.510885440,0,1
21.511207840,0,0
21.511490400,1,0
21.511768480,1,1
21.511948480,0,1
21.512225280,0,0
21.512423200,1,0
21.512700160,1,1
21.513116640,0,1
21.513393920,0,0
21.514118080,1,0
21.514440800,1,1
21.514608640,0,1
21.514886560,0,0
21.515096640,1,0
21.515418080,1,1
21.515618880,0,1
21.515895840,0,0
21.516616800,1,0
21.516894240,1,1
21.517061920,0,1
21.517339200,0,0
21.517426880,1,0
21.517749120,1,1
21.518251520,0,1
21.518528960,0,0
21.518935200,1,0
21.519257600,1,1
21.519359520,0,1
21.519637280,0,0
21.519892000,1,0
21.520168800,1,1
21.520366400,0,1
21.520643520,0,0
21.521322880,1,0
21.521600320,1,1
21.522374560,0,1
21.522696640,0,0
21.522865280,1,0
21.523142560,1,1
21.523356960,0,1
21.523678560,0,0
21.523879520,1,0
21.524156800,1,1
21.524228480,0,1
21.524506080,0,0
21.524629120,1,0
21.524906080,1,1
21.525029760,0,1
21.525306720,0,0
21.526028800,1,0
21.526306080,1,1
21.527074080,0,1
21.527357280,0,0
21.527570880,1,0
21.527848160,1,1
21.528107520,0,1
21.528384480,0,0
21.529183680,1,0
21.529461120,1,1
21.530235520,0,1
21.530557920,0,0
21.530725920,1,0
21.531003360,1,1
21.531217760,0,1
21.531539200,0,0
21.531740000,1,0
21.532017440,1,1
21.532137440,0,1
21.532415040,0,0
21.532840160,1,0
21.533116960,1,1
21.533239200,0,1
21.533517120,0,0
21.533656320,1,0
21.533933760,1,1
21.534432640,0,1
21.534709440,0,0
21.535146880,1,0
21.535469600,1,1
21.535570560,0,1
21.535848000,0,0
21.536058880,1,0
21.536380640,1,1
21.536879680,0,1
21.537156960,0,0
21.537861120,1,0
21.538183360,1,1
21.538351840,0,1
21.538629760,0,0
21.538884800,1,0
21.539161760,1,1
21.539363040,0,1
21.539640000,0,0
21.540049440,1,0
21.540326720,1,1
21.541052000,0,1
21.541374400,0,0
21.541542400,1,0
21.541820480,1,1
21.542030560,0,1
21.542352000,0,0
21.542552960,1,0
21.542829760,1,1
21.543549600,0,1
21.543827200,0,0
21.543994720,1,0
21.544272000,1,1
21.544369600,0,1
21.544646880,0,0
21.544847680,1,0
21.545125120,1,1
21.545852480,0,1
21.546129440,0,0
21.546297600,1,0
21.546575680,1,1
21.546656000,0,1
21.546932640,0,0
21.547516480,1,0
21.547793440,1,1
21.548194240,0,1
21.548472320,0,0
21.549231040,1,0
21.549550400,1,1
21.549925600,0,1
21.550202880,0,0
21.550370400,1,0
21.550647680,1,1
21.551367200,0,1
21.551689760,0,0
21.552167520,1,0
21.552486880,1,1
21.552868960,0,1
21.553146240,0,0
21.553263360,1,0
21.553540640,1,1
21.554268000,0,1
21.554589760,0,0
21.555066400,1,0
21.555385600,1,1
21.555764000,0,1
21.556040800,0,0
21.556166560,1,0
21.556444480,1,1
21.556571680,0,1
21.556848640,0,0
21.557644640,1,0
21.557921600,1,1
21.558089120,0,1
21.558366400,0,0
21.558469440,1,0
21.558746240,1,1
21.558997920,0,1
21.559275360,0,0
21.559370560,1,0
21.559648160,1,1
21.560073280,0,1
21.560350080,0,0
21.560472320,1,0
21.560750080,1,1
21.560879040,0,1
21.561201440,0,0
21.561398560,1,0
21.561675680,1,1
21.562076160,0,1
21.562352800,0,0
21.562475200,1,0
21.562753120,1,1
21.562882560,0,1
21.563204320,0,0
21.563703840,1,0
21.563980640,1,1
21.564684640,0,1
21.565007680,0,0
21.565175200,1,0
21.565452960,1,1
21.565708320,0,1
21.565985920,0,0
21.566186240,1,0
21.566463200,1,1
21.566882240,0,1
21.567159040,0,0
21.567884960,1,0
21.568208000,1,1
21.568375520,0,1
21.568653280,0,0
21.568908640,1,0
21.569186240,1,1
21.569984320,0,1
21.570261120,0,0
21.571035840,1,0
21.571358720,1,1
21.571526560,0,1
21.571804480,0,0
21.572017920,1,0
21.572340160,1,1
21.573138720,0,1
21.573415520,0,0
21.574190240,1,0
21.574513280,1,1
21.574680640,0,1
21.574958560,0,0
21.575172160,1,0
21.575494400,1,1
21.575694560,0,1
21.575971360,0,0
21.576688800,1,0
21.576965760,1,1
21.577133920,0,1
21.577411360,0,0
21.577510240,1,0
21.577787040,1,1
21.577988320,0,1
21.578265600,0,0
21.578991680,1,0
21.579269280,1,1
21.579436800,0,1
21.579714720,0,0
21.579795200,1,0
21.580072800,1,1
21.580358240,0,1
21.580635040,0,0
21.581294560,1,0
21.581571360,1,1
21.582346240,0,1
21.582668960,0,0
21.582837440,1,0
21.583115520,1,1
21.583373920,0,1
21.583650720,0,0
21.584153760,1,0
21.584430560,1,1
21.585136000,0,1
21.585459040,0,0
21.585627200,1,0
21.585904960,1,1
21.586160480,0,1
21.586437760,0,0
21.586638400,1,0
21.586915360,1,1
21.587003360,0,1
21.587280320,0,0
21.587706080,1,0
21.587983360,1,1
21.588105120,0,1
21.588382400,0,0
21.588513120,1,0
21.588789920,1,1
21.588988000,0,1
21.589265440,0,0
21.589708960,1,0
21.589986560,1,1
21.590108000,0,1
21.590385280,0,0
21.590515520,1,0
21.590792960,1,1
21.590990400,0,1
21.591267840,0,0
21.591711840,1,0
21.591988800,1,1
21.592110880,0,1
21.592388640,0,0
21.592681440,1,0
21.592959040,1,1
21.593112000,0,1
21.593389120,0,0
21.593814720,1,0
21.594091680,1,1
21.594817600,0,1
21.595140480,0,0
21.595308000,1,0
21.595585600,1,1
21.595841280,0,1
21.596118880,0,0
21.596620640,1,0
21.596897600,1,1
21.597619840,0,1
21.597942720,0,0
21.598110560,1,0
21.598387680,1,1
21.598597920,0,1
21.598920160,0,0
21.599422080,1,0
21.599699520,1,1
21.600423520,0,1
21.600745760,0,0
21.600913920,1,0
21.601191200,1,1
21.601447200,0,1
21.601724160,0,0
21.602226720,1,0
21.602504000,1,1
21.603226880,0,1
21.603549280,0,0
21.603717280,1,0
21.603995200,1,1
21.604250560,0,1
21.604527520,0,0
21.604728160,1,0
21.605005120,1,1
21.605724480,0,1
21.606001600,0,0
23.362273280,0,0
