Time [s],Channel 0,Channel 1
20.912048480,0,0
24.655570720,1,0
24.657230080,1,1
24.661884800,0,1
24.662426240,1,1
24.664276800,0,1
24.664535360,0,0
24.664568320,0,1
24.664599680,0,0
24.669511200,1,0
24.671412160,1,1
24.671799520,0,1
24.672211200,0,0
24.676122240,1,0
24.677712800,1,1
24.677728960,0,1
24.678005920,0,0
24.678092320,1,0
24.678368640,1,1
24.678492960,0,1
24.678769120,0,0
24.679450560,1,0
24.679924960,1,1
24.679941440,0,1
24.680218080,0,0
24.680295040,1,0
24.680571840,1,1
24.681808800,0,1
24.682469600,0,0
24.685823680,1,0
24.687227840,1,1
24.687244320,0,1
24.687521120,0,0
24.687597760,1,0
24.687874720,1,1
24.688369920,0,1
24.688771680,0,0
24.693623040,1,0
24.695523360,1,1
24.695540000,0,1
24.695816800,0,0
24.695900480,1,0
24.696177440,1,1
24.696301120,0,1
24.696577280,0,0
24.700596320,1,0
24.702187200,1,1
24.703501440,0,1
24.704224480,0,0
24.704240320,1,0
24.704517280,1,1
24.704603840,0,1
24.704880000,0,0
24.705376000,1,0
24.705778080,1,1
24.708589440,0,1
24.709808480,0,0
24.709824320,1,0
24.710100480,1,1
24.710206560,0,1
24.710482720,0,0
24.713018400,1,0
24.714113120,1,1
24.718394080,0,1
24.720108960,0,0
24.720124800,1,0
24.720401280,1,1
24.720509440,0,1
24.720785440,0,0
24.727217120,1,0
24.729613600,1,1
24.731670080,0,1
24.732640640,0,0
24.735809920,1,0
24.737152960,1,1
24.737168960,0,1
24.737445760,0,0
24.737512960,1,0
24.737789280,1,1
24.742179200,0,1
24.743893920,0,0
24.747248480,1,0
24.748653600,1,1
24.748669280,0,1
24.748945600,0,0
24.749015680,1,0
24.749292000,1,1
24.752940320,0,1
24.754406880,0,0
24.756834400,1,0
24.757929600,1,1
24.757945440,0,1
24.758221600,0,0
24.758318560,1,0
24.758594720,1,1
24.762428480,0,1
24.763957120,0,0
24.765457120,1,0
24.766242240,1,1
24.766258080,0,1
24.766534240,0,0
24.766621280,1,0
24.766897600,1,1
24.767021920,0,1
24.767298720,0,0
24.768164960,1,0
24.768702240,1,1
24.771499840,0,1
24.772719040,0,0
24.772735040,1,0
24.773011360,1,1
24.773124640,0,1
24.773400960,0,0
24.778161760,1,0
24.780001120,1,1
24.782798880,0,1
24.784017760,0,0
24.784033760,1,0
24.784309920,1,1
24.784427360,0,1
24.784703680,0,0
24.790577120,1,0
24.792787840,1,1
24.796513280,0,1
24.798042080,0,0
24.798058240,1,0
24.798335200,1,1
24.798430240,0,1
24.798706560,0,0
24.798830880,1,0
24.799107200,1,1
24.801086560,0,1
24.801995040,0,0
24.805906080,1,0
24.807497120,1,1
24.807512960,0,1
24.807789920,0,0
24.807933760,1,0
24.808209920,1,1
24.812229120,0,1
24.813819840,0,0
24.816988800,1,0
24.818331200,1,1
24.818347680,0,1
24.818624160,0,0
24.818736480,1,0
24.819013120,1,1
24.822290240,0,1
24.823632640,0,0
24.824391200,1,0
24.824927680,1,1
24.824944160,0,1
24.825220960,0,0
24.825339200,1,0
24.825616160,1,1
24.828151200,0,1
24.829245280,0,0
24.832970880,1,0
24.834499680,1,1
24.840635360,0,1
24.842970240,0,0
24.842986560,1,0
24.843262880,1,1
24.843342720,0,1
24.843619520,0,0
24.847823680,1,0
24.849476320,1,1
24.852460160,0,1
24.853741120,0,0
24.853756960,1,0
24.854033920,1,1
24.854145600,0,1
24.854421760,0,0
24.857884800,1,0
24.859290240,1,1
24.863756800,0,1
24.865533280,0,0
24.865549600,1,0
24.865825920,1,1
24.865948320,0,1
24.866225120,0,0
24.872654400,1,0
24.875050720,1,1
24.878220000,0,1
24.879563040,0,0
24.879578720,1,0
24.879855200,1,1
24.879951200,0,1
24.880227520,0,0
24.880351840,1,0
24.880628480,1,1
24.883163840,0,1
24.884258080,0,0
24.887983520,1,0
24.889512160,1,1
24.889528480,0,1
24.889805120,0,0
24.889954720,1,0
24.890231520,1,1
24.896660800,0,1
24.899057600,0,0
24.902411680,1,0
24.903816320,1,1
24.903832800,0,1
24.904109280,0,0
24.904257600,1,0
24.904534400,1,1
24.910221920,0,1
24.912371200,0,0
24.913870880,1,0
24.914655680,1,1
24.914671520,0,1
24.914947680,0,0
24.915060320,1,0
24.915336640,1,1
24.920282880,0,1
24.922183840,0,0
24.928319840,1,0
24.930654720,1,1
24.933267200,0,1
24.934423520,0,0
24.934440000,1,0
24.934716640,1,1
24.934864000,0,1
24.935140960,0,0
24.938046720,1,0
24.939265920,1,1
24.941692800,0,1
24.942787200,0,0
24.942803520,1,0
24.943080320,1,1
24.943166720,0,1
24.943443520,0,0
24.949316480,1,0
24.951527840,1,1
24.956365280,0,1
24.958266400,0,0
24.958282400,1,0
24.958559360,1,1
24.958669600,0,1
24.958945920,0,0
24.959441760,1,0
24.959844000,1,1
24.964509760,0,1
24.966348640,0,0
24.966365120,1,0
24.966641920,1,1
24.966772320,0,1
24.967049120,0,0
24.967172960,1,0
24.967449280,1,1
24.973322720,0,1
24.975533440,0,0
24.980371520,1,0
24.982272800,1,1
24.982288640,0,1
24.982565120,0,0
24.982675840,1,0
24.982952160,1,1
24.983448000,0,1
24.983849440,0,0
24.989443200,1,0
24.991592160,1,1
24.991608160,0,1
24.991884480,0,0
24.991978560,1,0
24.992255040,1,1
24.992936320,0,1
24.993410560,0,0
24.993427200,1,0
24.993703840,1,1
24.993780640,0,1
24.994057600,0,0
24.994181280,1,0
24.994457440,1,1
24.994581920,0,1
24.994858080,0,0
24.997208480,1,0
24.998241280,1,1
24.998999520,0,1
24.999536480,0,0
24.999552320,1,0
24.999828800,1,1
24.999984640,0,1
25.000260800,0,0
25.006505280,1,0
25.008840480,1,1
25.010525600,0,1
25.011372320,0,0
25.011388800,1,0
25.011665440,1,1
25.011787360,0,1
25.012064320,0,0
25.014784800,1,0
25.015941920,1,1
25.017441760,0,1
25.018226880,0,0
25.018242560,1,0
25.018518880,1,1
25.018590240,0,1
25.018866240,0,0
25.018990880,1,0
25.019267360,1,1
25.019948480,0,1
25.020423520,0,0
25.026373600,1,0
25.028647040,1,1
25.028662720,0,1
25.028938880,0,0
25.029093600,1,0
25.029369760,1,1
25.035799680,0,1
25.038196160,0,0
25.042477760,1,0
25.044192320,1,1
25.044208800,0,1
25.044484960,0,0
25.044596480,1,0
25.044873120,1,1
25.045924960,0,1
25.046523200,0,0
25.048209120,1,0
25.049055840,1,1
25.049071680,0,1
25.049348320,0,0
25.049499200,1,0
25.049775520,1,1
25.052867520,0,1
25.054147520,0,0
25.056018720,1,0
25.056927040,1,1
25.056943520,0,1
25.057219680,0,0
25.057301920,1,0
25.057578560,1,1
25.057702560,0,1
25.057979520,0,0
25.062739680,1,0
25.064578400,1,1
25.068118560,0,1
25.069584800,0,0
25.069601440,1,0
25.069878080,1,1
25.070005440,0,1
25.070282400,0,0
25.073373600,1,0
25.074653760,1,1
25.075783200,0,1
25.076444320,0,0
25.076460320,1,0
25.076736480,1,1
25.076808160,0,1
25.077084320,0,0
25.077580320,1,0
25.077982080,1,1
25.083575520,0,1
25.085724640,0,0
25.085740320,1,0
25.086016800,1,1
25.086110880,0,1
25.086387200,0,0
25.087068480,1,0
25.087543040,1,1
25.093308160,0,1
25.095518720,0,0
25.100542400,1,0
25.102504960,1,1
25.102521280,0,1
25.102798080,0,0
25.102914400,1,0
25.103191360,1,1
25.103686560,0,1
25.104088640,0,0
25.109681760,1,0
25.111830240,1,1
25.111846720,0,1
25.112123360,0,0
25.112217120,1,0
25.112494240,1,1
25.113174880,0,1
25.113649760,0,0
25.119229120,1,0
25.121377920,1,1
25.121394080,0,1
25.121670880,0,0
25.121820000,1,0
25.122096320,1,1
25.126671680,0,1
25.128448000,0,0
25.134584480,1,0
25.136919680,1,1
25.136935520,0,1
25.137211840,0,0
25.137322880,1,0
25.137599200,1,1
25.137723520,0,1
25.138000160,0,0
25.144244160,1,0
25.146578720,1,1
25.148820800,0,1
25.149853280,0,0
25.149869760,1,0
25.150146560,1,1
25.150226400,0,1
25.150503040,0,0
25.153223680,1,0
25.154380800,1,1
25.154953440,0,1
25.155428160,0,0
25.155444160,1,0
25.155720960,1,1
25.155829120,0,1
25.156105280,0,0
25.160866240,1,0
25.162705280,1,1
25.165132320,0,1
25.166227040,0,0
25.166243360,1,0
25.166519680,1,1
25.166631840,0,1
25.166908480,0,0
25.170927360,1,0
25.172517920,1,1
25.173091040,0,1
25.173565440,0,0
25.173767680,1,0
25.174107680,1,1
25.174137120,0,1
25.174413920,0,0
25.174535200,1,0
25.174811520,1,1
25.176790880,0,1
25.177700160,0,0
25.181054080,1,0
25.182459360,1,1
25.182475040,0,1
25.182751840,0,0
25.182837920,1,0
25.183114240,1,1
25.188060640,0,1
25.189961920,0,0
25.195170240,1,0
25.197194720,1,1
25.197211200,0,1
25.197487360,0,0
25.197640800,1,0
25.197917440,1,1
25.203976000,0,1
25.206249280,0,0
25.210159520,1,0
25.211750080,1,1
25.212323200,0,1
25.212797600,0,0
25.212814080,1,0
25.213090720,1,1
25.213244320,0,1
25.213521280,0,0
25.217539840,1,0
25.219130560,1,1
25.224524800,0,1
25.226612320,0,0
25.226628000,1,0
25.226904320,1,1
25.227047200,0,1
25.227323520,0,0
25.228746560,1,0
25.229469280,1,1
25.234863680,0,1
25.236950880,0,0
25.236966720,1,0
25.237243040,1,1
25.237350080,0,1
25.237626400,0,0
25.242943520,1,0
25.244968480,1,1
25.248322720,0,1
25.249727360,0,0
25.249743840,1,0
25.250020480,1,1
25.250152800,0,1
25.250429760,0,0
25.250553440,1,0
25.250829760,1,1
25.256888640,0,1
25.259161120,0,0
25.263072160,1,0
25.264663200,1,1
25.264679200,0,1
25.264955520,0,0
25.265056320,1,0
25.265332640,1,1
25.268795520,0,1
25.270200160,0,0
25.273925760,1,0
25.275454240,1,1
25.275470720,0,1
25.275747360,0,0
25.275859200,1,0
25.276136000,1,1
25.278856480,0,1
25.280013280,0,0
25.280771680,1,0
25.281308320,1,1
25.281324160,0,1
25.281600320,0,0
25.281661920,1,0
25.281938240,1,1
25.284844640,0,1
25.286063040,0,0
25.288676160,1,0
25.289832480,1,1
25.291332960,0,1
25.292117280,0,0
25.292133600,1,0
25.292410400,1,1
25.292565280,0,1
25.292842080,0,0
25.298344160,1,0
25.300431040,1,1
25.303785760,0,1
25.305190400,0,0
25.305206720,1,0
25.305483040,1,1
25.305568160,0,1
25.305844800,0,0
25.309678080,1,0
25.311207040,1,1
25.312706720,0,1
25.313491200,0,0
25.313507680,1,0
25.313783840,1,1
25.313870880,0,1
25.314147520,0,0
25.314457600,1,0
25.314797280,1,1
25.320250400,0,1
25.322337760,0,0
25.322353760,1,0
25.322630720,1,1
25.322773600,0,1
25.323049920,0,0
25.323174240,1,0
25.323450720,1,1
25.328211520,0,1
25.330050720,0,0
25.332292160,1,0
25.333324960,1,1
25.333341280,0,1
25.333617280,0,0
25.333777120,1,0
25.334053760,1,1
25.339926880,0,1
25.342138080,0,0
25.346419360,1,0
25.348134560,1,1
25.348150560,0,1
25.348427360,0,0
25.348580000,1,0
25.348856320,1,1
25.349352160,0,1
25.349754560,0,0
25.354791040,1,0
25.356753920,1,1
25.356769760,0,1
25.357045760,0,0
25.357182720,1,0
25.357459040,1,1
25.358140320,0,1
25.358614720,0,0
25.364936320,1,0
25.367333280,1,1
25.369018880,0,1
25.369865600,0,0
25.369881760,1,0
25.370158560,1,1
25.370286240,0,1
25.370562560,0,0
25.372912800,1,0
25.373945280,1,1
25.374703840,0,1
25.375240640,0,0
25.375256640,1,0
25.375533600,1,1
25.375688960,0,1
25.375965280,0,0
25.382209600,1,0
25.384544800,1,1
25.386044480,0,1
25.386829280,0,0
25.386845440,1,0
25.387121600,1,1
25.387191680,0,1
25.387468000,0,0
25.392970560,1,0
25.395058080,1,1
25.398226720,0,1
25.399569120,0,0
25.402182080,1,0
25.403338400,1,1
25.403355040,0,1
25.403631360,0,0
25.403695200,1,0
25.403972000,1,1
25.405580000,0,1
25.406364960,0,0
25.411202560,1,0
25.413103360,1,1
25.413119360,0,1
25.413396320,0,0
25.413498080,1,0
25.413774400,1,1
25.417422560,0,1
25.418889120,0,0
25.420945920,1,0
25.421916160,1,1
25.421932800,0,1
25.422208960,0,0
25.422300800,1,0
25.422577600,1,1
25.424556480,0,1
25.425464800,0,0
25.428819520,1,0
25.430224320,1,1
25.430240640,0,1
25.430516960,0,0
25.430603520,1,0
25.430880320,1,1
25.431004160,0,1
25.431280960,0,0
25.436783040,1,0
25.438869920,1,1
25.442595520,0,1
25.444124480,0,0
25.444140480,1,0
25.444417280,1,1
25.444507040,0,1
25.444783200,0,0
25.450471360,1,0
25.452620640,1,1
25.453749440,0,1
25.454410720,0,0
25.454426560,1,0
25.454703520,1,1
25.454809760,0,1
25.455086080,0,0
25.458178080,1,0
25.459458240,1,1
25.461514720,0,1
25.462484960,0,0
25.462501440,1,0
25.462778400,1,1
25.462912640,0,1
25.463189280,0,0
25.464612000,1,0
25.465335040,1,1
25.469987200,0,1
25.471825760,0,0
25.474438720,1,0
25.475595360,1,1
25.475611680,0,1
25.475887840,0,0
25.476016000,1,0
25.476292640,1,1
25.479384320,0,1
25.480665120,0,0
25.481793760,1,0
25.482455040,1,1
25.482470880,0,1
25.482747680,0,0
25.482818720,1,0
25.483095040,1,1
25.483590880,0,1
25.483993280,0,0
25.487175360,1,0
25.488518080,1,1
25.488534400,0,1
25.488811040,0,0
25.488921440,1,0
25.489198400,1,1
25.493587840,0,1
25.495303040,0,0
25.496988000,1,0
25.497834400,1,1
25.497850720,0,1
25.498127360,0,0
25.498224320,1,0
25.498500960,1,1
25.498624960,0,1
25.498901120,0,0
25.504032960,1,0
25.505995360,1,1
25.509906080,0,1
25.511497120,0,0
25.511513120,1,0
25.511789920,1,1
25.511927840,0,1
25.512204160,0,0
25.512885440,1,0
25.513359840,1,1
25.519125120,0,1
25.521335680,0,0
25.521352160,1,0
25.521628320,1,1
25.521730560,0,1
25.522007360,0,0
25.524728000,1,0
25.525884480,1,1
25.527384800,0,1
25.528169600,0,0
25.528185600,1,0
25.528462560,1,1
25.528533280,0,1
25.528809600,0,0
25.528933920,1,0
25.529210240,1,1
25.529891520,0,1
25.530365760,0,0
25.535389440,1,0
25.537352160,1,1
25.537368640,0,1
25.537645440,0,0
25.537736640,1,0
25.538013600,1,1
25.543515680,0,1
25.545602400,0,0
25.550069760,1,0
25.551846720,1,1
25.551862720,0,1
25.552139680,0,0
25.552239520,1,0
25.552516000,1,1
25.555422400,0,1
25.556640800,0,0
25.561479040,1,0
25.563380640,1,1
25.563396480,0,1
25.563672640,0,0
25.563742400,1,0
25.564018720,1,1
25.566183520,0,1
25.567154080,0,0
25.570508800,1,0
25.571913280,1,1
25.574711520,0,1
25.575929920,0,0
25.575946240,1,0
25.576222560,1,1
25.576345760,0,1
25.576622400,0,0
25.578601440,1,0
25.579509920,1,1
25.583050080,0,1
25.584516640,0,0
25.584532960,1,0
25.584809760,1,1
25.584948640,0,1
25.585225280,0,0
25.587389760,1,0
25.588361120,1,1
25.593198560,0,1
25.595099680,0,0
25.595115680,1,0
25.595392480,1,1
25.595551360,0,1
25.595827520,0,0
25.599105120,1,0
25.600448160,1,1
25.602875200,0,1
25.603969760,0,0
25.603986240,1,0
25.604262400,1,1
25.604354080,0,1
25.604630720,0,0
25.604754720,1,0
25.605031520,1,1
25.607196000,0,1
25.608167360,0,0
25.613190240,1,0
25.615153440,1,1
25.615169280,0,1
25.615445440,0,0
25.615557600,1,0
25.615833760,1,1
25.617256960,0,1
25.617979680,0,0
25.622817600,1,0
25.624718400,1,1
25.624734720,0,1
25.625010880,0,0
25.625160320,1,0
25.625437120,1,1
25.630753920,0,1
25.632779200,0,0
25.636318560,1,0
25.637785760,1,1
25.637801600,0,1
25.638077760,0,0
25.638163200,1,0
25.638439520,1,1
25.642087840,0,1
25.643554560,0,0
25.645240160,1,0
25.646087520,1,1
25.651481120,0,1
25.653567840,0,0
25.653584320,1,0
25.653860960,1,1
25.653966720,0,1
25.654243680,0,0
25.660487360,1,0
25.662828480,1,1
25.666425920,0,1
25.667975040,0,0
25.667991680,1,0
25.668268480,1,1
25.668369600,0,1
25.668646560,0,0
25.673221280,1,0
25.674998080,1,1
25.675200160,0,1
25.675540160,0,0
25.675571680,1,0
25.675848480,1,1
25.675972320,0,1
25.676248640,0,0
25.677300800,1,0
25.677899680,1,1
25.678286720,0,1
25.678698880,0,0
25.678715520,1,0
25.678992160,1,1
25.679075040,0,1
25.679351840,0,0
25.679475680,1,0
25.679752000,1,1
25.680618720,0,1
25.681155040,0,0
25.683026240,1,0
25.683934720,1,1
25.683951200,0,1
25.684227360,0,0
25.684378240,1,0
25.684655040,1,1
25.687561120,0,1
25.688780160,0,0
25.691578080,1,0
25.692797120,1,1
25.692813120,0,1
25.693089920,0,0
25.693181120,1,0
25.693457440,1,1
25.694695040,0,1
25.695356000,0,0
25.700564320,1,0
25.702588960,1,1
25.702605440,0,1
25.702881760,0,0
25.702983840,1,0
25.703260640,1,1
25.706537600,0,1
25.707880000,0,0
25.710864000,1,0
25.712144800,1,1
25.718280960,0,1
25.720616000,0,0
25.720632000,1,0
25.720908160,1,1
25.720987520,0,1
25.721263520,0,0
25.726210080,1,0
25.728110720,1,1
25.734432320,0,1
25.736829600,0,0
25.736845440,1,0
25.737121600,1,1
25.737190400,0,1
25.737466400,0,0
25.743525600,1,0
25.745798400,1,1
25.749338080,0,1
25.750805120,0,0
25.750821120,1,0
25.751097920,1,1
25.751193120,0,1
25.751469280,0,0
25.753077920,1,0
25.753862400,1,1
25.757587840,0,1
25.759116960,0,0
25.762841920,1,0
25.764371040,1,1
25.764386880,0,1
25.764663040,0,0
25.764796640,1,0
25.765072800,1,1
25.770204800,0,1
25.772167040,0,0
25.776448800,1,0
25.778163520,1,1
25.778179840,0,1
25.778456480,0,0
25.778599520,1,0
25.778876480,1,1
25.781411520,0,1
25.782506080,0,0
25.788641920,1,0
25.790977440,1,1
25.790993280,0,1
25.791269440,0,0
25.791402400,1,0
25.791678560,1,1
25.794399680,0,1
25.795556320,0,0
25.795758560,1,0
25.796098720,1,1
25.796124960,0,1
25.796401600,0,0
25.796505120,1,0
25.796781440,1,1
25.796905760,0,1
25.797181920,0,0
25.800644800,1,0
25.802049600,1,1
25.804291680,0,1
25.805324000,0,0
25.805340480,1,0
25.805617280,1,1
25.805708480,0,1
25.805985440,0,0
25.807778720,1,0
25.808625280,1,1
25.813834080,0,1
25.815859040,0,0
25.815875200,1,0
25.816152000,1,1
25.816211200,0,1
25.816487520,0,0
25.820321280,1,0
25.821849440,1,1
25.821865920,0,1
25.822142400,0,0
25.822213280,1,0
25.822490080,1,1
25.822613920,0,1
25.822890400,0,0
25.827836640,1,0
25.829737920,1,1
25.833833600,0,1
25.835486560,0,0
25.837728160,1,0
25.838761120,1,1
25.838776960,0,1
25.839053120,0,0
25.839117600,1,0
25.839393760,1,1
25.840446080,0,1
25.841044800,0,0
25.841617440,1,0
25.842092640,1,1
25.842108480,0,1
25.842384800,0,0
25.842520160,1,0
25.842796480,1,1
25.846815680,0,1
25.848406720,0,0
25.853986080,1,0
25.856135200,1,1
25.856151040,0,1
25.856428000,0,0
25.856523040,1,0
25.856799360,1,1
25.862858240,0,1
25.865130720,0,0
25.868856320,1,0
25.870385120,1,1
25.870401280,0,1
25.870678080,0,0
25.870825920,1,0
25.871102240,1,1
25.871226560,0,1
25.871502720,0,0
25.877376320,1,0
25.879586880,1,1
25.883497920,0,1
25.885088960,0,0
25.885104800,1,0
25.885381120,1,1
25.885529440,0,1
25.885805600,0,0
25.890937440,1,0
25.892899520,1,1
25.896068800,0,1
25.897412000,0,0
25.897427840,1,0
25.897704160,1,1
25.897832320,0,1
25.898108480,0,0
25.901571360,1,0
25.902976160,1,1
25.905218080,0,1
25.906250560,0,0
27.472691200,0,0
