Time [s],Channel 0,Channel 1
0.000000000,0,0
184.831352648,1,0
184.832511888,1,1
184.833362236,0,1
184.833724466,0,0
184.835163990,1,0
184.835526032,1,1
184.836966050,0,1
184.837327560,0,0
184.838767886,1,0
184.839128952,1,1
184.840569838,0,1
184.840931724,0,0
184.842371784,1,0
184.842733664,1,1
184.844173842,0,1
184.844535194,0,0
184.845975680,1,0
184.846336768,1,1
184.847777630,0,1
184.848139872,0,0
184.849579576,1,0
184.849941438,1,1
184.851381636,0,1
184.851742968,0,0
184.853183472,1,0
184.853544892,1,1
184.854985424,0,1
184.855347514,0,0
184.856787368,1,0
184.857149204,1,1
184.858589428,0,1
184.858950610,0,0
184.860391266,1,0
184.860752616,1,1
184.862193216,0,1
184.862555314,0,0
184.863995162,1,0
184.864357470,1,1
184.865797220,0,1
184.866158484,0,0
184.867599058,1,0
184.867960324,1,1
184.869401010,0,1
184.869763054,0,0
184.871202954,1,0
184.871564770,1,1
184.873005014,0,1
184.873366158,0,0
184.874806850,1,0
184.875168174,1,1
184.876608802,0,1
184.876970878,0,0
184.878410748,1,0
184.878773054,1,1
184.880212806,0,1
184.880573958,0,0
184.882014644,1,0
184.882383406,1,1
184.883816594,0,1
184.884178436,0,0
184.885618540,1,0
184.885980568,1,1
184.887420600,0,1
184.887782098,0,0
184.889222436,1,0
184.889583632,1,1
184.891024388,0,1
184.891386278,0,0
184.892826332,1,0
184.893188276,1,1
184.894628392,0,1
184.894989724,0,0
184.896430230,1,0
184.896791756,1,1
184.898232180,0,1
184.898594478,0,0
184.900034126,1,0
184.900396076,1,1
184.901836186,0,1
184.902197606,0,0
184.903638022,1,0
184.903999114,1,1
184.905439974,0,1
184.905802202,0,0
184.907241918,1,0
184.907603760,1,1
184.909043978,0,1
184.909405288,0,0
184.910845816,1,0
184.911207322,1,1
184.912647766,0,1
184.913010026,0,0
184.914449712,1,0
184.914811650,1,1
184.916251770,0,1
184.916613072,0,0
184.918053608,1,0
184.918415120,1,1
184.919855558,0,1
184.920217808,0,0
184.921657504,1,0
184.922019442,1,1
184.923459564,0,1
184.923820862,0,0
184.925261400,1,0
184.925622878,1,1
184.927063352,0,1
184.927425592,0,0
184.928865298,1,0
184.929227216,1,1
184.930667356,0,1
184.931028662,0,0
184.932469194,1,0
184.932830670,1,1
184.934271144,0,1
184.934633332,0,0
184.936073090,1,0
184.936435474,1,1
184.937875150,0,1
184.938236386,0,0
184.939676986,1,0
184.940038402,1,1
184.941478938,0,1
184.941841024,0,0
184.943280882,1,0
184.943642748,1,1
184.945082942,0,1
184.945444112,0,0
184.946884780,1,0
184.947246144,1,1
184.948686730,0,1
184.949048848,0,0
184.950488676,1,0
184.950850490,1,1
184.952290736,0,1
184.952651910,0,0
184.954092572,1,0
184.954453934,1,1
184.955894524,0,1
184.956256656,0,0
184.957696468,1,0
184.958058380,1,1
184.959498528,0,1
184.959859702,0,0
184.961300366,1,0
184.961661718,1,1
184.963102316,0,1
184.963464422,0,0
184.964904262,1,0
184.965266006,1,1
184.966706320,0,1
184.967067526,0,0
184.968508158,1,0
184.968869508,1,1
184.970310108,0,1
184.970672214,0,0
184.972112054,1,0
184.972473946,1,1
184.973914114,0,1
184.974275318,0,0
184.975715950,1,0
184.976077300,1,1
184.977517902,0,1
184.977879996,0,0
184.979319848,1,0
184.979681688,1,1
184.981121906,0,1
184.981483142,0,0
184.982923744,1,0
184.983285050,1,1
184.984725694,0,1
184.985087754,0,0
184.986527640,1,0
184.986889478,1,1
184.988329700,0,1
184.988690934,0,0
184.990131536,1,0
184.990492774,1,1
184.991933488,0,1
184.992295478,0,0
184.993735432,1,0
184.994097170,1,1
184.995537492,0,1
184.995899082,0,0
184.997339330,1,0
184.997700506,1,1
184.999141280,0,1
184.999503212,0,0
185.000943226,1,0
185.001305368,1,1
185.002745286,0,1
185.003106882,0,0
185.004547122,1,0
185.004908340,1,1
185.006349074,0,1
185.006710986,0,0
185.008151018,1,0
185.008513018,1,1
185.009953078,0,1
185.010314548,0,0
185.011754916,1,0
185.012116030,1,1
185.013556866,0,1
185.013919218,0,0
185.015358812,1,0
185.015720776,1,1
185.017160870,0,1
185.017522306,0,0
185.018962708,1,0
185.019324288,1,1
185.020764658,0,1
185.021126894,0,0
185.022566604,1,0
185.022928784,1,1
185.024368664,0,1
185.024729872,0,0
185.026170500,1,0
185.026531704,1,1
185.027972452,0,1
185.028334542,0,0
185.029774398,1,0
185.030136534,1,1
185.031576456,0,1
185.031937614,0,0
185.033378294,1,0
185.033739488,1,1
185.035180244,0,1
185.035542192,0,0
185.036982190,1,0
185.037344324,1,1
185.038784250,0,1
185.039145354,0,0
185.040586086,1,0
185.040947278,1,1
185.042388038,0,1
185.042749976,0,0
185.044189982,1,0
185.044551966,1,1
185.045992042,0,1
185.046353496,0,0
185.047793880,1,0
185.048155020,1,1
185.049595830,0,1
185.049958100,0,0
185.051397776,1,0
185.051759666,1,1
185.053199834,0,1
185.053561194,0,0
185.055001672,1,0
185.055363202,1,1
185.056803624,0,1
185.057165908,0,0
185.058605568,1,0
185.058967982,1,1
185.060407628,0,1
185.060768920,0,0
185.062209464,1,0
185.062570936,1,1
185.064011416,0,1
185.064373640,0,0
185.065813362,1,0
185.066175232,1,1
185.067615420,0,1
185.067976678,0,0
185.069417258,1,0
185.069778684,1,1
185.071219208,0,1
185.071581298,0,0
185.073021154,1,0
185.073383456,1,1
185.074823214,0,1
185.075184426,0,0
185.076625050,1,0
185.076986292,1,1
185.078427002,0,1
185.078788998,0,0
185.080228948,1,0
185.080591122,1,1
185.082031006,0,1
185.082392168,0,0
185.083832844,1,0
185.084194016,1,1
185.085634794,0,1
185.085996788,0,0
185.087436740,1,0
185.087798838,1,1
185.089238800,0,1
185.089600368,0,0
185.091040636,1,0
185.091401800,1,1
185.092842588,0,1
185.093204530,0,0
185.094644532,1,0
185.095006578,1,1
185.096446592,0,1
185.096808126,0,0
185.098248430,1,0
185.098609624,1,1
185.100050380,0,1
185.100412720,0,0
185.101852326,1,0
185.102214286,1,1
185.103654384,0,1
185.104015816,0,0
185.105456222,1,0
185.105817316,1,1
185.107258174,0,1
185.107620428,0,0
185.109060118,1,0
185.109422012,1,1
185.110862178,0,1
185.111223540,0,0
185.112664014,1,0
185.113025532,1,1
185.114465966,0,1
185.114827754,0,0
185.116267912,1,0
185.116629752,1,1
185.118069970,0,1
185.118431282,0,0
185.119871808,1,0
185.120233272,1,1
185.121673758,0,1
185.122035978,0,0
185.123475704,1,0
185.123837644,1,1
185.125277764,0,1
185.125638964,0,0
185.127079600,1,0
185.127440980,1,1
185.128881552,0,1
185.129243678,0,0
185.130683496,1,0
185.131045834,1,1
185.132485556,0,1
185.132846790,0,0
185.134287394,1,0
185.134648804,1,1
185.136089344,0,1
185.136451510,0,0
185.137891290,1,0
185.138253134,1,1
185.139693348,0,1
185.140054514,0,0
185.141495186,1,0
185.141856530,1,1
185.143297136,0,1
185.143659242,0,0
185.145099082,1,0
185.145460950,1,1
185.146901142,0,1
185.147262254,0,0
185.148702978,1,0
185.149064270,1,1
185.150504930,0,1
185.150866984,0,0
185.152306876,1,0
185.152668692,1,1
185.154108934,0,1
185.154470062,0,0
185.155910772,1,0
185.156271862,1,1
185.157712722,0,1
185.158074616,0,0
185.159514668,1,0
185.159876632,1,1
185.161316728,0,1
185.161685262,0,0
185.163118564,1,0
185.163479662,1,1
185.164920516,0,1
185.165282766,0,0
185.166722462,1,0
185.167084324,1,1
185.168524520,0,1
185.168885820,0,0
185.170326358,1,0
185.170687828,1,1
185.172128308,0,1
185.172490440,0,0
185.173930254,1,0
185.174292114,1,1
185.175732314,0,1
185.176093652,0,0
185.177534150,1,0
185.177895526,1,1
185.179336102,0,1
185.179698232,0,0
185.181138046,1,0
185.181499940,1,1
185.182940106,0,1
185.183301394,0,0
185.184741944,1,0
185.185103326,1,1
185.186543894,0,1
185.186906014,0,0
185.188345840,1,0
185.188707680,1,1
185.190147898,0,1
185.190509586,0,0
185.191949736,1,0
185.192311010,1,1
185.193751686,0,1
185.194113714,0,0
185.195553632,1,0
185.195915422,1,1
185.197355692,0,1
185.197716876,0,0
185.199157528,1,0
185.199518808,1,1
185.200959480,0,1
185.201321514,0,0
185.202761426,1,0
185.203123670,1,1
185.204563484,0,1
185.204924700,0,0
185.206365322,1,0
185.206726532,1,1
185.208167272,0,1
185.208529238,0,0
185.209969218,1,0
185.210331296,1,1
185.211771278,0,1
185.212132834,0,0
185.213573114,1,0
185.213934282,1,1
185.215375066,0,1
185.215736978,0,0
185.217177010,1,0
185.217539054,1,1
185.218979070,0,1
185.219340574,0,0
185.220780908,1,0
185.221142024,1,1
185.222582858,0,1
185.222945112,0,0
185.224384804,1,0
185.224746670,1,1
185.226186862,0,1
185.226548124,0,0
185.227988700,1,0
185.228349956,1,1
185.229790650,0,1
185.230152662,0,0
185.231592596,1,0
185.231954818,1,1
185.233394656,0,1
185.233755756,0,0
185.235196492,1,0
185.235557790,1,1
185.236998444,0,1
185.237360494,0,0
185.238800390,1,0
185.239162652,1,1
185.240602448,0,1
185.240963582,0,0
185.242404286,1,0
185.242765596,1,1
185.244206236,0,1
185.244568318,0,0
185.246008182,1,0
185.246369892,1,1
185.247810242,0,1
185.248171456,0,0
185.249612078,1,0
185.249973422,1,1
185.251414030,0,1
185.251776044,0,0
185.253215974,1,0
185.253578200,1,1
185.255018034,0,1
185.255379222,0,0
185.256819872,1,0
185.257181046,1,1
185.258621822,0,1
185.258983792,0,0
185.260423768,1,0
185.260785742,1,1
185.262225826,0,1
185.262587272,0,0
185.264027664,1,0
185.264388804,1,1
185.265829614,0,1
185.266191918,0,0
185.267631560,1,0
185.267993482,1,1
185.269433620,0,1
185.269795012,0,0
185.271235456,1,0
185.271596494,1,1
185.273037408,0,1
185.273399274,0,0
185.274839354,1,0
185.275201266,1,1
185.276641412,0,1
185.277002796,0,0
185.278443250,1,0
185.278804320,1,1
185.280245200,0,1
185.280607432,0,0
185.282047146,1,0
185.282409016,1,1
185.283849206,0,1
185.284210578,0,0
185.285651042,1,0
185.286012110,1,1
185.287452994,0,1
185.287815240,0,0
185.289254938,1,0
185.289616798,1,1
185.291056998,0,1
185.291418328,0,0
185.292858836,1,0
185.293220344,1,1
185.294660786,0,1
185.295023048,0,0
185.296462732,1,0
185.296824564,1,1
185.298264790,0,1
185.298626102,0,0
185.300066628,1,0
185.300427934,1,1
185.301868580,0,1
185.302230456,0,0
185.303670524,1,0
185.304032580,1,1
185.305472584,0,1
185.305833694,0,0
185.307274420,1,0
185.307635534,1,1
185.309076372,0,1
185.309438198,0,0
185.310878318,1,0
185.311240262,1,1
185.312680376,0,1
185.313041792,0,0
185.314482214,1,0
185.314843308,1,1
185.316284164,0,1
185.316646464,0,0
185.318086110,1,0
185.318448020,1,1
185.319888170,0,1
185.320249550,0,0
185.321690006,1,0
185.322051558,1,1
185.323491958,0,1
185.323854172,0,0
185.325293904,1,0
185.325655746,1,1
185.327095962,0,1
185.327457274,0,0
185.328897800,1,0
185.329259308,1,1
185.330699750,0,1
185.331061912,0,0
185.332501696,1,0
185.332863486,1,1
185.334303756,0,1
185.334664942,0,0
185.336105592,1,0
185.336466948,1,1
185.337907544,0,1
185.338269670,0,0
185.339709488,1,0
185.340071378,1,1
185.341511548,0,1
185.341872882,0,0
185.343313386,1,0
185.343674706,1,1
185.345115336,0,1
185.345477412,0,0
185.346917282,1,0
185.347279052,1,1
185.348719340,0,1
185.349080998,0,0
185.350521178,1,0
185.350882422,1,1
185.352323128,0,1
185.352685128,0,0
185.354125074,1,0
185.354487284,1,1
185.355927134,0,1
185.356288398,0,0
185.357728970,1,0
185.358090222,1,1
185.359530922,0,1
185.359892936,0,0
185.361332868,1,0
185.361694600,1,1
185.363134926,0,1
185.363496530,0,0
185.364936764,1,0
185.365297954,1,1
185.366738714,0,1
185.367100660,0,0
185.368540660,1,0
185.368902808,1,1
185.370342720,0,1
185.370704256,0,0
185.372144556,1,0
185.372505722,1,1
185.373946508,0,1
185.374308910,0,0
185.375748452,1,0
185.376110466,1,1
185.377550512,0,1
185.377911996,0,0
185.379352350,1,0
185.379713546,1,1
185.381154300,0,1
185.381516126,0,0
185.382956246,1,0
185.383318158,1,1
185.384758304,0,1
185.385119604,0,0
185.386560142,1,0
185.386921204,1,1
185.388362094,0,1
185.388724308,0,0
185.390164038,1,0
185.390525932,1,1
185.391966098,0,1
185.392327346,0,0
185.393767934,1,0
185.394129352,1,1
185.395569886,0,1
185.395932024,0,0
185.397371832,1,0
185.397734182,1,1
185.399173890,0,1
185.399535154,0,0
185.400975728,1,0
185.401337160,1,1
185.402777678,0,1
185.403139866,0,0
185.404579624,1,0
185.404941614,1,1
185.406381684,0,1
185.406742978,0,0
185.408183520,1,0
185.408544994,1,1
185.409985472,0,1
185.410347698,0,0
185.411787418,1,0
185.412149288,1,1
185.413589476,0,1
185.413950744,0,0
185.415391314,1,0
185.415752760,1,1
185.417193264,0,1
185.417555480,0,0
185.418995210,1,0
185.419357096,1,1
185.420797270,0,1
185.421158502,0,0
185.422599106,1,0
185.422960484,1,1
185.424401058,0,1
185.424763188,0,0
185.426203002,1,0
185.426564838,1,1
185.428005062,0,1
185.428366268,0,0
185.429806900,1,0
185.430168200,1,1
185.431608850,0,1
185.431970906,0,0
185.433410796,1,0
185.433773062,1,1
185.435212854,0,1
185.435574034,0,0
185.437014692,1,0
185.437376050,1,1
185.438816642,0,1
185.439178754,0,0
185.440618588,1,0
185.440980320,1,1
185.442420648,0,1
185.442781984,0,0
185.444222484,1,0
185.444584000,1,1
185.446024436,0,1
185.446386704,0,0
185.447826382,1,0
185.448188278,1,1
185.449628440,0,1
185.449989808,0,0
185.451430278,1,0
185.451791790,1,1
185.453232228,0,1
185.453594412,0,0
185.455034174,1,0
185.455396086,1,1
185.456836234,0,1
185.457197474,0,0
185.458638070,1,0
185.458999414,1,1
185.460440022,0,1
185.460802120,0,0
185.462241966,1,0
185.462603710,1,1
185.464044026,0,1
185.464405224,0,0
185.465845864,1,0
185.466207140,1,1
185.467647814,0,1
185.468009860,0,0
185.469449760,1,0
185.469812026,1,1
185.471251818,0,1
185.471613024,0,0
185.473053656,1,0
185.473414938,1,1
185.474855606,0,1
185.475217644,0,0
185.476657552,1,0
185.477019800,1,1
185.478459612,0,1
185.478820848,0,0
185.480261448,1,0
185.480622680,1,1
185.482063400,0,1
185.482425468,0,0
185.483865346,1,0
185.484227442,1,1
185.485667404,0,1
185.486028956,0,0
185.487469242,1,0
185.487830430,1,1
185.489271192,0,1
185.489633518,0,0
185.491073138,1,0
185.491435124,1,1
185.492875198,0,1
185.493236546,0,0
185.494677034,1,0
185.495038538,1,1
185.496478986,0,1
185.496841242,0,0
185.498280932,1,0
185.498642900,1,1
185.500082990,0,1
185.500444254,0,0
185.501884828,1,0
185.502246228,1,1
185.503686778,0,1
185.504048934,0,0
185.505488724,1,0
185.505850640,1,1
185.507290784,0,1
185.507652054,0,0
185.509092620,1,0
185.509453986,1,1
185.510894572,0,1
185.511256690,0,0
185.512696516,1,0
185.513058432,1,1
185.514498576,0,1
185.514859794,0,0
185.516300414,1,0
185.516661728,1,1
185.518102364,0,1
185.518464432,0,0
185.519904310,1,0
185.520266122,1,1
185.521706368,0,1
185.522067528,0,0
185.523508206,1,0
185.523869544,1,1
185.525310156,0,1
185.525672240,0,0
185.527112102,1,0
185.527474398,1,1
185.528914162,0,1
185.529275368,0,0
185.530715998,1,0
185.531077384,1,1
185.532517950,0,1
185.532880098,0,0
185.534319896,1,0
185.534681688,1,1
185.536121954,0,1
185.536483252,0,0
185.537923792,1,0
185.538285268,1,1
185.539725742,0,1
185.540087972,0,0
185.541527688,1,0
185.541889538,1,1
185.543329748,0,1
185.543691068,0,0
185.545131584,1,0
185.545493076,1,1
185.546933536,0,1
185.547295780,0,0
185.548735480,1,0
185.549097370,1,1
185.550537540,0,1
185.550898908,0,0
185.552339378,1,0
185.552700932,1,1
185.554141328,0,1
185.554503654,0,0
185.555943274,1,0
185.556305196,1,1
185.557745332,0,1
185.558106724,0,0
185.559547170,1,0
185.559908740,1,1
185.561349120,0,1
185.561711438,0,0
185.563151066,1,0
185.563512986,1,1
185.564953126,0,1
185.565314424,0,0
185.566754962,1,0
185.567116424,1,1
185.568556914,0,1
185.568919136,0,0
185.570358860,1,0
185.570720702,1,1
185.572160918,0,1
185.572522232,0,0
185.573962756,1,0
185.574323824,1,1
185.575764706,0,1
185.576126920,0,0
185.577566652,1,0
185.577928502,1,1
185.579368712,0,1
185.579730008,0,0
185.581170548,1,0
185.581531764,1,1
185.582972500,0,1
185.583334494,0,0
185.584774444,1,0
185.585136160,1,1
185.586576504,0,1
185.586938074,0,0
185.588378342,1,0
185.588739448,1,1
185.590180292,0,1
185.590542318,0,0
185.591982238,1,0
185.592344284,1,1
185.593784296,0,1
185.594145814,0,0
185.595586134,1,0
185.595947822,1,1
185.597388084,0,1
185.597750026,0,0
185.599190030,1,0
185.599552018,1,1
185.600992090,0,1
185.601353546,0,0
185.602793926,1,0
185.603155562,1,1
185.604595878,0,1
185.604957800,0,0
185.606397824,1,0
185.606759774,1,1
185.608199882,0,1
185.608561304,0,0
185.610001720,1,0
185.610362878,1,1
185.611803670,0,1
185.612165916,0,0
185.613605616,1,0
185.613967408,1,1
185.615407676,0,1
185.615768972,0,0
185.617209512,1,0
185.617570886,1,1
185.619011464,0,1
185.619373608,0,0
185.620813408,1,0
185.621175200,1,1
185.622615468,0,1
185.622976738,0,0
185.624417306,1,0
185.624778752,1,1
185.626219256,0,1
185.626581366,0,0
185.628021202,1,0
185.628383090,1,1
185.629823260,0,1
185.630184428,0,0
185.631625098,1,0
185.631986428,1,1
185.633427048,0,1
185.633789132,0,0
185.635228994,1,0
185.635590764,1,1
185.637031054,0,1
185.637392744,0,0
185.638832890,1,0
185.639194168,1,1
185.640634842,0,1
185.640996874,0,0
185.642436788,1,0
185.642799030,1,1
185.644238846,0,1
185.644600418,0,0
185.646040684,1,0
185.646401868,1,1
185.647842634,0,1
185.648204582,0,0
185.649644580,1,0
185.650006614,1,1
185.651446640,0,1
185.651808144,0,0
185.653248476,1,0
185.653609492,1,1
185.655050428,0,1
185.655412764,0,0
185.656852372,1,0
185.657214304,1,1
185.658654432,0,1
185.659015834,0,0
185.660456270,1,0
185.660817350,1,1
185.662258220,0,1
185.662620064,0,0
185.664060166,1,0
185.664422080,1,1
185.665862226,0,1
185.666223534,0,0
185.667664062,1,0
185.668025400,1,1
185.669466014,0,1
185.669828104,0,0
185.671267958,1,0
185.671629820,1,1
185.673070018,0,1
185.673431226,0,0
185.674871854,1,0
185.675233240,1,1
185.676673806,0,1
185.677035938,0,0
185.678475752,1,0
185.678837562,1,1
185.680277810,0,1
185.680639016,0,0
185.682079648,1,0
185.682441032,1,1
185.683881598,0,1
185.684243728,0,0
185.685683544,1,0
185.686045886,1,1
185.687485604,0,1
185.687846774,0,0
185.689287440,1,0
185.689648790,1,1
185.691089392,0,1
185.691451494,0,0
185.692891304,1,0
185.693253178,1,1
185.694693322,0,1
185.695054574,0,0
185.696495142,1,0
185.696856590,1,1
185.698297076,0,1
185.698659244,0,0
185.700099004,1,0
185.700460918,1,1
185.701901048,0,1
185.702262324,0,0
185.703702868,1,0
185.704064314,1,1
185.705504802,0,1
185.705866936,0,0
185.707306730,1,0
185.707668660,1,1
185.709108774,0,1
185.709470064,0,0
185.710910594,1,0
185.711272072,1,1
185.712712528,0,1
185.713074768,0,0
185.714514456,1,0
185.714876434,1,1
185.716316500,0,1
185.716677814,0,0
185.718118320,1,0
185.718479846,1,1
185.719920254,0,1
185.720282110,0,0
185.721722182,1,0
185.722084242,1,1
185.723524226,0,1
185.723885688,0,0
185.725326046,1,0
185.725687188,1,1
185.727127980,0,1
185.727490342,0,0
185.728929910,1,0
185.729291882,1,1
185.730731952,0,1
185.731093412,0,0
187.747532800,0,0
