Time [s],Channel 0,Channel 1
0.000000000,0,0
8.849161102,1,0
8.849667900,1,1
8.850601216,0,1
8.850770508,0,0
8.852001188,1,0
8.852170702,1,1
8.853401800,0,1
8.853570466,0,0
8.854802458,1,0
8.854971626,1,1
8.856203120,0,1
8.856372390,0,0
8.857603826,1,0
8.857773066,1,1
8.859004438,0,1
8.859173148,0,0
8.860405094,1,0
8.860574140,1,1
8.861805756,0,1
8.861974872,0,0
8.863206464,1,0
8.863375664,1,1
8.864607076,0,1
8.864775778,0,0
8.866007732,1,0
8.866176872,1,1
8.867408394,0,1
8.867577752,0,0
8.868809100,1,0
8.868978428,1,1
8.870209712,0,1
8.870378544,0,0
8.871610370,1,0
8.871779420,1,1
8.873011032,0,1
8.873180268,0,0
8.874411738,1,0
8.874581110,1,1
8.875812350,0,1
8.875981024,0,0
8.877213006,1,0
8.877382066,1,1
8.878613670,0,1
8.878782866,0,0
8.880014376,1,0
8.880183674,1,1
8.881414988,0,1
8.881583706,0,0
8.882815644,1,0
8.882984664,1,1
8.884216306,0,1
8.884385480,0,0
8.885617014,1,0
8.885786356,1,1
8.887017626,0,1
8.887186320,0,0
8.888418282,1,0
8.888587362,1,1
8.889818944,0,1
8.889988244,0,0
8.891219650,1,0
8.891388920,1,1
8.892620262,0,1
8.892789002,0,0
8.894020920,1,0
8.894190044,1,1
8.895421582,0,1
8.895590876,0,0
8.896822288,1,0
8.896991518,1,1
8.898222900,0,1
8.898391716,0,0
8.899623556,1,0
8.899792592,1,1
8.901024218,0,1
8.901193490,0,0
8.902424926,1,0
8.902594200,1,1
8.903825538,0,1
8.903994398,0,0
8.905226194,1,0
8.905395240,1,1
8.906626856,0,1
8.906795972,0,0
8.908027562,1,0
8.908196848,1,1
8.909428174,0,1
8.909596796,0,0
8.910828832,1,0
8.910997922,1,1
8.912229494,0,1
8.912398802,0,0
8.913630200,1,0
8.913799446,1,1
8.915030812,0,1
8.915199610,0,0
8.916431468,1,0
8.916600520,1,1
8.917832130,0,1
8.918001334,0,0
8.919232838,1,0
8.919402126,1,1
8.920633450,0,1
8.920802242,0,0
8.922034106,1,0
8.922203084,1,1
8.923434768,0,1
8.923604098,0,0
8.924835474,1,0
8.925004692,1,1
8.926236086,0,1
8.926404856,0,0
8.927636744,1,0
8.927805848,1,1
8.929037406,0,1
8.929206614,0,0
8.930438112,1,0
8.930607456,1,1
8.931838724,0,1
8.932007538,0,0
8.933239380,1,0
8.933408380,1,1
8.934640042,0,1
8.934809294,0,0
8.936040750,1,0
8.936210020,1,1
8.937441362,0,1
8.937610168,0,0
8.938842018,1,0
8.939011144,1,1
8.940242680,0,1
8.940411892,0,0
8.941643386,1,0
8.941812668,1,1
8.943043998,0,1
8.943212734,0,0
8.944444656,1,0
8.944613826,1,1
8.945845318,0,1
8.946014708,0,0
8.947246024,1,0
8.947415232,1,1
8.948646636,0,1
8.948815230,0,0
8.950047292,1,0
8.950216506,1,1
8.951447954,0,1
8.951617222,0,0
8.952848662,1,0
8.953017948,1,1
8.954249274,0,1
8.954418028,0,0
8.955649930,1,0
8.955819072,1,1
8.957050592,0,1
8.957219752,0,0
8.958451300,1,0
8.958620546,1,1
8.959851912,0,1
8.960020710,0,0
8.961252568,1,0
8.961421620,1,1
8.962653230,0,1
8.962822384,0,0
8.964053936,1,0
8.964223310,1,1
8.965454548,0,1
8.965623192,0,0
8.966855206,1,0
8.967024234,1,1
8.968255868,0,1
8.968425066,0,0
8.969656574,1,0
8.969825874,1,1
8.971057186,0,1
8.971225956,0,0
8.972457842,1,0
8.972627066,1,1
8.973858504,0,1
8.974027630,0,0
8.975259212,1,0
8.975428356,1,1
8.976659824,0,1
8.976828638,0,0
8.978060480,1,0
8.978229480,1,1
8.979461142,0,1
8.979630362,0,0
8.980861848,1,0
8.981031154,1,1
8.982262460,0,1
8.982431118,0,0
8.983663118,1,0
8.983832312,1,1
8.985063780,0,1
8.985232876,0,0
8.986464486,1,0
8.986633718,1,1
8.987865098,0,1
8.988033884,0,0
8.989265754,1,0
8.989434792,1,1
8.990666416,0,1
8.990835558,0,0
8.992067124,1,0
8.992236400,1,1
8.993467736,0,1
8.993636564,0,0
8.994868392,1,0
8.995037356,1,1
8.996269054,0,1
8.996438122,0,0
8.997669760,1,0
8.997838964,1,1
8.999070372,0,1
8.999239080,0,0
9.000471030,1,0
9.000640154,1,1
9.001871692,0,1
9.002041002,0,0
9.003272398,1,0
9.003441696,1,1
9.004673010,0,1
9.004841760,0,0
9.006073666,1,0
9.006242802,1,1
9.007474328,0,1
9.007643534,0,0
9.008875036,1,0
9.009044260,1,1
9.010275648,0,1
9.010444524,0,0
9.011676304,1,0
9.011845484,1,1
9.013076966,0,1
9.013246166,0,0
9.014477674,1,0
9.014646892,1,1
9.015878284,0,1
9.016047006,0,0
9.017278942,1,0
9.017448048,1,1
9.018679604,0,1
9.018848730,0,0
9.020080310,1,0
9.020249622,1,1
9.021480922,0,1
9.021649804,0,0
9.022881580,1,0
9.023050730,1,1
9.024282242,0,1
9.024451494,0,0
9.025682948,1,0
9.025852338,1,1
9.027083560,0,1
9.027252418,0,0
9.028484216,1,0
9.028663970,1,1
9.029884878,0,1
9.030053876,0,0
9.031285586,1,0
9.031454936,1,1
9.032686198,0,1
9.032854934,0,0
9.034086854,1,0
9.034255976,1,1
9.035487516,0,1
9.035656708,0,0
9.036888222,1,0
9.037057550,1,1
9.038288834,0,1
9.038457614,0,0
9.039689492,1,0
9.039858506,1,1
9.041090154,0,1
9.041259272,0,0
9.042490860,1,0
9.042660114,1,1
9.043891472,0,1
9.044060178,0,0
9.045292128,1,0
9.045461188,1,1
9.046692790,0,1
9.046861954,0,0
9.048093498,1,0
9.048262796,1,1
9.049494110,0,1
9.049662910,0,0
9.050894766,1,0
9.051063870,1,1
9.052295428,0,1
9.052464584,0,0
9.053696134,1,0
9.053865476,1,1
9.055096746,0,1
9.055265392,0,0
9.056497404,1,0
9.056666584,1,1
9.057898066,0,1
9.058067316,0,0
9.059298772,1,0
9.059468042,1,1
9.060699384,0,1
9.060868222,0,0
9.062100040,1,0
9.062269116,1,1
9.063500702,0,1
9.063670080,0,0
9.064901410,1,0
9.065070590,1,1
9.066302022,0,1
9.066470704,0,0
9.067702678,1,0
9.067871746,1,1
9.069103340,0,1
9.069272562,0,0
9.070504046,1,0
9.070673204,1,1
9.071904658,0,1
9.072073386,0,0
9.073305316,1,0
9.073474360,1,1
9.074705978,0,1
9.074875242,0,0
9.076106684,1,0
9.076275968,1,1
9.077507296,0,1
9.077675950,0,0
9.078907954,1,0
9.079077192,1,1
9.080308614,0,1
9.080477808,0,0
9.081709322,1,0
9.081878600,1,1
9.083109934,0,1
9.083278714,0,0
9.084510590,1,0
9.084679724,1,1
9.085911252,0,1
9.086080556,0,0
9.087311960,1,0
9.087481214,1,1
9.088712572,0,1
9.088881278,0,0
9.090113228,1,0
9.090282238,1,1
9.091513890,0,1
9.091683052,0,0
9.092914596,1,0
9.093083762,1,1
9.094315208,0,1
9.094484010,0,0
9.095715866,1,0
9.095884970,1,1
9.097116526,0,1
9.097285734,0,0
9.098517234,1,0
9.098686576,1,1
9.099917846,0,1
9.100086442,0,0
9.101318502,1,0
9.101487650,1,1
9.102719164,0,1
9.102888216,0,0
9.104119872,1,0
9.104289142,1,1
9.105520484,0,1
9.105689322,0,0
9.106921140,1,0
9.107090282,1,1
9.108321802,0,1
9.108490930,0,0
9.109722508,1,0
9.109891690,1,1
9.111123120,0,1
9.111291888,0,0
9.112523778,1,0
9.112692930,1,1
9.113924440,0,1
9.114093662,0,0
9.115325146,1,0
9.115494454,1,1
9.116725758,0,1
9.116894618,0,0
9.118126414,1,0
9.118295612,1,1
9.119527076,0,1
9.119696292,0,0
9.120927784,1,0
9.121096934,1,1
9.122328396,0,1
9.122497134,0,0
9.123729052,1,0
9.123898292,1,1
9.125129714,0,1
9.125299058,0,0
9.126530420,1,0
9.126699700,1,1
9.127931032,0,1
9.128099864,0,0
9.129331690,1,0
9.129500774,1,1
9.130732352,0,1
9.130901588,0,0
9.132133058,1,0
9.132302380,1,1
9.133533670,0,1
9.133702346,0,0
9.134934326,1,0
9.135103388,1,1
9.136334988,0,1
9.136504220,0,0
9.137735696,1,0
9.137904996,1,1
9.139136308,0,1
9.139305026,0,0
9.140536964,1,0
9.140706136,1,1
9.141937626,0,1
9.142106834,0,0
9.143338332,1,0
9.143507676,1,1
9.144738944,0,1
9.144907742,0,0
9.146139602,1,0
9.146308700,1,1
9.147540264,0,1
9.147709466,0,0
9.148940970,1,0
9.149110392,1,1
9.150341582,0,1
9.150510272,0,0
9.151742238,1,0
9.151911316,1,1
9.153142902,0,1
9.153312196,0,0
9.154543608,1,0
9.154712990,1,1
9.155944220,0,1
9.156112838,0,0
9.157344876,1,0
9.157513996,1,1
9.158745538,0,1
9.158914762,0,0
9.160146244,1,0
9.160315554,1,1
9.161546856,0,1
9.161715518,0,0
9.162947514,1,0
9.163116678,1,1
9.164348176,0,1
9.164517392,0,0
9.165748882,1,0
9.165918118,1,1
9.167149494,0,1
9.167318350,0,0
9.168550152,1,0
9.168719176,1,1
9.169950814,0,1
9.170120074,0,0
9.171351520,1,0
9.171520800,1,1
9.172752132,0,1
9.172920882,0,0
9.174152788,1,0
9.174321924,1,1
9.175553450,0,1
9.175722688,0,0
9.176954158,1,0
9.177123530,1,1
9.178354770,0,1
9.178523596,0,0
9.179755426,1,0
9.179924554,1,1
9.181156088,0,1
9.181325320,0,0
9.182556794,1,0
9.182726162,1,1
9.183957406,0,1
9.184126076,0,0
9.185358064,1,0
9.185527170,1,1
9.186758726,0,1
9.186928050,0,0
9.188159432,1,0
9.188328776,1,1
9.189560044,0,1
9.189728642,0,0
9.190960700,1,0
9.191129918,1,1
9.192361362,0,1
9.192530566,0,0
9.193762070,1,0
9.193931292,1,1
9.195162682,0,1
9.195331322,0,0
9.196563338,1,0
9.196732482,1,1
9.197964000,0,1
9.198133246,0,0
9.199364706,1,0
9.199533972,1,1
9.200765318,0,1
9.200934120,0,0
9.202165976,1,0
9.202335096,1,1
9.203566638,0,1
9.203735862,0,0
9.204967344,1,0
9.205136654,1,1
9.206367956,0,1
9.206536618,0,0
9.207768612,1,0
9.207937728,1,1
9.209169274,0,1
9.209338492,0,0
9.210569982,1,0
9.210739334,1,1
9.211970594,0,1
9.212139300,0,0
9.213371250,1,0
9.213540458,1,1
9.214771912,0,1
9.214941090,0,0
9.216172618,1,0
9.216341900,1,1
9.217573230,0,1
9.217741982,0,0
9.218973888,1,0
9.219143024,1,1
9.220374550,0,1
9.220543656,0,0
9.221775256,1,0
9.221944580,1,1
9.223175868,0,1
9.223344612,0,0
9.224576524,1,0
9.224745654,1,1
9.225977186,0,1
9.226146336,0,0
9.227377894,1,0
9.227547262,1,1
9.228778506,0,1
9.228947176,0,0
9.230179162,1,0
9.230348270,1,1
9.231579824,0,1
9.231749100,0,0
9.232980530,1,0
9.233149876,1,1
9.234381142,0,1
9.234549858,0,0
9.235781800,1,0
9.235950900,1,1
9.237182462,0,1
9.237351582,0,0
9.238583168,1,0
9.238752508,1,1
9.239983780,0,1
9.240152472,0,0
9.241384436,1,0
9.241553582,1,1
9.242785098,0,1
9.242954346,0,0
9.244185806,1,0
9.244355040,1,1
9.245586418,0,1
9.245755104,0,0
9.246987074,1,0
9.247156146,1,1
9.248387736,0,1
9.248556878,0,0
9.249788442,1,0
9.249957670,1,1
9.251189054,0,1
9.251357836,0,0
9.252589712,1,0
9.252758744,1,1
9.253990374,0,1
9.254159710,0,0
9.255391080,1,0
9.255560352,1,1
9.256791692,0,1
9.256960550,0,0
9.258192350,1,0
9.258361508,1,1
9.259593010,0,1
9.259762124,0,0
9.260993718,1,0
9.261163000,1,1
9.262394330,0,1
9.262563232,0,0
9.263794986,1,0
9.263963990,1,1
9.265195648,0,1
9.265364888,0,0
9.266596356,1,0
9.266765680,1,1
9.267996968,0,1
9.268165762,0,0
9.269397624,1,0
9.269566754,1,1
9.270798286,0,1
9.270967520,0,0
9.272198992,1,0
9.272368278,1,1
9.273599604,0,1
9.273768276,0,0
9.275000262,1,0
9.275169320,1,1
9.276400924,0,1
9.276570200,0,0
9.277801630,1,0
9.277970976,1,1
9.279202242,0,1
9.279370958,0,0
9.280602898,1,0
9.280772050,1,1
9.282003560,0,1
9.282172732,0,0
9.283404268,1,0
9.283573608,1,1
9.284804880,0,1
9.284973640,0,0
9.286205536,1,0
9.286374682,1,1
9.287606198,0,1
9.287775364,0,0
9.289006904,1,0
9.289176090,1,1
9.290407516,0,1
9.290576254,0,0
9.291808174,1,0
9.291977262,1,1
9.293208836,0,1
9.293378044,0,0
9.294609542,1,0
9.294778970,1,1
9.296010154,0,1
9.296178886,0,0
9.297410810,1,0
9.297579778,1,1
9.298811472,0,1
9.298980610,0,0
9.300212180,1,0
9.300381584,1,1
9.301612792,0,1
9.301781416,0,0
9.303013448,1,0
9.303182526,1,1
9.304414110,0,1
9.304583290,0,0
9.305814816,1,0
9.305984100,1,1
9.307215428,0,1
9.307384248,0,0
9.308616086,1,0
9.308785156,1,1
9.310016748,0,1
9.310186054,0,0
9.311417454,1,0
9.311586698,1,1
9.312818066,0,1
9.312986812,0,0
9.314218722,1,0
9.314387854,1,1
9.315619384,0,1
9.315788586,0,0
9.317020092,1,0
9.317189378,1,1
9.318420704,0,1
9.318589544,0,0
9.319821360,1,0
9.319990536,1,1
9.321222022,0,1
9.321391218,0,0
9.322622728,1,0
9.322791944,1,1
9.324023340,0,1
9.324191974,0,0
9.325423998,1,0
9.325593068,1,1
9.326824660,0,1
9.326993898,0,0
9.328225366,1,0
9.328394558,1,1
9.329625978,0,1
9.329794740,0,0
9.331026634,1,0
9.331195582,1,1
9.332427296,0,1
9.332596514,0,0
9.333828004,1,0
9.333997190,1,1
9.335228616,0,1
9.335397504,0,0
9.336629272,1,0
9.336798380,1,1
9.338029934,0,1
9.338199078,0,0
9.339430640,1,0
9.339599870,1,1
9.340831252,0,1
9.340999986,0,0
9.342231910,1,0
9.342401028,1,1
9.343632572,0,1
9.343801826,0,0
9.345033278,1,0
9.345202436,1,1
9.346433890,0,1
9.346602750,0,0
9.347834548,1,0
9.348003710,1,1
9.349235210,0,1
9.349404390,0,0
9.350635916,1,0
9.350805116,1,1
9.352036528,0,1
9.352205282,0,0
9.353437184,1,0
9.353606240,1,1
9.354837846,0,1
9.355007004,0,0
9.356238554,1,0
9.356407848,1,1
9.357639164,0,1
9.357807912,0,0
9.359039822,1,0
9.359208954,1,1
9.360440484,0,1
9.360609752,0,0
9.361841190,1,0
9.362010478,1,1
9.363241802,0,1
9.363410594,0,0
9.364642458,1,0
9.364811636,1,1
9.366043122,0,1
9.366212400,0,0
9.367443828,1,0
9.367613044,1,1
9.368844440,0,1
9.369013158,0,0
9.370245096,1,0
9.370414234,1,1
9.371645758,0,1
9.371814932,0,0
9.373046466,1,0
9.373215724,1,1
9.374447078,0,1
9.374615840,0,0
9.375847734,1,0
9.376016882,1,1
9.377248396,0,1
9.377417614,0,0
9.378649102,1,0
9.378818406,1,1
9.380049714,0,1
9.380218454,0,0
9.381450372,1,0
9.381619480,1,1
9.382851034,0,1
9.383020294,0,0
9.384251740,1,0
9.384420970,1,1
9.385652352,0,1
9.385821136,0,0
9.387053008,1,0
9.387222128,1,1
9.388453670,0,1
9.388622810,0,0
9.389854378,1,0
9.390023652,1,1
9.391254990,0,1
9.391423684,0,0
9.392655646,1,0
9.392824726,1,1
9.394056308,0,1
9.394225490,0,0
9.395457014,1,0
9.395626216,1,1
9.396857626,0,1
9.397026380,0,0
9.398258284,1,0
9.398427290,1,1
9.399658946,0,1
9.399828222,0,0
9.401059652,1,0
9.401228948,1,1
9.402460264,0,1
9.402628930,0,0
9.403860920,1,0
9.404030054,1,1
9.405261582,0,1
9.405430786,0,0
9.406662290,1,0
9.406831512,1,1
9.408062902,0,1
9.408231610,0,0
9.409463558,1,0
9.409632652,1,1
9.410864220,0,1
9.411033334,0,0
9.412264926,1,0
9.412434194,1,1
9.413665538,0,1
9.413834174,0,0
9.415066196,1,0
9.415235418,1,1
9.416466858,0,1
9.416636148,0,0
9.417867564,1,0
9.418036874,1,1
9.419268176,0,1
9.419436940,0,0
9.420668832,1,0
9.420837982,1,1
9.422069494,0,1
9.422238714,0,0
9.423470202,1,0
9.423639306,1,1
9.424870814,0,1
9.425039620,0,0
9.426271470,1,0
9.426440662,1,1
9.427672132,0,1
9.427841344,0,0
9.429072838,1,0
9.429242070,1,1
9.430473450,0,1
9.430642186,0,0
9.431874108,1,0
9.432043194,1,1
9.433274770,0,1
9.433444026,0,0
9.434675476,1,0
9.434844634,1,1
9.436076088,0,1
9.436244916,0,0
9.437476744,1,0
9.437645876,1,1
9.438877406,0,1
9.439046640,0,0
9.440278114,1,0
9.440447432,1,1
9.441678726,0,1
9.441847548,0,0
9.443079382,1,0
9.443248440,1,1
9.444480044,0,1
9.444649272,0,0
9.445880750,1,0
9.446049914,1,1
9.447281362,0,1
9.447450162,0,0
9.448682020,1,0
9.448851054,1,1
9.450082682,0,1
9.450251836,0,0
9.451483388,1,0
9.451652678,1,1
9.452884000,0,1
9.453052710,0,0
9.454284656,1,0
9.454453686,1,1
9.455685318,0,1
9.455854568,0,0
9.457086026,1,0
9.457255210,1,1
9.458486638,0,1
9.458655392,0,0
9.459887294,1,0
9.460056516,1,1
9.461287956,0,1
9.461457132,0,0
9.462688662,1,0
9.462857842,1,1
9.464089274,0,1
9.464258040,0,0
9.465489932,1,0
9.465658914,1,1
9.466890594,0,1
9.467059680,0,0
9.468291300,1,0
9.468460606,1,1
9.469691912,0,1
9.469860638,0,0
9.471092568,1,0
9.471261762,1,1
9.472493232,0,1
9.472662494,0,0
9.473893938,1,0
9.474063170,1,1
9.475294550,0,1
9.475463252,0,0
9.476695206,1,0
9.476864294,1,1
9.478095868,0,1
9.478265176,0,0
9.479496576,1,0
9.479665852,1,1
9.480897188,0,1
9.481066082,0,0
9.482297844,1,0
9.482466842,1,1
9.483698506,0,1
9.483867690,0,0
9.485099212,1,0
9.485268532,1,1
9.486499824,0,1
9.486668564,0,0
9.487900482,1,0
9.488069606,1,1
9.489301142,0,1
9.489470288,0,0
9.490701850,1,0
9.490871098,1,1
9.492102462,0,1
9.492271246,0,0
9.493503118,1,0
9.493672288,1,1
9.494903780,0,1
9.495072902,0,0
9.496304488,1,0
9.496473778,1,1
9.497705100,0,1
9.497873860,0,0
9.499105756,1,0
9.499274770,1,1
9.500506418,0,1
9.500675618,0,0
9.501907124,1,0
9.502076310,1,1
9.503307736,0,1
9.503476574,0,0
9.504708394,1,0
9.504877534,1,1
9.506109054,0,1
9.506278298,0,0
9.507509762,1,0
9.507678942,1,1
9.508910374,0,1
9.509079140,0,0
9.510311030,1,0
9.510480098,1,1
9.511711692,0,1
9.511880980,0,0
9.513112400,1,0
9.513281556,1,1
9.514513012,0,1
9.514681620,0,0
9.515913668,1,0
9.516082830,1,1
9.517314330,0,1
9.517483544,0,0
9.518715036,1,0
9.518884270,1,1
9.520115648,0,1
9.520284352,0,0
9.521516306,1,0
9.521685344,1,1
9.522916968,0,1
9.523086142,0,0
9.524317674,1,0
9.524487002,1,1
9.525718286,0,1
9.525886984,0,0
9.527118942,1,0
9.527288142,1,1
9.528519604,0,1
9.528688756,0,0
9.529920312,1,0
9.530089390,1,1
9.531320924,0,1
9.531489664,0,0
9.532721580,1,0
9.532890706,1,1
9.534122242,0,1
9.534291388,0,0
9.535522948,1,0
9.535692314,1,1
9.536923560,0,1
9.537092278,0,0
9.538324218,1,0
9.538493388,1,1
9.539724880,0,1
9.539893952,0,0
9.541125586,1,0
9.541294878,1,1
9.542526198,0,1
9.542694960,0,0
9.543926854,1,0
9.544095952,1,1
9.545327516,0,1
9.545496768,0,0
9.546728224,1,0
9.546897476,1,1
9.548128836,0,1
9.548297592,0,0
10.741350400,0,0
