Time [s],Channel 0,Channel 1
0.000000000,0,0
25.650011762,1,0
25.651508612,1,1
25.651544498,0,1
25.651905788,0,0
25.653593406,1,0
25.653954858,1,1
25.655596678,0,1
25.655957816,0,0
25.657598508,1,0
25.657959784,1,1
25.659600462,0,1
25.659962092,0,0
25.661602394,1,0
25.661963794,1,1
25.663604416,0,1
25.663965402,0,0
25.665606264,1,0
25.665967704,1,1
25.667608200,0,1
25.667969878,0,0
25.669610132,1,0
25.669971580,1,1
25.671612154,0,1
25.671973120,0,0
25.673614002,1,0
25.673975372,1,1
25.675615938,0,1
25.675977548,0,0
25.677617870,1,0
25.677979366,1,1
25.679619890,0,1
25.679980990,0,0
25.681621722,1,0
25.681982908,1,1
25.683623676,0,1
25.683985416,0,0
25.685625608,1,0
25.685987084,1,1
25.687627630,0,1
25.687988726,0,0
25.689629478,1,0
25.689990744,1,1
25.691631414,0,1
25.691993118,0,0
25.693633346,1,0
25.693994838,1,1
25.695635366,0,1
25.695996394,0,0
25.697637216,1,0
25.697998480,1,1
25.699639152,0,1
25.700000788,0,0
25.701641084,1,0
25.702002606,1,1
25.703643104,0,1
25.704004180,0,0
25.705644954,1,0
25.706006150,1,1
25.707646890,0,1
25.708008574,0,0
25.709648822,1,0
25.710010276,1,1
25.711650842,0,1
25.712011766,0,0
25.713652692,1,0
25.714013868,1,1
25.715654628,0,1
25.716016244,0,0
25.717656560,1,0
25.718017994,1,1
25.719658556,0,1
25.720019486,0,0
25.721660430,1,0
25.722021722,1,1
25.723662366,0,1
25.724024078,0,0
25.725664298,1,0
25.726025848,1,1
25.727666318,0,1
25.728027272,0,0
25.729668168,1,0
25.730029508,1,1
25.731670088,0,1
25.732031748,0,0
25.733672036,1,0
25.734033516,1,1
25.735674056,0,1
25.736035008,0,0
25.737675904,1,0
25.738037110,1,1
25.739677842,0,1
25.740039534,0,0
25.741679774,1,0
25.742041186,1,1
25.743681794,0,1
25.744042728,0,0
25.745683642,1,0
25.746044846,1,1
25.747685580,0,1
25.748047404,0,0
25.749687512,1,0
25.750048888,1,1
25.751689532,0,1
25.752050464,0,0
25.753691380,1,0
25.754052632,1,1
25.755693318,0,1
25.756054940,0,0
25.757695234,1,0
25.758056758,1,1
25.759697270,0,1
25.760058250,0,0
25.761699118,1,0
25.762060350,1,1
25.763701056,0,1
25.764062776,0,0
25.765702988,1,0
25.766064478,1,1
25.767705008,0,1
25.768066034,0,0
25.769706816,1,0
25.770068004,1,1
25.771708794,0,1
25.772070512,0,0
25.773710726,1,0
25.774072130,1,1
25.775712746,0,1
25.776073380,0,0
25.777714594,1,0
25.778075806,1,1
25.779716532,0,1
25.780078180,0,0
25.781718422,1,0
25.782079798,1,1
25.783720484,0,1
25.784081540,0,0
25.785722332,1,0
25.786083658,1,1
25.787724270,0,1
25.788085900,0,0
25.789726202,1,0
25.790087668,1,1
25.791728222,0,1
25.792089276,0,0
25.793730070,1,0
25.794091328,1,1
25.795732008,0,1
25.796093686,0,0
25.797733940,1,0
25.798095454,1,1
25.799735960,0,1
25.800097062,0,0
25.801737808,1,0
25.802098964,1,1
25.803739746,0,1
25.804101472,0,0
25.805741678,1,0
25.806103124,1,1
25.807743698,0,1
25.808104848,0,0
25.809745546,1,0
25.810106900,1,1
25.811747484,0,1
25.812109258,0,0
25.813749416,1,0
25.814110826,1,1
25.815751436,0,1
25.816112516,0,0
25.817753284,1,0
25.818114618,1,1
25.819755222,0,1
25.820116926,0,0
25.821757154,1,0
25.822118628,1,1
25.823759174,0,1
25.824120186,0,0
25.825761022,1,0
25.826122154,1,1
25.827762960,0,1
25.828124580,0,0
25.829764850,1,0
25.830126364,1,1
25.831766912,0,1
25.832127856,0,0
25.833768760,1,0
25.834129940,1,1
25.835770698,0,1
25.836132382,0,0
25.837772628,1,0
25.838134150,1,1
25.839774650,0,1
25.840135642,0,0
25.841776456,1,0
25.842137660,1,1
25.843778436,0,1
25.844140168,0,0
25.845780366,1,0
25.846141936,1,1
25.847782388,0,1
25.848143344,0,0
25.849784236,1,0
25.850145480,1,1
25.851786172,0,1
25.852147820,0,0
25.853788104,1,0
25.854149656,1,1
25.855790126,0,1
25.856151214,0,0
25.857791974,1,0
25.858153316,1,1
25.859793910,0,1
25.860155572,0,0
25.861795842,1,0
25.862157392,1,1
25.863797864,0,1
25.864158932,0,0
25.865799712,1,0
25.866160934,1,1
25.867801632,0,1
25.868163358,0,0
25.869803580,1,0
25.870165028,1,1
25.871805602,0,1
25.872166668,0,0
25.873807450,1,0
25.874168720,1,1
25.875809386,0,1
25.876171144,0,0
25.877811318,1,0
25.878172846,1,1
25.879813340,0,1
25.880174304,0,0
25.881815188,1,0
25.882176422,1,1
25.883817124,0,1
25.884178864,0,0
25.885819056,1,0
25.886180550,1,1
25.887821078,0,1
25.888182124,0,0
25.889822926,1,0
25.890184142,1,1
25.891824820,0,1
25.892186516,0,0
25.893826794,1,0
25.894188302,1,1
25.895828814,0,1
25.896189910,0,0
25.897830664,1,0
25.898191878,1,1
25.899832600,0,1
25.900194268,0,0
25.901834532,1,0
25.902195938,1,1
25.903836552,0,1
25.904197546,0,0
25.905838402,1,0
25.906199748,1,1
25.907840338,0,1
25.908201904,0,0
25.909842270,1,0
25.910203724,1,1
25.911844290,0,1
25.912205364,0,0
25.913846140,1,0
25.914207466,1,1
25.915848076,0,1
25.916209690,0,0
25.917849992,1,0
25.918211460,1,1
25.919852028,0,1
25.920213000,0,0
25.921853876,1,0
25.922215118,1,1
25.923855814,0,1
25.924217560,0,0
25.925857746,1,0
25.926219328,1,1
25.927859766,0,1
25.928220786,0,0
25.929861614,1,0
25.930222838,1,1
25.931863552,0,1
25.932225296,0,0
25.933865484,1,0
25.934226964,1,1
25.935867504,0,1
25.936228522,0,0
25.937869352,1,0
25.938230574,1,1
25.939871290,0,1
25.940233082,0,0
25.941873222,1,0
25.942234700,1,1
25.943875242,0,1
25.944236192,0,0
25.945877090,1,0
25.946238294,1,1
25.947879028,0,1
25.948240950,0,0
25.949880960,1,0
25.950242420,1,1
25.951882980,0,1
25.952243978,0,0
25.953884828,1,0
25.954246030,1,1
25.955886766,0,1
25.956248538,0,0
25.957888698,1,0
25.958250288,1,1
25.959890718,0,1
25.960251646,0,0
25.961892566,1,0
25.962254016,1,1
25.963894504,0,1
25.964256240,0,0
25.965896436,1,0
25.966258024,1,1
25.967898456,0,1
25.968259366,0,0
25.969900304,1,0
25.970261534,1,1
25.971902242,0,1
25.972263908,0,0
25.973904174,1,0
25.974265660,1,1
25.975906194,0,1
25.976267218,0,0
25.977908042,1,0
25.978269386,1,1
25.979909980,0,1
25.980271778,0,0
25.981911912,1,0
25.982273396,1,1
25.983913932,0,1
25.984274938,0,0
25.985915780,1,0
25.986276990,1,1
25.987917718,0,1
25.988279414,0,0
25.989919650,1,0
25.990280982,1,1
25.991921670,0,1
25.992282674,0,0
25.993923518,1,0
25.994284642,1,1
25.995925456,0,1
25.996287200,0,0
25.997927388,1,0
25.998288768,1,1
25.999929408,0,1
26.000290342,0,0
26.001931256,1,0
26.002292594,1,1
26.003933194,0,1
26.004294936,0,0
26.005935124,1,0
26.006296638,1,1
26.007937146,0,1
26.008298128,0,0
26.009938994,1,0
26.010300096,1,1
26.011940930,0,1
26.012302654,0,0
26.013942862,1,0
26.014304306,1,1
26.015944884,0,1
26.016305914,0,0
26.017946732,1,0
26.018307966,1,1
26.019948668,0,1
26.020310390,0,0
26.021950600,1,0
26.022312092,1,1
26.023952622,0,1
26.024313584,0,0
26.025954470,1,0
26.026315752,1,1
26.027956406,0,1
26.028318060,0,0
26.029958338,1,0
26.030319812,1,1
26.031960360,0,1
26.032321286,0,0
26.033962208,1,0
26.034323338,1,1
26.035964144,0,1
26.036325778,0,0
26.037966076,1,0
26.038327398,1,1
26.039968098,0,1
26.040329156,0,0
26.041969946,1,0
26.042331058,1,1
26.043971840,0,1
26.044333564,0,0
26.045973814,1,0
26.046335134,1,1
26.047975836,0,1
26.048336874,0,0
26.049977684,1,0
26.050338876,1,1
26.051979620,0,1
26.052341418,0,0
26.053981552,1,0
26.054342852,1,1
26.055983572,0,1
26.056344660,0,0
26.057985422,1,0
26.058346662,1,1
26.059987358,0,1
26.060349220,0,0
26.061989290,1,0
26.062350706,1,1
26.063991310,0,1
26.064352396,0,0
26.065993160,1,0
26.066354364,1,1
26.067995096,0,1
26.068356756,0,0
26.069997028,1,0
26.070358508,1,1
26.071999048,0,1
26.072359982,0,0
26.074000898,1,0
26.074362168,1,1
26.076002834,0,1
26.076364458,0,0
26.078004766,1,0
26.078366244,1,1
26.080006762,0,1
26.080367902,0,0
26.082008634,1,0
26.082369904,1,1
26.084010572,0,1
26.084372260,0,0
26.086012504,1,0
26.086374030,1,1
26.088014524,0,1
26.088375438,0,0
26.090016372,1,0
26.090377538,1,1
26.092018310,0,1
26.092380046,0,0
26.094020242,1,0
26.094381698,1,1
26.096022262,0,1
26.096383222,0,0
26.098024110,1,0
26.098385274,1,1
26.100026048,0,1
26.100387716,0,0
26.102027980,1,0
26.102389400,1,1
26.104030000,0,1
26.104391092,0,0
26.106031806,1,0
26.106392994,1,1
26.108033786,0,1
26.108395502,0,0
26.110035718,1,0
26.110397070,1,1
26.112037738,0,1
26.112398812,0,0
26.114039586,1,0
26.114400864,1,1
26.116041524,0,1
26.116403154,0,0
26.118043456,1,0
26.118404940,1,1
26.120045476,0,1
26.120406548,0,0
26.122047324,1,0
26.122408516,1,1
26.124049262,0,1
26.124410906,0,0
26.126051194,1,0
26.126412642,1,1
26.128053214,0,1
26.128414184,0,0
26.130055062,1,0
26.130416184,1,1
26.132056958,0,1
26.132418610,0,0
26.134058930,1,0
26.134420312,1,1
26.136060952,0,1
26.136421918,0,0
26.138062800,1,0
26.138423970,1,1
26.140064736,0,1
26.140426328,0,0
26.142066668,1,0
26.142428098,1,1
26.144068690,0,1
26.144429672,0,0
26.146070538,1,0
26.146431890,1,1
26.148072474,0,1
26.148434198,0,0
26.150074406,1,0
26.150435966,1,1
26.152076428,0,1
26.152437508,0,0
26.154078276,1,0
26.154439476,1,1
26.156080212,0,1
26.156441934,0,0
26.158082128,1,0
26.158443552,1,1
26.160084164,0,1
26.160445094,0,0
26.162086014,1,0
26.162447146,1,1
26.164087950,0,1
26.164449636,0,0
26.166089882,1,0
26.166451222,1,1
26.168091902,0,1
26.168452962,0,0
26.170093710,1,0
26.170454930,1,1
26.172095688,0,1
26.172457388,0,0
26.174097620,1,0
26.174459124,1,1
26.176099640,0,1
26.176460698,0,0
26.178101490,1,0
26.178462750,1,1
26.180103426,0,1
26.180465092,0,0
26.182105342,1,0
26.182466842,1,1
26.184107378,0,1
26.184468284,0,0
26.186109228,1,0
26.186470536,1,1
26.188111164,0,1
26.188472810,0,0
26.190113096,1,0
26.190474662,1,1
26.192115116,0,1
26.192476204,0,0
26.194116964,1,0
26.194478056,1,1
26.196118902,0,1
26.196480546,0,0
26.198120834,1,0
26.198482382,1,1
26.200122854,0,1
26.200483856,0,0
26.202124702,1,0
26.202485908,1,1
26.204126640,0,1
26.204488332,0,0
26.206128572,1,0
26.206490118,1,1
26.208130592,0,1
26.208491574,0,0
26.210132440,1,0
26.210493626,1,1
26.212134378,0,1
26.212496002,0,0
26.214136310,1,0
26.214497704,1,1
26.216138330,0,1
26.216499394,0,0
26.218140178,1,0
26.218501280,1,1
26.220142116,0,1
26.220503786,0,0
26.222144048,1,0
26.222505488,1,1
26.224146068,0,1
26.224507030,0,0
26.226147916,1,0
26.226509082,1,1
26.228149854,0,1
26.228511572,0,0
26.230151786,1,0
26.230513274,1,1
26.232153806,0,1
26.232515016,0,0
26.234155654,1,0
26.234516868,1,1
26.236157592,0,1
26.236519326,0,0
26.238159524,1,0
26.238520944,1,1
26.240161544,0,1
26.240522484,0,0
26.242163392,1,0
26.242524604,1,1
26.244165330,0,1
26.244526962,0,0
26.246167260,1,0
26.246528814,1,1
26.248169282,0,1
26.248530270,0,0
26.250171130,1,0
26.250532390,1,1
26.252173068,0,1
26.252534748,0,0
26.254175000,1,0
26.254536450,1,1
26.256176994,0,1
26.256537940,0,0
26.258178868,1,0
26.258540176,1,1
26.260180806,0,1
26.260542482,0,0
26.262182736,1,0
26.262544184,1,1
26.264184758,0,1
26.264545792,0,0
26.266186606,1,0
26.266548044,1,1
26.268188542,0,1
26.268550202,0,0
26.270190474,1,0
26.270551970,1,1
26.272192496,0,1
26.272553512,0,0
26.274194344,1,0
26.274555714,1,1
26.276196280,0,1
26.276557896,0,0
26.278198212,1,0
26.278559690,1,1
26.280200232,0,1
26.280561330,0,0
26.282202082,1,0
26.282563300,1,1
26.284204018,0,1
26.284565724,0,0
26.286205950,1,0
26.286567308,1,1
26.288207970,0,1
26.288569034,0,0
26.290209820,1,0
26.290571018,1,1
26.292211756,0,1
26.292573392,0,0
26.294213646,1,0
26.294575094,1,1
26.296215708,0,1
26.296576636,0,0
26.298217556,1,0
26.298578870,1,1
26.300219494,0,1
26.300581262,0,0
26.302221426,1,0
26.302582880,1,1
26.304223446,0,1
26.304584422,0,0
26.306225254,1,0
26.306586474,1,1
26.308227232,0,1
26.308588964,0,0
26.310229164,1,0
26.310590600,1,1
26.312231184,0,1
26.312592208,0,0
26.314233032,1,0
26.314594260,1,1
26.316234970,0,1
26.316596634,0,0
26.318236902,1,0
26.318598386,1,1
26.320238922,0,1
26.320599994,0,0
26.322240770,1,0
26.322602196,1,1
26.324242708,0,1
26.324604502,0,0
26.326244640,1,0
26.326606172,1,1
26.328246660,0,1
26.328607530,0,0
26.330248508,1,0
26.330609782,1,1
26.332250446,0,1
26.332612088,0,0
26.334252378,1,0
26.334613790,1,1
26.336254398,0,1
26.336615316,0,0
26.338256246,1,0
26.338617450,1,1
26.340258184,0,1
26.340619958,0,0
26.342260116,1,0
26.342621576,1,1
26.344262136,0,1
26.344623234,0,0
26.346263984,1,0
26.346625236,1,1
26.348265922,0,1
26.348627660,0,0
26.350267854,1,0
26.350629362,1,1
26.352269874,0,1
26.352630904,0,0
26.354271722,1,0
26.354632956,1,1
26.356273660,0,1
26.356635380,0,0
26.358275592,1,0
26.358637082,1,1
26.360277612,0,1
26.360638690,0,0
26.362279460,1,0
26.362640608,1,1
26.364281398,0,1
26.364643116,0,0
26.366283328,1,0
26.366644668,1,1
26.368285350,0,1
26.368646426,0,0
26.370287198,1,0
26.370648278,1,1
26.372289136,0,1
26.372650834,0,0
26.374291066,1,0
26.374652486,1,1
26.376293062,0,1
26.376654012,0,0
26.378294936,1,0
26.378656196,1,1
26.380296872,0,1
26.380658570,0,0
26.382298804,1,0
26.382660322,1,1
26.384300826,0,1
26.384661814,0,0
26.386302674,1,0
26.386663932,1,1
26.388304570,0,1
26.388666240,0,0
26.390306542,1,0
26.390667908,1,1
26.392308564,0,1
26.392669600,0,0
26.394310412,1,0
26.394671718,1,1
26.396312348,0,1
26.396674026,0,0
26.398314280,1,0
26.398675694,1,1
26.400316300,0,1
26.400677252,0,0
26.402318150,1,0
26.402679388,1,1
26.404320086,0,1
26.404681662,0,0
26.406322018,1,0
26.406683430,1,1
26.408324038,0,1
26.408685172,0,0
26.410325888,1,0
26.410687090,1,1
26.412327824,0,1
26.412689530,0,0
26.414329756,1,0
26.414691082,1,1
26.416331776,0,1
26.416692790,0,0
26.418333624,1,0
26.418694842,1,1
26.420335562,0,1
26.420697184,0,0
26.422337494,1,0
26.422698936,1,1
26.424339514,0,1
26.424700576,0,0
26.426341362,1,0
26.426702628,1,1
26.428343300,0,1
26.428704986,0,0
26.430345232,1,0
26.430706604,1,1
26.432347252,0,1
26.432708162,0,0
26.434349100,1,0
26.434710414,1,1
26.436351038,0,1
26.436712772,0,0
26.438352970,1,0
26.438714590,1,1
26.440354990,0,1
26.440716082,0,0
26.442356838,1,0
26.442718084,1,1
26.444358776,0,1
26.444720508,0,0
26.446360708,1,0
26.446722126,1,1
26.448362728,0,1
26.448723818,0,0
26.450364576,1,0
26.450725786,1,1
26.452366514,0,1
26.452728294,0,0
26.454368446,1,0
26.454729796,1,1
26.456370466,0,1
26.456731602,0,0
26.458372314,1,0
26.458733572,1,1
26.460374252,0,1
26.460735962,0,0
26.462376184,1,0
26.462737632,1,1
26.464378204,0,1
26.464739272,0,0
26.466380052,1,0
26.466741324,1,1
26.468381990,0,1
26.468743666,0,0
26.470383920,1,0
26.470745450,1,1
26.472385942,0,1
26.472747108,0,0
26.474387790,1,0
26.474749110,1,1
26.476389726,0,1
26.476751584,0,0
26.478391658,1,0
26.478753036,1,1
26.480393680,0,1
26.480754728,0,0
26.482395528,1,0
26.482756896,1,1
26.484397464,0,1
26.484759204,0,0
26.486399396,1,0
26.486760872,1,1
26.488401418,0,1
26.488762430,0,0
26.490403266,1,0
26.490764564,1,1
26.492405202,0,1
26.492766840,0,0
26.494407134,1,0
26.494768608,1,1
26.496409154,0,1
26.496770098,0,0
26.498411004,1,0
26.498772350,1,1
26.500412940,0,1
26.500774658,0,0
26.502414872,1,0
26.502776276,1,1
26.504416892,0,1
26.504777968,0,0
26.506418742,1,0
26.506780020,1,1
26.508420678,0,1
26.508782244,0,0
26.510422610,1,0
26.510784114,1,1
26.512424630,0,1
26.512785604,0,0
26.514426480,1,0
26.514787722,1,1
26.516428416,0,1
26.516790230,0,0
26.518430348,1,0
26.518791782,1,1
26.520432368,0,1
26.520793340,0,0
26.522434216,1,0
26.522795442,1,1
26.524436154,0,1
26.524797900,0,0
26.526438086,1,0
26.526799568,1,1
26.528440082,0,1
26.528801210,0,0
26.530441954,1,0
26.530803178,1,1
26.532443892,0,1
26.532805602,0,0
26.534445824,1,0
26.534807238,1,1
26.536447844,0,1
26.536808844,0,0
26.538449692,1,0
26.538810964,1,1
26.540451630,0,1
26.540813354,0,0
26.542453562,1,0
26.542815022,1,1
26.544455582,0,1
26.544816514,0,0
26.546457430,1,0
26.546818682,1,1
26.548459368,0,1
26.548820990,0,0
26.550461300,1,0
26.550822758,1,1
26.552463320,0,1
26.552824366,0,0
26.554465168,1,0
26.554826352,1,1
26.556467106,0,1
26.556828842,0,0
26.558469038,1,0
26.558830478,1,1
26.560471058,0,1
26.560832170,0,0
26.562472906,1,0
26.562834204,1,1
26.564474844,0,1
26.564836596,0,0
26.566476776,1,0
26.566838264,1,1
26.568478796,0,1
26.568839904,0,0
26.570480644,1,0
26.570841924,1,1
26.572482582,0,1
26.572844182,0,0
26.574484514,1,0
26.574846050,1,1
26.576486534,0,1
26.576847408,0,0
26.578488382,1,0
26.578849460,1,1
26.580490318,0,1
26.580851966,0,0
26.582492250,1,0
26.582853668,1,1
26.584494272,0,1
26.584855276,0,0
26.586496120,1,0
26.586857328,1,1
26.588498056,0,1
26.588859836,0,0
26.590499988,1,0
26.590861504,1,1
26.592502010,0,1
26.592863062,0,0
26.594503858,1,0
26.594865164,1,1
26.596505794,0,1
26.596867422,0,0
26.598507684,1,0
26.598869174,1,1
26.600509746,0,1
26.600870732,0,0
26.602511596,1,0
26.602872784,1,1
26.604513532,0,1
26.604875142,0,0
26.606515464,1,0
26.606877026,1,1
26.608517484,0,1
26.608878450,0,0
26.610519334,1,0
26.610880570,1,1
26.612521270,0,1
26.612882878,0,0
26.614523202,1,0
26.614884696,1,1
26.616525222,0,1
26.616886236,0,0
26.618527072,1,0
26.618888238,1,1
26.620529008,0,1
26.620890714,0,0
26.622530940,1,0
26.622892332,1,1
26.624532960,0,1
26.624893972,0,0
26.626534808,1,0
26.626896024,1,1
26.628536746,0,1
26.628898498,0,0
26.630538678,1,0
26.630900150,1,1
26.632540698,0,1
26.632901642,0,0
26.634542546,1,0
26.634903810,1,1
26.636544484,0,1
26.636906234,0,0
26.638546416,1,0
26.638907870,1,1
26.640548436,0,1
26.640909428,0,0
26.642550284,1,0
26.642911480,1,1
26.644552222,0,1
26.644913954,0,0
26.646554154,1,0
26.646915522,1,1
26.648556174,0,1
26.648917214,0,0
27.754496000,0,0
