Time [s],Channel 0,Channel 1
0.000000000,0,0
34.366645700,1,0
34.367280754,1,1
34.368229498,0,1
34.368509016,0,0
34.369961794,1,0
34.370241332,1,1
34.371693512,0,1
34.371973236,0,0
34.373424924,1,0
34.373703934,1,1
34.375156908,0,1
34.375436188,0,0
34.376888622,1,0
34.377168122,1,1
34.378620206,0,1
34.378899926,0,0
34.380351734,1,0
34.380630808,1,1
34.382083610,0,1
34.382362978,0,0
34.383815140,1,0
34.384094660,1,1
34.385546574,0,1
34.385826266,0,0
34.387278486,1,0
34.387557548,1,1
34.389009996,0,1
34.389289386,0,0
34.390741726,1,0
34.391021150,1,1
34.392473626,0,1
34.392753256,0,0
34.394205390,1,0
34.394484354,1,1
34.395937158,0,1
34.396216658,0,0
34.397669086,1,0
34.397948740,1,1
34.399400796,0,1
34.399680346,0,0
34.401132316,1,0
34.401411378,1,1
34.402863760,0,1
34.403143148,0,0
34.404595688,1,0
34.404875230,1,1
34.406327306,0,1
34.406606886,0,0
34.408058978,1,0
34.408338000,1,1
34.409790720,0,1
34.410070172,0,0
34.411522292,1,0
34.411801770,1,1
34.413253950,0,1
34.413533626,0,0
34.414985830,1,0
34.415264908,1,1
34.416717548,0,1
34.416996962,0,0
34.418449210,1,0
34.418728760,1,1
34.420181536,0,1
34.420461166,0,0
34.421913298,1,0
34.422192448,1,1
34.423644708,0,1
34.423924168,0,0
34.425376688,1,0
34.425656184,1,1
34.427108406,0,1
34.427387972,0,0
34.428840034,1,0
34.429119220,1,1
34.430571520,0,1
34.430850992,0,0
34.432303390,1,0
34.432582874,1,1
34.434034924,0,1
34.434314528,0,0
34.435766404,1,0
34.436045560,1,1
34.437498272,0,1
34.437777648,0,0
34.439229792,1,0
34.439509330,1,1
34.440961526,0,1
34.441241184,0,0
34.442693464,1,0
34.442972550,1,1
34.444425182,0,1
34.444704588,0,0
34.446156944,1,0
34.446436470,1,1
34.447888862,0,1
34.448168608,0,0
34.449620616,1,0
34.449899640,1,1
34.451352092,0,1
34.451631528,0,0
34.453083530,1,0
34.453362944,1,1
34.454815464,0,1
34.455095148,0,0
34.456547128,1,0
34.456826180,1,1
34.458278754,0,1
34.458558152,0,0
34.460010492,1,0
34.460290034,1,1
34.461742068,0,1
34.462021738,0,0
34.463473772,1,0
34.463752854,1,1
34.465205640,0,1
34.465485024,0,0
34.466937352,1,0
34.467216824,1,1
34.468669020,0,1
34.468948712,0,0
34.470401366,1,0
34.470680460,1,1
34.472133084,0,1
34.472412564,0,0
34.473864480,1,0
34.474144046,1,1
34.475596464,0,1
34.475876018,0,0
34.477328226,1,0
34.477607334,1,1
34.479059810,0,1
34.479339254,0,0
34.480791290,1,0
34.481070786,1,1
34.482523166,0,1
34.482802708,0,0
34.484254746,1,0
34.484533824,1,1
34.485986180,0,1
34.486265594,0,0
34.487718042,1,0
34.487997594,1,1
34.489449568,0,1
34.489729132,0,0
34.491181348,1,0
34.491460414,1,1
34.492913248,0,1
34.493192650,0,0
34.494644962,1,0
34.494924416,1,1
34.496376870,0,1
34.496656470,0,0
34.498108924,1,0
34.498387954,1,1
34.499840642,0,1
34.500120074,0,0
34.501572146,1,0
34.501851674,1,1
34.503303874,0,1
34.503583660,0,0
34.505035852,1,0
34.505314842,1,1
34.506767470,0,1
34.507046932,0,0
34.508499074,1,0
34.508778546,1,1
34.510230850,0,1
34.510510434,0,0
34.511962522,1,0
34.512241666,1,1
34.513694206,0,1
34.513973638,0,0
34.515426076,1,0
34.515705570,1,1
34.517157794,0,1
34.517437374,0,0
34.518889558,1,0
34.519168722,1,1
34.520621642,0,1
34.520901094,0,0
34.522353354,1,0
34.522633060,1,1
34.524085022,0,1
34.524364522,0,0
34.525817042,1,0
34.526096062,1,1
34.527548760,0,1
34.527828118,0,0
34.529280332,1,0
34.529559850,1,1
34.531011742,0,1
34.531291454,0,0
34.532743678,1,0
34.533022736,1,1
34.534475212,0,1
34.534754708,0,0
34.536206642,1,0
34.536486056,1,1
34.537938510,0,1
34.538218110,0,0
34.539670056,1,0
34.539949026,1,1
34.541401690,0,1
34.541681198,0,0
34.543133560,1,0
34.543413080,1,1
34.544865280,0,1
34.545144850,0,0
34.546597216,1,0
34.546876282,1,1
34.548329500,0,1
34.548608854,0,0
34.550061214,1,0
34.550340820,1,1
34.551792648,0,1
34.552072390,0,0
34.553524294,1,0
34.553803356,1,1
34.555256244,0,1
34.555535728,0,0
34.556987840,1,0
34.557267276,1,1
34.558719500,0,1
34.558999064,0,0
34.560451322,1,0
34.560730446,1,1
34.562182856,0,1
34.562462268,0,0
34.563914468,1,0
34.564193982,1,1
34.565646270,0,1
34.565925954,0,0
34.567378032,1,0
34.567657052,1,1
34.569109692,0,1
34.569389090,0,0
34.570841746,1,0
34.571121322,1,1
34.572573464,0,1
34.572853094,0,0
34.574305126,1,0
34.574584326,1,1
34.576037110,0,1
34.576316630,0,0
34.577768822,1,0
34.578048380,1,1
34.579500408,0,1
34.579780034,0,0
34.581231862,1,0
34.581510998,1,1
34.582963722,0,1
34.583243120,0,0
34.584695250,1,0
34.584974718,1,1
34.586426660,0,1
34.586706374,0,0
34.588158572,1,0
34.588437606,1,1
34.589889998,0,1
34.590169510,0,0
34.591621520,1,0
34.591900942,1,1
34.593353362,0,1
34.593633114,0,0
34.595085124,1,0
34.595364146,1,1
34.596816968,0,1
34.597096316,0,0
34.598549280,1,0
34.598828732,1,1
34.600280998,0,1
34.600560586,0,0
34.602012476,1,0
34.602291618,1,1
34.603744070,0,1
34.604023456,0,0
34.605476016,1,0
34.605755538,1,1
34.607207616,0,1
34.607487276,0,0
34.608939320,1,0
34.609218308,1,1
34.610671098,0,1
34.610950614,0,0
34.612402626,1,0
34.612682162,1,1
34.614134244,0,1
34.614413900,0,0
34.615866090,1,0
34.616145332,1,1
34.617597808,0,1
34.617877302,0,0
34.619329462,1,0
34.619609036,1,1
34.621061522,0,1
34.621341156,0,0
34.622793284,1,0
34.623072272,1,1
34.624524968,0,1
34.624804442,0,0
34.626256948,1,0
34.626536442,1,1
34.627988666,0,1
34.628268346,0,0
34.629720302,1,0
34.629999412,1,1
34.631451712,0,1
34.631731184,0,0
34.633183534,1,0
34.633463116,1,1
34.634915068,0,1
34.635194770,0,0
34.636646514,1,0
34.636925602,1,1
34.638378382,0,1
34.638657840,0,0
34.640109802,1,0
34.640389406,1,1
34.641841328,0,1
34.642121060,0,0
34.643573258,1,0
34.643852342,1,1
34.645304976,0,1
34.645584462,0,0
34.647036712,1,0
34.647316344,1,1
34.648768998,0,1
34.649048600,0,0
34.650500768,1,0
34.650779832,1,1
34.652232202,0,1
34.652511602,0,0
34.653963798,1,0
34.654243284,1,1
34.655695742,0,1
34.655975256,0,0
34.657427328,1,0
34.657706422,1,1
34.659159006,0,1
34.659438392,0,0
34.660890776,1,0
34.661170426,1,1
34.662622318,0,1
34.662901930,0,0
34.664353998,1,0
34.664633112,1,1
34.666085790,0,1
34.666365216,0,0
34.667817504,1,0
34.668097014,1,1
34.669549222,0,1
34.669828820,0,0
34.671281326,1,0
34.671560384,1,1
34.673013044,0,1
34.673292422,0,0
34.674744638,1,0
34.675024188,1,1
34.676476624,0,1
34.676756360,0,0
34.678208386,1,0
34.678487442,1,1
34.679939978,0,1
34.680219412,0,0
34.681671382,1,0
34.681950894,1,1
34.683403226,0,1
34.683682832,0,0
34.685134804,1,0
34.685413864,1,1
34.686866214,0,1
34.687145702,0,0
34.688598076,1,0
34.688877584,1,1
34.690329536,0,1
34.690609240,0,0
34.692061216,1,0
34.692340354,1,1
34.693793116,0,1
34.694072576,0,0
34.695524888,1,0
34.695804458,1,1
34.697256606,0,1
34.697536312,0,0
34.698988926,1,0
34.699267944,1,1
34.700720644,0,1
34.701000066,0,0
34.702452124,1,0
34.702731664,1,1
34.704183724,0,1
34.704463452,0,0
34.705915696,1,0
34.706194684,1,1
34.707647296,0,1
34.707926656,0,0
34.709378958,1,0
34.709658404,1,1
34.711110734,0,1
34.711390342,0,0
34.712842280,1,0
34.713121258,1,1
34.714573874,0,1
34.714853196,0,0
34.716305652,1,0
34.716585310,1,1
34.718037370,0,1
34.718317082,0,0
34.719769116,1,0
34.720048364,1,1
34.721501176,0,1
34.721780568,0,0
34.723232888,1,0
34.723512450,1,1
34.724964564,0,1
34.725244222,0,0
34.726696594,1,0
34.726975654,1,1
34.728428312,0,1
34.728707708,0,0
34.730159900,1,0
34.730439390,1,1
34.731891308,0,1
34.732170962,0,0
34.733623180,1,0
34.733902128,1,1
34.735354714,0,1
34.735634048,0,0
34.737086110,1,0
34.737365580,1,1
34.738817978,0,1
34.739097502,0,0
34.740549448,1,0
34.740828534,1,1
34.742280908,0,1
34.742560438,0,0
34.744012778,1,0
34.744292388,1,1
34.745744496,0,1
34.746024126,0,0
34.747476284,1,0
34.747755274,1,1
34.749208602,0,1
34.749487978,0,0
34.750940314,1,0
34.751219928,1,1
34.752671732,0,1
34.752951382,0,0
34.754403370,1,0
34.754682498,1,1
34.756135320,0,1
34.756414668,0,0
34.757866858,1,0
34.758146400,1,1
34.759598534,0,1
34.759878122,0,0
34.761330356,1,0
34.761609488,1,1
34.763061864,0,1
34.763341292,0,0
34.764793494,1,0
34.765073140,1,1
34.766525278,0,1
34.766805028,0,0
34.768257042,1,0
34.768536026,1,1
34.769988768,0,1
34.770268148,0,0
34.771720822,1,0
34.772000280,1,1
34.773452540,0,1
34.773732218,0,0
34.775184218,1,0
34.775463316,1,1
34.776916202,0,1
34.777195738,0,0
34.778647916,1,0
34.778927570,1,1
34.780379500,0,1
34.780659274,0,0
34.782110954,1,0
34.782389940,1,1
34.783842814,0,1
34.784122228,0,0
34.785574342,1,0
34.785853844,1,1
34.787305752,0,1
34.787595806,0,0
34.789037664,1,0
34.789316530,1,1
34.790769090,0,1
34.791048502,0,0
34.792500612,1,0
34.792780184,1,1
34.794232454,0,1
34.794512104,0,0
34.795964218,1,0
34.796243220,1,1
34.797696060,0,1
34.797975392,0,0
34.799428372,1,0
34.799707874,1,1
34.801160090,0,1
34.801439728,0,0
34.802891562,1,0
34.803170560,1,1
34.804623162,0,1
34.804902532,0,0
34.806355108,1,0
34.806634614,1,1
34.808086710,0,1
34.808366468,0,0
34.809818414,1,0
34.810097500,1,1
34.811550190,0,1
34.811829588,0,0
34.813281718,1,0
34.813561154,1,1
34.815013336,0,1
34.815293058,0,0
34.816745182,1,0
34.817024290,1,1
34.818476900,0,1
34.818756344,0,0
34.820208554,1,0
34.820488176,1,1
34.821940614,0,1
34.822220230,0,0
34.823672376,1,0
34.823951464,1,1
34.825404070,0,1
34.825683484,0,0
34.827136048,1,0
34.827415516,1,1
34.828867766,0,1
34.829147420,0,0
34.830599396,1,0
34.830878520,1,1
34.832330804,0,1
34.832610374,0,0
34.834062626,1,0
34.834342106,1,1
34.835794160,0,1
34.836073910,0,0
34.837525640,1,0
34.837804742,1,1
34.839257508,0,1
34.839536914,0,0
34.840988928,1,0
34.841268446,1,1
34.842720446,0,1
34.843000168,0,0
34.844452374,1,0
34.844731332,1,1
34.846184092,0,1
34.846463570,0,0
34.847915806,1,0
34.848195252,1,1
34.849648090,0,1
34.849927708,0,0
34.851379836,1,0
34.851659022,1,1
34.853111270,0,1
34.853390710,0,0
34.854842866,1,0
34.855122392,1,1
34.856574818,0,1
34.856854380,0,0
34.858306412,1,0
34.858585412,1,1
34.860038090,0,1
34.860317450,0,0
34.861769860,1,0
34.862049332,1,1
34.863501410,0,1
34.863781154,0,0
34.865233090,1,0
34.865512186,1,1
34.866964882,0,1
34.867244474,0,0
34.868696596,1,0
34.868976156,1,1
34.870428314,0,1
34.870707944,0,0
34.872160418,1,0
34.872439492,1,1
34.873892136,0,1
34.874171464,0,0
34.875623732,1,0
34.875903346,1,1
34.877355716,0,1
34.877635350,0,0
34.879087478,1,0
34.879366632,1,1
34.880819070,0,1
34.881098486,0,0
34.882550476,1,0
34.882829968,1,1
34.884282318,0,1
34.884561974,0,0
34.886013898,1,0
34.886292922,1,1
34.887745306,0,1
34.888024776,0,0
34.889477160,1,0
34.889756658,1,1
34.891208628,0,1
34.891488230,0,0
34.892940208,1,0
34.893219262,1,1
34.894672092,0,1
34.894951566,0,0
34.896403804,1,0
34.896683398,1,1
34.898135556,0,1
34.898415304,0,0
34.899867902,1,0
34.900147002,1,1
34.901599620,0,1
34.901879056,0,0
34.903331048,1,0
34.903610588,1,1
34.905062642,0,1
34.905342244,0,0
34.906794638,1,0
34.907073826,1,1
34.908526180,0,1
34.908805514,0,0
34.910257850,1,0
34.910537478,1,1
34.911989626,0,1
34.912269250,0,0
34.913721222,1,0
34.914000366,1,1
34.915452866,0,1
34.915732186,0,0
34.917184654,1,0
34.917464218,1,1
34.918916372,0,1
34.919196006,0,0
34.920648134,1,0
34.920927156,1,1
34.922380194,0,1
34.922659526,0,0
34.924111906,1,0
34.924391408,1,1
34.925843506,0,1
34.926123264,0,0
34.927575536,1,0
34.927854512,1,1
34.929307254,0,1
34.929586700,0,0
34.931038842,1,0
34.931318298,1,1
34.932770250,0,1
34.933050036,0,0
34.934502138,1,0
34.934781268,1,1
34.936233672,0,1
34.936513240,0,0
34.937965060,1,0
34.938244638,1,1
34.939696928,0,1
34.939976576,0,0
34.941428440,1,0
34.941707458,1,1
34.943159966,0,1
34.943439296,0,0
34.944891846,1,0
34.945171378,1,1
34.946623564,0,1
34.946903116,0,0
34.948355368,1,0
34.948634398,1,1
34.950087636,0,1
34.950367170,0,0
34.951819348,1,0
34.952098918,1,1
34.953550766,0,1
34.953830372,0,0
34.955282436,1,0
34.955561538,1,1
34.957014380,0,1
34.957293860,0,0
34.958745918,1,0
34.959025458,1,1
34.960477610,0,1
34.960757246,0,0
34.962209422,1,0
34.962488544,1,1
34.963940974,0,1
34.964220316,0,0
34.965672602,1,0
34.965952132,1,1
34.967404388,0,1
34.967684136,0,0
34.969136150,1,0
34.969415168,1,1
34.970867860,0,1
34.971147256,0,0
34.972599914,1,0
34.972879622,1,1
34.974331632,0,1
34.974611210,0,0
34.976063310,1,0
34.976342358,1,1
34.977795294,0,1
34.978074812,0,0
34.979527008,1,0
34.979806494,1,1
34.981258592,0,1
34.981538350,0,0
34.982990046,1,0
34.983269132,1,1
34.984721906,0,1
34.985001502,0,0
34.986453426,1,0
34.986733102,1,1
34.988184836,0,1
34.988464440,0,0
34.989916748,1,0
34.990195722,1,1
34.991648182,0,1
34.991927492,0,0
34.993379704,1,0
34.993659242,1,1
34.995111546,0,1
34.995391180,0,0
34.996843308,1,0
34.997122328,1,1
34.998575152,0,1
34.998854498,0,0
35.000307464,1,0
35.000587064,1,1
35.002039182,0,1
35.002318720,0,0
35.003770662,1,0
35.004049802,1,1
35.005502254,0,1
35.005781772,0,0
35.007234200,1,0
35.007513720,1,1
35.008965800,0,1
35.009245508,0,0
35.010697504,1,0
35.010976542,1,1
35.012429282,0,1
35.012708578,0,0
35.014160810,1,0
35.014440344,1,1
35.015892428,0,1
35.016172048,0,0
35.017624274,1,0
35.017903432,1,1
35.019355992,0,1
35.019635402,0,0
35.021087646,1,0
35.021367134,1,1
35.022819706,0,1
35.023099422,0,0
35.024551468,1,0
35.024830504,1,1
35.026283160,0,1
35.026562676,0,0
35.028015140,1,0
35.028294674,1,1
35.029746858,0,1
35.030026612,0,0
35.031478486,1,0
35.031757594,1,1
35.033209880,0,1
35.033489416,0,0
35.034941750,1,0
35.035221248,1,1
35.036673286,0,1
35.036952952,0,0
35.038404740,1,0
35.038683734,1,1
35.040136608,0,1
35.040416022,0,0
35.041868028,1,0
35.042147504,1,1
35.043599538,0,1
35.043879242,0,0
35.045331458,1,0
35.045610474,1,1
35.047063176,0,1
35.047342696,0,0
35.048794914,1,0
35.049074444,1,1
35.050527240,0,1
35.050806832,0,0
35.052259002,1,0
35.052538130,1,1
35.053990462,0,1
35.054269786,0,0
35.055722066,1,0
35.056001518,1,1
35.057454016,0,1
35.057733722,0,0
35.059185654,1,0
35.059464754,1,1
35.060917356,0,1
35.061196776,0,0
35.062649126,1,0
35.062928724,1,1
35.064380628,0,1
35.064660262,0,0
35.066112264,1,0
35.066391210,1,1
35.067844058,0,1
35.068123448,0,0
35.069575770,1,0
35.069855348,1,1
35.071307422,0,1
35.071587118,0,0
35.073039526,1,0
35.073318634,1,1
35.074771244,0,1
35.075050688,0,0
35.076502932,1,0
35.076782486,1,1
35.078234916,0,1
35.078514542,0,0
35.079966678,1,0
35.080245774,1,1
35.081698262,0,1
35.081977678,0,0
35.083429666,1,0
35.083709160,1,1
35.085161492,0,1
35.085441132,0,0
35.086893072,1,0
35.087172114,1,1
35.088624490,0,1
35.088903968,0,0
35.090356352,1,0
35.090635850,1,1
35.092087778,0,1
35.092367504,0,0
35.093819340,1,0
35.094098536,1,1
35.095551218,0,1
35.095830708,0,0
35.097282930,1,0
35.097562506,1,1
35.099014672,0,1
35.099294294,0,0
35.100747002,1,0
35.101025994,1,1
35.102478720,0,1
35.102758248,0,0
35.104210148,1,0
35.104489646,1,1
35.105941750,0,1
35.106221384,0,0
35.107673728,1,0
35.107952866,1,1
35.109405272,0,1
35.109684638,0,0
35.111136942,1,0
35.111416470,1,1
35.112868718,0,1
35.113148324,0,0
35.114600314,1,0
35.114879406,1,1
35.116331958,0,1
35.116611444,0,0
35.118063744,1,0
35.118343210,1,1
35.119795462,0,1
35.120075180,0,0
35.121527224,1,0
35.121806214,1,1
35.123259284,0,1
35.123538718,0,0
35.124990996,1,0
35.125270600,1,1
35.126722598,0,1
35.127002204,0,0
35.128454628,1,0
35.128733636,1,1
35.130186346,0,1
35.130465892,0,0
35.131917932,1,0
35.132197374,1,1
35.133649326,0,1
35.133928994,0,0
35.135381230,1,0
35.135660260,1,1
35.137112764,0,1
35.137392148,0,0
35.138844168,1,0
35.139123764,1,1
35.140576036,0,1
35.140855568,0,0
35.142307548,1,0
35.142586650,1,1
35.144039074,0,1
35.144318420,0,0
35.145770954,1,0
35.146050454,1,1
35.147502672,0,1
35.147782224,0,0
35.149234468,1,0
35.149513590,1,1
35.150966786,0,1
35.151246228,0,0
35.152698498,1,0
35.152978192,1,1
35.154429932,0,1
35.154709564,0,0
35.156161578,1,0
35.156440680,1,1
35.157893520,0,1
35.158172850,0,0
35.159625116,1,0
35.159904732,1,1
35.161356776,0,1
35.161636438,0,0
35.163088596,1,0
35.163367670,1,1
35.164820132,0,1
35.165099640,0,0
35.166551744,1,0
35.166831190,1,1
35.168283544,0,1
35.168563128,0,0
35.170015300,1,0
35.170294360,1,1
35.171746966,0,1
35.172026530,0,0
35.173479022,1,0
35.173758612,1,1
35.175210738,0,1
35.175490384,0,0
35.176942394,1,0
35.177221500,1,1
35.178674378,0,1
35.178953788,0,0
35.180406090,1,0
35.180685670,1,1
35.182137674,0,1
35.182417258,0,0
35.183869112,1,0
35.184148290,1,1
35.185600954,0,1
35.185880294,0,0
35.187332484,1,0
35.187611892,1,1
35.189063902,0,1
35.189343430,0,0
35.190795814,1,0
35.191075030,1,1
35.192527282,0,1
35.192806634,0,0
35.194258794,1,0
35.194538282,1,1
35.195990638,0,1
35.196270170,0,0
35.197722400,1,0
35.198001570,1,1
35.199454242,0,1
35.199733740,0,0
35.201186556,1,0
35.201465972,1,1
35.202918274,0,1
35.203198028,0,0
35.204649752,1,0
35.204928742,1,1
35.206381344,0,1
35.206660764,0,0
35.208113290,1,0
35.208392730,1,1
35.209844892,0,1
35.210124500,0,0
35.211576596,1,0
35.211855600,1,1
35.213308372,0,1
35.213587854,0,0
35.215039902,1,0
35.215319452,1,1
35.216771520,0,1
35.217051240,0,0
35.218503364,1,0
35.218782340,1,1
35.220235082,0,1
35.220514510,0,0
35.221966736,1,0
35.222246126,1,1
35.223698796,0,1
35.223978446,0,0
35.225430558,1,0
35.225709562,1,1
35.227162252,0,1
35.227441734,0,0
35.228894230,1,0
35.229173732,1,1
35.230625948,0,1
35.230905586,0,0
36.949196800,0,0
