Time [s],Channel 0,Channel 1
0.000000000,0,0
10.968912630,1,0
10.969461488,1,1
10.970914076,0,1
10.971573206,0,0
10.972916006,1,0
10.973575148,1,1
10.974917942,0,1
10.975577222,0,0
10.976919914,1,0
10.977579366,1,1
10.978921808,0,1
10.979581072,0,0
10.980923740,1,0
10.981582848,1,1
10.982925676,0,1
10.983585006,0,0
10.984927648,1,0
10.985587032,1,1
10.986929542,0,1
10.987588772,0,0
10.988931472,1,0
10.989590716,1,1
10.990933408,0,1
10.991592640,0,0
10.992935372,1,0
10.993594732,1,1
10.994937276,0,1
10.995596490,0,0
10.996939206,1,0
10.997598416,1,1
10.998941142,0,1
10.999600422,0,0
11.000943114,1,0
11.001602600,1,1
11.002945008,0,1
11.003604306,0,0
11.004946940,1,0
11.005606082,1,1
11.006948876,0,1
11.007608040,0,0
11.008950848,1,0
11.009610184,1,1
11.010952742,0,1
11.011611890,0,0
11.012954672,1,0
11.013613866,1,1
11.014956608,0,1
11.015615874,0,0
11.016958582,1,0
11.017617884,1,1
11.018960476,0,1
11.019619590,0,0
11.020962406,1,0
11.021621566,1,1
11.022964342,0,1
11.023623724,0,0
11.024966314,1,0
11.025625668,1,1
11.026968208,0,1
11.027627424,0,0
11.028970140,1,0
11.029629284,1,1
11.030972076,0,1
11.031631358,0,0
11.032974048,1,0
11.033633334,1,1
11.034975942,0,1
11.035635092,0,0
11.036977872,1,0
11.037637018,1,1
11.038979810,0,1
11.039639142,0,0
11.040981772,1,0
11.041641168,1,1
11.042983676,0,1
11.043642824,0,0
11.044985606,1,0
11.045644718,1,1
11.046987542,0,1
11.047646808,0,0
11.048989514,1,0
11.049648944,1,1
11.050991410,0,1
11.051650608,0,0
11.052993314,1,0
11.053652586,1,1
11.054995276,0,1
11.055654542,0,0
11.056997248,1,0
11.057656686,1,1
11.058999142,0,1
11.059658392,0,0
11.061001072,1,0
11.061660168,1,1
11.063003010,0,1
11.063662376,0,0
11.065004982,1,0
11.065664268,1,1
11.067006876,0,1
11.067666026,0,0
11.069008806,1,0
11.069668002,1,1
11.071010742,0,1
11.071669910,0,0
11.073012714,1,0
11.073672102,1,1
11.075014610,0,1
11.075673810,0,0
11.077016540,1,0
11.077675620,1,1
11.079018476,0,1
11.079677744,0,0
11.081020448,1,0
11.081679686,1,1
11.083022342,0,1
11.083681544,0,0
11.085024272,1,0
11.085683404,1,1
11.087026210,0,1
11.087685394,0,0
11.089028182,1,0
11.089687554,1,1
11.091030076,0,1
11.091689378,0,0
11.093032006,1,0
11.093691186,1,1
11.095033942,0,1
11.095693178,0,0
11.097035914,1,0
11.097695254,1,1
11.099037810,0,1
11.099697028,0,0
11.101039740,1,0
11.101698820,1,1
11.103041676,0,1
11.103700894,0,0
11.105043648,1,0
11.105702978,1,1
11.107045542,0,1
11.107704694,0,0
11.109047472,1,0
11.109706672,1,1
11.111049410,0,1
11.111708544,0,0
11.113051382,1,0
11.113710704,1,1
11.115053276,0,1
11.115712478,0,0
11.117055206,1,0
11.117714254,1,1
11.119057142,0,1
11.119716412,0,0
11.121059114,1,0
11.121718488,1,1
11.123060992,0,1
11.123720262,0,0
11.125062940,1,0
11.125721972,1,1
11.127064876,0,1
11.127724196,0,0
11.129066848,1,0
11.129726138,1,1
11.131068742,0,1
11.131728046,0,0
11.133070674,1,0
11.133729822,1,1
11.135072592,0,1
11.135731828,0,0
11.137074582,1,0
11.137733922,1,1
11.139076476,0,1
11.139735762,0,0
11.141078406,1,0
11.141737538,1,1
11.143080342,0,1
11.143739562,0,0
11.145082314,1,0
11.145741790,1,1
11.147084192,0,1
11.147743346,0,0
11.149086140,1,0
11.149745272,1,1
11.151088076,0,1
11.151747346,0,0
11.153090048,1,0
11.153749372,1,1
11.155091942,0,1
11.155751196,0,0
11.157093874,1,0
11.157753056,1,1
11.159095792,0,1
11.159755180,0,0
11.161097782,1,0
11.161757074,1,1
11.163099676,0,1
11.163758914,0,0
11.165101606,1,0
11.165760756,1,1
11.167103542,0,1
11.167762764,0,0
11.169105514,1,0
11.169764790,1,1
11.171107410,0,1
11.171766614,0,0
11.173109340,1,0
11.173768474,1,1
11.175111276,0,1
11.175770498,0,0
11.177113248,1,0
11.177772640,1,1
11.179115142,0,1
11.179774398,0,0
11.181117074,1,0
11.181776208,1,1
11.183119010,0,1
11.183778280,0,0
11.185120982,1,0
11.185780300,1,1
11.187122876,0,1
11.187782132,0,0
11.189124806,1,0
11.189783990,1,1
11.191126742,0,1
11.191785998,0,0
11.193128716,1,0
11.193788008,1,1
11.195130610,0,1
11.195789848,0,0
11.197132540,1,0
11.197791692,1,1
11.199134476,0,1
11.199793648,0,0
11.201136448,1,0
11.201795874,1,1
11.203138342,0,1
11.203797498,0,0
11.205140274,1,0
11.205799358,1,1
11.207142210,0,1
11.207801516,0,0
11.209144182,1,0
11.209803458,1,1
11.211146076,0,1
11.211805282,0,0
11.213148006,1,0
11.213807192,1,1
11.215149942,0,1
11.215809300,0,0
11.217151916,1,0
11.217811326,1,1
11.219153810,0,1
11.219813150,0,0
11.221155740,1,0
11.221814858,1,1
11.223157660,0,1
11.223816932,0,0
11.225159648,1,0
11.225819026,1,1
11.227161542,0,1
11.227820782,0,0
11.229163474,1,0
11.229822642,1,1
11.231165410,0,1
11.231824584,0,0
11.233167382,1,0
11.233826742,1,1
11.235169276,0,1
11.235828516,0,0
11.237171206,1,0
11.237830344,1,1
11.239173142,0,1
11.239832450,0,0
11.241175116,1,0
11.241834394,1,1
11.243177010,0,1
11.243836300,0,0
11.245178940,1,0
11.245838076,1,1
11.247180876,0,1
11.247847310,0,0
11.249182848,1,0
11.249842176,1,1
11.251184742,0,1
11.251844000,0,0
11.253186674,1,0
11.253845794,1,1
11.255188610,0,1
11.255847818,0,0
11.257190582,1,0
11.257850044,1,1
11.259192460,0,1
11.259851668,0,0
11.261194406,1,0
11.261853644,1,1
11.263196342,0,1
11.263855652,0,0
11.265198316,1,0
11.265857828,1,1
11.267200210,0,1
11.267859368,0,0
11.269202140,1,0
11.269861362,1,1
11.271204076,0,1
11.271863234,0,0
11.273206048,1,0
11.273865412,1,1
11.275207942,0,1
11.275867234,0,0
11.277209874,1,0
11.277868944,1,1
11.279211810,0,1
11.279871018,0,0
11.281213782,1,0
11.281873046,1,1
11.283215676,0,1
11.283874868,0,0
11.285217606,1,0
11.285876678,1,1
11.287219542,0,1
11.287878836,0,0
11.289221514,1,0
11.289880896,1,1
11.291223410,0,1
11.291882536,0,0
11.293225340,1,0
11.293884512,1,1
11.295227276,0,1
11.295886470,0,0
11.297229248,1,0
11.297888612,1,1
11.299231142,0,1
11.299890270,0,0
11.301233074,1,0
11.301892246,1,1
11.303235010,0,1
11.303894320,0,0
11.305236982,1,0
11.305896262,1,1
11.307238876,0,1
11.307898020,0,0
11.309240806,1,0
11.309899946,1,1
11.311242742,0,1
11.311901986,0,0
11.313244714,1,0
11.313903930,1,1
11.315246610,0,1
11.315905754,0,0
11.317248540,1,0
11.317907664,1,1
11.319250476,0,1
11.319909736,0,0
11.321252424,1,0
11.321911714,1,1
11.323254342,0,1
11.323913538,0,0
11.325256274,1,0
11.325915396,1,1
11.327258210,0,1
11.327917404,0,0
11.329260182,1,0
11.329919548,1,1
11.331262076,0,1
11.331921320,0,0
11.333264006,1,0
11.333923180,1,1
11.335265942,0,1
11.335925254,0,0
11.337267916,1,0
11.337927198,1,1
11.339269810,0,1
11.339929038,0,0
11.341271740,1,0
11.341930814,1,1
11.343273676,0,1
11.343932922,0,0
11.345275648,1,0
11.345935064,1,1
11.347277542,0,1
11.347936822,0,0
11.349279474,1,0
11.349938632,1,1
11.351281410,0,1
11.351940704,0,0
11.353283382,1,0
11.353942698,1,1
11.355285276,0,1
11.355944406,0,0
11.357287206,1,0
11.357946214,1,1
11.359289142,0,1
11.359948338,0,0
11.361291116,1,0
11.361950514,1,1
11.363293010,0,1
11.363952256,0,0
11.365294940,1,0
11.365954166,1,1
11.367296876,0,1
11.367956072,0,0
11.369298848,1,0
11.369958298,1,1
11.371300742,0,1
11.371959972,0,0
11.373302674,1,0
11.373961782,1,1
11.375304610,0,1
11.375963856,0,0
11.377306582,1,0
11.377966050,1,1
11.379308476,0,1
11.379967706,0,0
11.381310406,1,0
11.381969682,1,1
11.383312342,0,1
11.383971640,0,0
11.385314316,1,0
11.385973666,1,1
11.387316210,0,1
11.387982566,0,0
11.389318140,1,0
11.389977350,1,1
11.391320076,0,1
11.391979224,0,0
11.393322048,1,0
11.393981450,1,1
11.395323942,0,1
11.395983124,0,0
11.397325874,1,0
11.397984934,1,1
11.399327810,0,1
11.399987008,0,0
11.401329782,1,0
11.401989150,1,1
11.403331676,0,1
11.403990858,0,0
11.405333606,1,0
11.405992716,1,1
11.407335542,0,1
11.407994708,0,0
11.409337516,1,0
11.409996818,1,1
11.411339410,0,1
11.411998640,0,0
11.413341340,1,0
11.414000550,1,1
11.415343276,0,1
11.416002574,0,0
11.417345248,1,0
11.418004518,1,1
11.419347142,0,1
11.420006308,0,0
11.421349074,1,0
11.422008134,1,1
11.423351010,0,1
11.424010242,0,0
11.425352982,1,0
11.426012302,1,1
11.427354876,0,1
11.428014092,0,0
11.429356782,1,0
11.430015868,1,1
11.431358742,0,1
11.432017942,0,0
11.433360716,1,0
11.434020084,1,1
11.435362610,0,1
11.436021876,0,0
11.437364540,1,0
11.438023768,1,1
11.439366476,0,1
11.440025726,0,0
11.441368432,1,0
11.442027752,1,1
11.443370342,0,1
11.444029508,0,0
11.445372274,1,0
11.446031486,1,1
11.447374210,0,1
11.448033392,0,0
11.449376182,1,0
11.450035536,1,1
11.451378076,0,1
11.452037360,0,0
11.453380006,1,0
11.454039136,1,1
11.455381942,0,1
11.456041292,0,0
11.457383914,1,0
11.458043320,1,1
11.459385810,0,1
11.460045192,0,0
11.461387740,1,0
11.462047002,1,1
11.463389676,0,1
11.464048926,0,0
11.465391648,1,0
11.466051102,1,1
11.467393526,0,1
11.468052726,0,0
11.469395474,1,0
11.470054586,1,1
11.471397410,0,1
11.472056660,0,0
11.473399382,1,0
11.474058804,1,1
11.475401276,0,1
11.476060444,0,0
11.477403206,1,0
11.478062420,1,1
11.479405126,0,1
11.480064378,0,0
11.481407114,1,0
11.482066470,1,1
11.483409010,0,1
11.484068378,0,0
11.485410940,1,0
11.486070154,1,1
11.487412876,0,1
11.488072110,0,0
11.489414848,1,0
11.490074304,1,1
11.491416726,0,1
11.492075960,0,0
11.493418674,1,0
11.494077820,1,1
11.495420610,0,1
11.496079812,0,0
11.497422582,1,0
11.498081920,1,1
11.499424476,0,1
11.500083744,0,0
11.501426406,1,0
11.502085404,1,1
11.503428342,0,1
11.504087528,0,0
11.505430314,1,0
11.506089622,1,1
11.507432210,0,1
11.508091528,0,0
11.509434140,1,0
11.510093388,1,1
11.511436076,0,1
11.512095378,0,0
11.513438048,1,0
11.514097488,1,1
11.515439942,0,1
11.516099112,0,0
11.517441872,1,0
11.518101022,1,1
11.519443810,0,1
11.520103096,0,0
11.521445782,1,0
11.522105238,1,1
11.523447676,0,1
11.524106812,0,0
11.525449606,1,0
11.526108756,1,1
11.527451542,0,1
11.528111704,0,0
11.529453498,1,0
11.530112856,1,1
11.531455410,0,1
11.532114680,0,0
11.533457340,1,0
11.534116540,1,1
11.535459276,0,1
11.536118462,0,0
11.537461248,1,0
11.538120556,1,1
11.539463142,0,1
11.540122380,0,0
11.541465072,1,0
11.542124290,1,1
11.543467010,0,1
11.544126246,0,0
11.545468982,1,0
11.546128272,1,1
11.547470876,0,1
11.548130046,0,0
11.549472806,1,0
11.550131956,1,1
11.551474742,0,1
11.552133980,0,0
11.553476714,1,0
11.554136056,1,1
11.555478608,0,1
11.556137764,0,0
11.557480540,1,0
11.558139606,1,1
11.559482476,0,1
11.560141698,0,0
11.561484448,1,0
11.562143840,1,1
11.563486342,0,1
11.564145664,0,0
11.565488256,1,0
11.566147324,1,1
11.567490210,0,1
11.568149430,0,0
11.569492182,1,0
11.570151490,1,1
11.571494076,0,1
11.572153280,0,0
11.573496006,1,0
11.574155058,1,1
11.575497942,0,1
11.576157182,0,0
11.577499890,1,0
11.578159158,1,1
11.579501808,0,1
11.580161064,0,0
11.581503740,1,0
11.582162892,1,1
11.583505676,0,1
11.584164998,0,0
11.585507648,1,0
11.586167142,1,1
11.587509542,0,1
11.588168814,0,0
11.589511472,1,0
11.590170542,1,1
11.591513408,0,1
11.592172748,0,0
11.593515382,1,0
11.594174724,1,1
11.595517276,0,1
11.596176598,0,0
11.597519206,1,0
11.598178408,1,1
11.599521142,0,1
11.600180282,0,0
11.601523114,1,0
11.602182358,1,1
11.603525008,0,1
11.604184216,0,0
11.605526940,1,0
11.606186192,1,1
11.607528876,0,1
11.608188150,0,0
11.609530848,1,0
11.610190142,1,1
11.611532742,0,1
11.612192000,0,0
11.613534672,1,0
11.614193776,1,1
11.615536608,0,1
11.616195932,0,0
11.617538582,1,0
11.618197876,1,1
11.619540476,0,1
11.620199782,0,0
11.621542406,1,0
11.622201560,1,1
11.623544342,0,1
11.624203566,0,0
11.625546314,1,0
11.626205592,1,1
11.627548208,0,1
11.628207416,0,0
11.629550140,1,0
11.630209226,1,1
11.631552076,0,1
11.632211350,0,0
11.633554048,1,0
11.634213444,1,1
11.635555942,0,1
11.636215150,0,0
11.637557872,1,0
11.638217010,1,1
11.639559808,0,1
11.640219134,0,0
11.641561782,1,0
11.642221160,1,1
11.643563676,0,1
11.644222784,0,0
11.645565606,1,0
11.646224644,1,1
11.647567542,0,1
11.648226668,0,0
11.649569514,1,0
11.650228894,1,1
11.651571408,0,1
11.652230718,0,0
11.653573340,1,0
11.654232544,1,1
11.655575276,0,1
11.656234568,0,0
11.657577248,1,0
11.658236594,1,1
11.659579142,0,1
11.660238352,0,0
11.661581072,1,0
11.662240328,1,1
11.663583008,0,1
11.664242234,0,0
11.665584980,1,0
11.666244312,1,1
11.667586876,0,1
11.668246084,0,0
11.669588806,1,0
11.670247862,1,1
11.671590742,0,1
11.672250010,0,0
11.673592714,1,0
11.674252094,1,1
11.675594608,0,1
11.676253918,0,0
11.677596540,1,0
11.678255578,1,1
11.679598476,0,1
11.680257802,0,0
11.681600448,1,0
11.682259878,1,1
11.683602342,0,1
11.684261502,0,0
11.685604272,1,0
11.686263362,1,1
11.687606208,0,1
11.688265386,0,0
11.689608182,1,0
11.690267462,1,1
11.691610076,0,1
11.692269320,0,0
11.693612006,1,0
11.694271012,1,1
11.695613942,0,1
11.696273170,0,0
11.697615914,1,0
11.698275246,1,1
11.699617808,0,1
11.700277070,0,0
11.701619740,1,0
11.702278880,1,1
11.703621676,0,1
11.704280954,0,0
11.705623648,1,0
11.706282980,1,1
11.707625542,0,1
11.708284854,0,0
11.709627472,1,0
11.710286662,1,1
11.711629408,0,1
11.712288620,0,0
11.713631380,1,0
11.714290764,1,1
11.715633276,0,1
11.716292386,0,0
11.717635206,1,0
11.718294296,1,1
11.719637142,0,1
11.720296320,0,0
11.721639114,1,0
11.722298346,1,1
11.723641008,0,1
11.724300170,0,0
11.725642940,1,0
11.726302148,1,1
11.727644876,0,1
11.728304104,0,0
11.729646848,1,0
11.730306130,1,1
11.731648742,0,1
11.732307954,0,0
11.733650672,1,0
11.734309730,1,1
11.735652608,0,1
11.736311938,0,0
11.737654580,1,0
11.738313914,1,1
11.739656476,0,1
11.740315622,0,0
11.741658406,1,0
11.742317448,1,1
11.743660342,0,1
11.744319472,0,0
11.745662314,1,0
11.746321698,1,1
11.747664208,0,1
11.748323322,0,0
11.749666140,1,0
11.750325232,1,1
11.751668074,0,1
11.752327256,0,0
11.753670048,1,0
11.754329332,1,1
11.755671942,0,1
11.756331188,0,0
11.757673872,1,0
11.758333016,1,1
11.759675808,0,1
11.760335122,0,0
11.761677780,1,0
11.762337116,1,1
11.763679658,0,1
11.764338822,0,0
11.765681606,1,0
11.766340798,1,1
11.767683542,0,1
11.768342822,0,0
11.769685514,1,0
11.770344850,1,1
11.771687408,0,1
11.772346606,0,0
11.773689338,1,0
11.774348466,1,1
11.775691258,0,1
11.776350606,0,0
11.777693248,1,0
11.778352482,1,1
11.779695142,0,1
11.780354390,0,0
11.781697072,1,0
11.782356316,1,1
11.783699008,0,1
11.784358274,0,0
11.785700980,1,0
11.786360266,1,1
11.787702876,0,1
11.788362040,0,0
11.789704806,1,0
11.790364034,1,1
11.791706742,0,1
11.792365856,0,0
11.793708714,1,0
11.794368084,1,1
11.795710608,0,1
11.796369906,0,0
11.797712538,1,0
11.798371684,1,1
11.799714476,0,1
11.800373690,0,0
11.801716448,1,0
11.802375716,1,1
11.803718342,0,1
11.804377540,0,0
11.805720272,1,0
11.806379466,1,1
11.807722208,0,1
11.808381474,0,0
11.809724180,1,0
11.810383650,1,1
11.811726074,0,1
11.812385324,0,0
11.813727988,1,0
11.814387134,1,1
11.815729942,0,1
11.816389124,0,0
11.817731914,1,0
11.818391234,1,1
11.819733808,0,1
11.820392974,0,0
11.821735738,1,0
11.822394918,1,1
11.823737674,0,1
11.824396908,0,0
11.825739630,1,0
11.826399018,1,1
11.827741542,0,1
11.828400758,0,0
11.829743472,1,0
11.830402552,1,1
11.831745408,0,1
11.832404576,0,0
11.833747380,1,0
11.834406718,1,1
11.835749274,0,1
11.836408476,0,0
11.837751188,1,0
11.838410336,1,1
11.839753142,0,1
11.840412442,0,0
11.841755114,1,0
11.842414586,1,1
11.843757008,0,1
11.844416342,0,0
11.845758938,1,0
11.846418186,1,1
11.847760874,0,1
11.848420076,0,0
11.849762830,1,0
11.850422220,1,1
11.851764742,0,1
11.852423926,0,0
11.853766672,1,0
11.854425770,1,1
11.855768608,0,1
11.856427976,0,0
11.857770580,1,0
11.858430002,1,1
11.859772474,0,1
11.860431710,0,0
11.861774388,1,0
11.862433552,1,1
11.863776342,0,1
11.864435710,0,0
11.865778314,1,0
11.866437736,1,1
11.867780208,0,1
11.868439444,0,0
11.869782138,1,0
11.870441336,1,1
11.871784074,0,1
11.872443344,0,0
11.873786022,1,0
11.874445370,1,1
11.875787942,0,1
11.876447228,0,0
11.877789872,1,0
11.878449054,1,1
11.879791808,0,1
11.880451160,0,0
11.881793780,1,0
11.882453104,1,1
11.883795674,0,1
11.884454860,0,0
11.885797588,1,0
11.886456704,1,1
11.887799542,0,1
11.888458744,0,0
11.889801514,1,0
11.890460804,1,1
11.891803408,0,1
11.892462594,0,0
11.893805338,1,0
11.894464488,1,1
11.895807274,0,1
11.896466444,0,0
11.897809246,1,0
11.898468520,1,1
11.899811142,0,1
11.900470378,0,0
11.901813072,1,0
11.902472204,1,1
11.903815008,0,1
11.904474162,0,0
11.905816980,1,0
11.906476254,1,1
11.907818874,0,1
11.908478078,0,0
11.909820804,1,0
11.910479988,1,1
11.911822740,0,1
11.912482012,0,0
11.913824714,1,0
11.914484172,1,1
11.915826608,0,1
11.916485796,0,0
11.917828538,1,0
11.918487606,1,1
11.919830474,0,1
11.920489678,0,0
11.921832446,1,0
11.922491706,1,1
11.923834340,0,1
11.924493446,0,0
11.925836272,1,0
11.926495306,1,1
11.927838208,0,1
11.928497512,0,0
11.929840180,1,0
11.930499656,1,1
11.931842074,0,1
11.932501312,0,0
11.933844004,1,0
11.934503140,1,1
11.935845940,0,1
11.936505162,0,0
11.937847912,1,0
11.938507272,1,1
11.939849808,0,1
11.940509014,0,0
11.941851738,1,0
11.942510756,1,1
11.943853674,0,1
11.944512880,0,0
11.945855646,1,0
11.946521398,1,1
11.947857540,0,1
11.948516730,0,0
11.949859470,1,0
11.950518706,1,1
11.951861408,0,1
11.952520614,0,0
11.953863380,1,0
11.954522756,1,1
11.955865274,0,1
11.956524380,0,0
11.957867204,1,0
11.958526324,1,1
11.959869140,0,1
11.960528398,0,0
11.961871112,1,0
11.962530590,1,1
11.963873008,0,1
11.964532248,0,0
11.965874938,1,0
11.966534108,1,1
11.967876874,0,1
11.968536098,0,0
12.871270400,0,0
