Time [s],Channel 0,Channel 1
0.000000000,0,0
17.221170524,1,0
17.221865460,1,1
17.222628446,0,1
17.222991568,0,0
17.224028402,1,0
17.224390452,1,1
17.225429188,0,1
17.225791342,0,0
17.226829970,1,0
17.227192424,1,1
17.228230756,0,1
17.228593098,0,0
17.229631536,1,0
17.229993498,1,1
17.231032324,0,1
17.231394404,0,0
17.232433104,1,0
17.232795486,1,1
17.233833892,0,1
17.234196484,0,0
17.235234672,1,0
17.235597068,1,1
17.236635460,0,1
17.236997566,0,0
17.238036240,1,0
17.238398558,1,1
17.239437028,0,1
17.239799646,0,0
17.240837808,1,0
17.241200230,1,1
17.242238596,0,1
17.242600636,0,0
17.243639376,1,0
17.244001770,1,1
17.245040162,0,1
17.245402776,0,0
17.246440944,1,0
17.246803268,1,1
17.247841730,0,1
17.248203766,0,0
17.249242512,1,0
17.249604848,1,1
17.250643298,0,1
17.251005846,0,0
17.252044080,1,0
17.252406430,1,1
17.253444866,0,1
17.253806928,0,0
17.254845648,1,0
17.255208010,1,1
17.256246434,0,1
17.256608916,0,0
17.257647216,1,0
17.258009500,1,1
17.259048002,0,1
17.259409906,0,0
17.260448784,1,0
17.260811122,1,1
17.261849570,0,1
17.262212096,0,0
17.263250352,1,0
17.263612588,1,1
17.264651138,0,1
17.265013084,0,0
17.266051920,1,0
17.266414202,1,1
17.267452706,0,1
17.267815232,0,0
17.268853488,1,0
17.269215692,1,1
17.270254274,0,1
17.270616188,0,0
17.271655056,1,0
17.272017298,1,1
17.273055842,0,1
17.273418262,0,0
17.274456624,1,0
17.274818846,1,1
17.275857410,0,1
17.276219352,0,0
17.277258190,1,0
17.277620842,1,1
17.278658978,0,1
17.279021424,0,0
17.280059758,1,0
17.280421824,1,1
17.281460546,0,1
17.281822730,0,0
17.282861326,1,0
17.283223814,1,1
17.284262114,0,1
17.284624810,0,0
17.285662894,1,0
17.286024986,1,1
17.287063682,0,1
17.287425476,0,0
17.288464462,1,0
17.288826868,1,1
17.289865248,0,1
17.290227956,0,0
17.291266030,1,0
17.291627998,1,1
17.292666816,0,1
17.293028912,0,0
17.294067598,1,0
17.294429996,1,1
17.295468384,0,1
17.295831086,0,0
17.296869166,1,0
17.297231110,1,1
17.298269952,0,1
17.298632074,0,0
17.299670734,1,0
17.300033158,1,1
17.301071520,0,1
17.301434156,0,0
17.302472302,1,0
17.302834190,1,1
17.303873088,0,1
17.304235196,0,0
17.305273870,1,0
17.305636186,1,1
17.306674656,0,1
17.307037276,0,0
17.308075438,1,0
17.308437860,1,1
17.309476224,0,1
17.309838266,0,0
17.310877006,1,0
17.311239350,1,1
17.312277792,0,1
17.312640438,0,0
17.313678574,1,0
17.314040930,1,1
17.315079360,0,1
17.315441428,0,0
17.316480142,1,0
17.316842512,1,1
17.317880928,0,1
17.318243508,0,0
17.319281710,1,0
17.319643642,1,1
17.320682496,0,1
17.321044582,0,0
17.322083276,1,0
17.322445574,1,1
17.323484064,0,1
17.323846662,0,0
17.324884844,1,0
17.325247246,1,1
17.326285632,0,1
17.326647652,0,0
17.327686412,1,0
17.328048736,1,1
17.329087200,0,1
17.329449824,0,0
17.330487980,1,0
17.330849834,1,1
17.331888768,0,1
17.332249490,0,0
17.333289548,1,0
17.333651706,1,1
17.334690336,0,1
17.335052712,0,0
17.336091116,1,0
17.336453196,1,1
17.337491902,0,1
17.337853694,0,0
17.338892684,1,0
17.339255076,1,1
17.340293470,0,1
17.340656232,0,0
17.341694252,1,0
17.342056208,1,1
17.343095038,0,1
17.343456996,0,0
17.344495820,1,0
17.344858056,1,1
17.345896606,0,1
17.346259212,0,0
17.347297388,1,0
17.347659586,1,1
17.348698174,0,1
17.349060060,0,0
17.350098956,1,0
17.350461242,1,1
17.351499742,0,1
17.351862748,0,0
17.352900524,1,0
17.353262624,1,1
17.354301310,0,1
17.354663096,0,0
17.355702092,1,0
17.356064654,1,1
17.357102878,0,1
17.357465394,0,0
17.358503660,1,0
17.358865694,1,1
17.359904446,0,1
17.360266258,0,0
17.361305226,1,0
17.361667742,1,1
17.362706014,0,1
17.363069032,0,0
17.364106794,1,0
17.364468840,1,1
17.365507582,0,1
17.365869420,0,0
17.366908362,1,0
17.367270888,1,1
17.368309150,0,1
17.368671952,0,0
17.369709930,1,0
17.370072002,1,1
17.371110718,0,1
17.371472432,0,0
17.372511498,1,0
17.372873842,1,1
17.373912286,0,1
17.374274998,0,0
17.375313066,1,0
17.375675464,1,1
17.376713852,0,1
17.377075844,0,0
17.378114634,1,0
17.378476904,1,1
17.379515420,0,1
17.379878060,0,0
17.380916202,1,0
17.381278434,1,1
17.382316988,0,1
17.382678908,0,0
17.383717770,1,0
17.384080048,1,1
17.385118556,0,1
17.385481522,0,0
17.386519338,1,0
17.386881396,1,1
17.387920124,0,1
17.388281870,0,0
17.389320906,1,0
17.389683428,1,1
17.390721692,0,1
17.391084584,0,0
17.392122474,1,0
17.392484484,1,1
17.393523260,0,1
17.393885464,0,0
17.394924042,1,0
17.395286524,1,1
17.396324828,0,1
17.396687680,0,0
17.397725610,1,0
17.398087530,1,1
17.399126396,0,1
17.399488502,0,0
17.400527178,1,0
17.400889560,1,1
17.401927964,0,1
17.402290624,0,0
17.403328746,1,0
17.403691092,1,1
17.404729532,0,1
17.405091564,0,0
17.406130314,1,0
17.406492530,1,1
17.407531100,0,1
17.407893686,0,0
17.408931880,1,0
17.409294154,1,1
17.410332668,0,1
17.410694534,0,0
17.411733448,1,0
17.412095694,1,1
17.413134236,0,1
17.413496698,0,0
17.414535016,1,0
17.414897050,1,1
17.415935804,0,1
17.416297546,0,0
17.417336584,1,0
17.417699072,1,1
17.418737372,0,1
17.419100136,0,0
17.420138152,1,0
17.420500012,1,1
17.421538940,0,1
17.421900642,0,0
17.422939720,1,0
17.423302008,1,1
17.424340506,0,1
17.424703164,0,0
17.425741288,1,0
17.426103224,1,1
17.427142074,0,1
17.427504004,0,0
17.428542856,1,0
17.428905096,1,1
17.429943642,0,1
17.430306168,0,0
17.431344424,1,0
17.431706544,1,1
17.432745210,0,1
17.433107016,0,0
17.434145992,1,0
17.434508124,1,1
17.435546778,0,1
17.435909698,0,0
17.436947560,1,0
17.437309572,1,1
17.438348346,0,1
17.438710636,0,0
17.439749128,1,0
17.440111604,1,1
17.441149914,0,1
17.441512760,0,0
17.442550696,1,0
17.442912634,1,1
17.443951482,0,1
17.444313124,0,0
17.445352264,1,0
17.445714650,1,1
17.446753050,0,1
17.447115806,0,0
17.448153832,1,0
17.448516180,1,1
17.449554618,0,1
17.449916652,0,0
17.450955398,1,0
17.451317712,1,1
17.452356186,0,1
17.452718784,0,0
17.453756966,1,0
17.454119250,1,1
17.455157754,0,1
17.455519724,0,0
17.456558534,1,0
17.456920690,1,1
17.457959322,0,1
17.458321846,0,0
17.459360102,1,0
17.459722312,1,1
17.460760890,0,1
17.461122760,0,0
17.462161670,1,0
17.462524320,1,1
17.463562458,0,1
17.463924974,0,0
17.464963238,1,0
17.465325192,1,1
17.466364024,0,1
17.466725840,0,0
17.467764806,1,0
17.468127322,1,1
17.469165592,0,1
17.469528388,0,0
17.470566374,1,0
17.470928338,1,1
17.471967160,0,1
17.472329294,0,0
17.473367942,1,0
17.473730260,1,1
17.474768728,0,1
17.475131416,0,0
17.476169510,1,0
17.476531882,1,1
17.477570296,0,1
17.477932264,0,0
17.478971078,1,0
17.479333456,1,1
17.480371864,0,1
17.480734494,0,0
17.481772646,1,0
17.482134870,1,1
17.483173432,0,1
17.483535342,0,0
17.484574214,1,0
17.484936402,1,1
17.485975000,0,1
17.486337474,0,0
17.487375782,1,0
17.487737940,1,1
17.488776568,0,1
17.489138412,0,0
17.490177350,1,0
17.490539496,1,1
17.491578136,0,1
17.491940702,0,0
17.492978918,1,0
17.493341002,1,1
17.494379704,0,1
17.494741566,0,0
17.495780484,1,0
17.496143050,1,1
17.497181272,0,1
17.497543782,0,0
17.498582052,1,0
17.498943998,1,1
17.499982840,0,1
17.500344978,0,0
17.501383620,1,0
17.501746038,1,1
17.502784408,0,1
17.503147468,0,0
17.504185188,1,0
17.504547344,1,1
17.505585976,0,1
17.505947816,0,0
17.506986756,1,0
17.507349374,1,1
17.508387542,0,1
17.508750106,0,0
17.509788324,1,0
17.510150406,1,1
17.511189110,0,1
17.511550936,0,0
17.512589892,1,0
17.512952428,1,1
17.513990678,0,1
17.514353584,0,0
17.515391460,1,0
17.515753468,1,1
17.516792246,0,1
17.517154348,0,0
17.518193028,1,0
17.518555408,1,1
17.519593814,0,1
17.519956472,0,0
17.520994596,1,0
17.521356480,1,1
17.522395382,0,1
17.522757428,0,0
17.523796164,1,0
17.524158394,1,1
17.525196950,0,1
17.525559558,0,0
17.526597732,1,0
17.526960026,1,1
17.527998518,0,1
17.528360406,0,0
17.529399300,1,0
17.529761464,1,1
17.530800086,0,1
17.531162670,0,0
17.532200868,1,0
17.532562962,1,1
17.533601654,0,1
17.533963452,0,0
17.535002436,1,0
17.535364626,1,1
17.536403222,0,1
17.536765682,0,0
17.537804002,1,0
17.538166000,1,1
17.539204790,0,1
17.539566472,0,0
17.540605570,1,0
17.540968030,1,1
17.542006358,0,1
17.542368762,0,0
17.543407138,1,0
17.543769112,1,1
17.544807926,0,1
17.545170002,0,0
17.546208706,1,0
17.546571060,1,1
17.547609494,0,1
17.547972216,0,0
17.549010274,1,0
17.549372590,1,1
17.550411060,0,1
17.550773064,0,0
17.551811842,1,0
17.552174122,1,1
17.553212628,0,1
17.553575186,0,0
17.554613410,1,0
17.554975236,1,1
17.556014196,0,1
17.556376134,0,0
17.557414978,1,0
17.557777158,1,1
17.558815764,0,1
17.559178314,0,0
17.560216546,1,0
17.560578598,1,1
17.561617332,0,1
17.561979146,0,0
17.563018114,1,0
17.563380630,1,1
17.564418900,0,1
17.564781786,0,0
17.565819682,1,0
17.566181610,1,1
17.567220468,0,1
17.567582592,0,0
17.568621250,1,0
17.568983650,1,1
17.570022036,0,1
17.570384756,0,0
17.571422818,1,0
17.571785140,1,1
17.572823604,0,1
17.573185612,0,0
17.574224386,1,0
17.574586578,1,1
17.575625172,0,1
17.575987734,0,0
17.577025954,1,0
17.577388202,1,1
17.578426740,0,1
17.578788582,0,0
17.579827522,1,0
17.580189790,1,1
17.581228308,0,1
17.581590880,0,0
17.582629088,1,0
17.582991164,1,1
17.584029876,0,1
17.584391578,0,0
17.585430656,1,0
17.585793102,1,1
17.586831444,0,1
17.587194168,0,0
17.588232224,1,0
17.588594092,1,1
17.589633012,0,1
17.589995074,0,0
17.591033792,1,0
17.591396040,1,1
17.592434580,0,1
17.592797196,0,0
17.593835360,1,0
17.594197662,1,1
17.595236146,0,1
17.595598044,0,0
17.596636928,1,0
17.596999128,1,1
17.598037714,0,1
17.598400292,0,0
17.599438496,1,0
17.599800666,1,1
17.600839282,0,1
17.601201140,0,0
17.602240064,1,0
17.602602290,1,1
17.603640850,0,1
17.604003762,0,0
17.605041632,1,0
17.605403646,1,1
17.606442418,0,1
17.606804144,0,0
17.607843200,1,0
17.608205710,1,1
17.609243986,0,1
17.609606866,0,0
17.610644768,1,0
17.611006742,1,1
17.612045554,0,1
17.612407714,0,0
17.613446336,1,0
17.613808772,1,1
17.614847122,0,1
17.615209928,0,0
17.616247904,1,0
17.616610304,1,1
17.617648690,0,1
17.618010776,0,0
17.619049472,1,0
17.619411834,1,1
17.620450258,0,1
17.620812898,0,0
17.621851038,1,0
17.622213366,1,1
17.623251826,0,1
17.623613838,0,0
17.624652606,1,0
17.625014854,1,1
17.626053394,0,1
17.626415978,0,0
17.627454174,1,0
17.627816360,1,1
17.628854962,0,1
17.629216758,0,0
17.630255742,1,0
17.630618000,1,1
17.631656530,0,1
17.632018990,0,0
17.633057310,1,0
17.633419364,1,1
17.634458098,0,1
17.634819870,0,0
17.635858878,1,0
17.636221438,1,1
17.637259664,0,1
17.637622502,0,0
17.638660446,1,0
17.639022452,1,1
17.640061232,0,1
17.640423408,0,0
17.641462014,1,0
17.641831642,1,1
17.642862800,0,1
17.643225696,0,0
17.644263582,1,0
17.644625572,1,1
17.645664368,0,1
17.646026544,0,0
17.647065150,1,0
17.647427604,1,1
17.648465936,0,1
17.648828760,0,0
17.649866718,1,0
17.650228692,1,1
17.651267504,0,1
17.651629190,0,0
17.652668286,1,0
17.653030674,1,1
17.654069072,0,1
17.654431738,0,0
17.655469854,1,0
17.655832204,1,1
17.656870640,0,1
17.657232678,0,0
17.658271422,1,0
17.658633728,1,1
17.659672208,0,1
17.660034850,0,0
17.661072990,1,0
17.661435158,1,1
17.662473776,0,1
17.662835564,0,0
17.663874558,1,0
17.664237222,1,1
17.665275344,0,1
17.665637896,0,0
17.666676124,1,0
17.667038146,1,1
17.668076912,0,1
17.668438726,0,0
17.669477692,1,0
17.669840194,1,1
17.670878480,0,1
17.671241258,0,0
17.672279260,1,0
17.672641174,1,1
17.673680048,0,1
17.674041688,0,0
17.675080828,1,0
17.675443098,1,1
17.676481616,0,1
17.676844254,0,0
17.677882396,1,0
17.678244720,1,1
17.679283184,0,1
17.679645100,0,0
17.680683964,1,0
17.681046160,1,1
17.682084750,0,1
17.682447316,0,0
17.683485532,1,0
17.683847690,1,1
17.684886318,0,1
17.685248164,0,0
17.686287100,1,0
17.686649304,1,1
17.687687886,0,1
17.688050778,0,0
17.689088668,1,0
17.689450660,1,1
17.690489454,0,1
17.690851292,0,0
17.691890236,1,0
17.692252658,1,1
17.693291022,0,1
17.693653814,0,0
17.694691804,1,0
17.695053824,1,1
17.696092590,0,1
17.696454654,0,0
17.697493372,1,0
17.697855712,1,1
17.698894158,0,1
17.699256868,0,0
17.700294940,1,0
17.700657244,1,1
17.701695726,0,1
17.702057716,0,0
17.703096508,1,0
17.703458774,1,1
17.704497294,0,1
17.704859838,0,0
17.705898076,1,0
17.706260306,1,1
17.707298862,0,1
17.707660778,0,0
17.708699642,1,0
17.709062336,1,1
17.710100430,0,1
17.710462902,0,0
17.711501210,1,0
17.711863368,1,1
17.712901998,0,1
17.713263748,0,0
17.714302778,1,0
17.714665398,1,1
17.715703566,0,1
17.716066104,0,0
17.717104346,1,0
17.717466304,1,1
17.718505134,0,1
17.718866886,0,0
17.719905914,1,0
17.720268410,1,1
17.721306700,0,1
17.721669476,0,0
17.722707482,1,0
17.723069466,1,1
17.724108268,0,1
17.724469964,0,0
17.725509050,1,0
17.725871340,1,1
17.726909836,0,1
17.727272496,0,0
17.728310618,1,0
17.728672962,1,1
17.729711404,0,1
17.730073344,0,0
17.731112186,1,0
17.731474502,1,1
17.732512972,0,1
17.732875508,0,0
17.733913754,1,0
17.734275800,1,1
17.735314540,0,1
17.735676288,0,0
17.736715322,1,0
17.737077464,1,1
17.738116108,0,1
17.738478970,0,0
17.739516890,1,0
17.739878846,1,1
17.740917676,0,1
17.741279450,0,0
17.742318458,1,0
17.742680868,1,1
17.743719244,0,1
17.744082024,0,0
17.745120026,1,0
17.745481948,1,1
17.746520812,0,1
17.746882838,0,0
17.747921592,1,0
17.748283896,1,1
17.749322380,0,1
17.749685052,0,0
17.750723160,1,0
17.751085428,1,1
17.752123948,0,1
17.752485900,0,0
17.753524728,1,0
17.753886984,1,1
17.754925516,0,1
17.755288072,0,0
17.756326296,1,0
17.756688540,1,1
17.757727084,0,1
17.758089012,0,0
17.759127864,1,0
17.759489996,1,1
17.760528650,0,1
17.760891152,0,0
17.761929432,1,0
17.762291618,1,1
17.763330218,0,1
17.763692000,0,0
17.764731000,1,0
17.765093158,1,1
17.766131786,0,1
17.766494722,0,0
17.767532568,1,0
17.767894564,1,1
17.768933354,0,1
17.769295012,0,0
17.770334136,1,0
17.770696578,1,1
17.771734922,0,1
17.772097642,0,0
17.773135704,1,0
17.773498110,1,1
17.774536490,0,1
17.774898582,0,0
17.775937272,1,0
17.776299548,1,1
17.777338058,0,1
17.777700704,0,0
17.778738840,1,0
17.779101172,1,1
17.780139626,0,1
17.780501552,0,0
17.781540408,1,0
17.781902852,1,1
17.782941194,0,1
17.783303884,0,0
17.784341976,1,0
17.784704258,1,1
17.785742762,0,1
17.786104732,0,0
17.787143542,1,0
17.787505872,1,1
17.788544330,0,1
17.788906930,0,0
17.789945110,1,0
17.790307230,1,1
17.791345898,0,1
17.791707702,0,0
17.792746678,1,0
17.793109260,1,1
17.794147466,0,1
17.794509958,0,0
17.795548246,1,0
17.795910308,1,1
17.796949034,0,1
17.797310788,0,0
17.798349814,1,0
17.798712256,1,1
17.799750602,0,1
17.800113412,0,0
17.801151382,1,0
17.801513370,1,1
17.802552168,0,1
17.802914268,0,0
17.803952950,1,0
17.804315326,1,1
17.805353736,0,1
17.805716448,0,0
17.806754518,1,0
17.807116398,1,1
17.808155304,0,1
17.808517296,0,0
17.809556086,1,0
17.809918354,1,1
17.810956872,0,1
17.811319410,0,0
17.812357654,1,0
17.812719694,1,1
17.813758440,0,1
17.814120666,0,0
17.815159222,1,0
17.815521726,1,1
17.816560008,0,1
17.816922882,0,0
17.817960790,1,0
17.818322724,1,1
17.819361576,0,1
17.819723704,0,0
17.820762358,1,0
17.821124762,1,1
17.822163144,0,1
17.822525826,0,0
17.823563926,1,0
17.823926294,1,1
17.824964712,0,1
17.825326766,0,0
17.826365494,1,0
17.826727808,1,1
17.827766280,0,1
17.828128880,0,0
17.829167060,1,0
17.829529356,1,1
17.830567848,0,1
17.830929736,0,0
17.831968628,1,0
17.832330794,1,1
17.833369416,0,1
17.833731950,0,0
17.834770196,1,0
17.835132326,1,1
17.836170984,0,1
17.836532798,0,0
17.837571764,1,0
17.837933998,1,1
17.838972552,0,1
17.839335480,0,0
17.840373332,1,0
17.840735354,1,1
17.841774120,0,1
17.842135828,0,0
17.843174900,1,0
17.843537386,1,1
17.844575686,0,1
17.844938084,0,0
17.845976468,1,0
17.846338500,1,1
17.847377254,0,1
17.847739382,0,0
17.848778036,1,0
17.849140440,1,1
17.850178822,0,1
17.850541596,0,0
17.851579604,1,0
17.851941970,1,1
17.852980390,0,1
17.853342444,0,0
17.854381172,1,0
17.854743502,1,1
17.855781958,0,1
17.856144566,0,0
17.857182740,1,0
17.857544608,1,1
17.858583526,0,1
17.858945506,0,0
17.859984308,1,0
17.860346498,1,1
17.861385094,0,1
17.861747662,0,0
17.862785876,1,0
17.863148128,1,1
17.864186662,0,1
17.864548508,0,0
17.865587444,1,0
17.865949726,1,1
17.866988230,0,1
17.867350732,0,0
17.868389010,1,0
17.868751106,1,1
17.869789798,0,1
17.870151596,0,0
17.871190578,1,0
17.871552804,1,1
17.872591366,0,1
17.872953810,0,0
17.873992146,1,0
17.874354152,1,1
17.875392934,0,1
17.875754624,0,0
17.876793714,1,0
17.877156184,1,1
17.878194502,0,1
17.878557340,0,0
17.879595282,1,0
17.879957256,1,1
17.880996070,0,1
17.881358146,0,0
17.882396850,1,0
17.882759204,1,1
17.883797636,0,1
17.884160360,0,0
17.885198418,1,0
17.885560734,1,1
17.886599204,0,1
17.886961208,0,0
17.887999986,1,0
17.888362266,1,1
17.889400772,0,1
17.889763330,0,0
17.890801554,1,0
17.891163796,1,1
17.892202340,0,1
17.892564270,0,0
17.893603122,1,0
17.893965828,1,1
17.895003908,0,1
17.895366426,0,0
17.896404690,1,0
17.896766810,1,1
17.897805476,0,1
17.898167240,0,0
17.899206258,1,0
17.899568806,1,1
17.900607044,0,1
17.900969962,0,0
17.902007826,1,0
17.902369746,1,1
17.903408612,0,1
17.903770368,0,0
17.904809394,1,0
17.905171860,1,1
17.906210180,0,1
17.906572924,0,0
17.907610960,1,0
17.907972950,1,1
17.909011748,0,1
17.909373856,0,0
17.910412528,1,0
17.910774822,1,1
17.911813316,0,1
17.912175978,0,0
17.913214096,1,0
17.913576446,1,1
17.914614884,0,1
17.914976826,0,0
17.916015664,1,0
17.916378018,1,1
17.917416452,0,1
17.917779058,0,0
17.918817232,1,0
17.919179432,1,1
17.920218018,0,1
17.920579904,0,0
24.018944000,0,0
