Time [s],Channel 0,Channel 1
0.000000000,0,0
28.004466384,1,0
28.004974392,1,1
28.005954756,0,1
28.006200570,0,0
28.007518040,1,0
28.007685956,1,1
28.008909160,0,1
28.009151954,0,0
28.010283324,1,0
28.010452294,1,1
28.011683986,0,1
28.011853184,0,0
28.013084644,1,0
28.013253560,1,1
28.014485304,0,1
28.014655842,0,0
28.015886504,1,0
28.016056684,1,1
28.017286724,0,1
28.017456832,0,0
28.018687054,1,0
28.018857358,1,1
28.020087392,0,1
28.020257922,0,0
28.021487790,1,0
28.021658080,1,1
28.022888194,0,1
28.023058446,0,0
28.024288466,1,0
28.024458838,1,1
28.025688920,0,1
28.025859486,0,0
28.027089802,1,0
28.027259912,1,1
28.028490464,0,1
28.028660726,0,0
28.029891120,1,0
28.030061452,1,1
28.031291782,0,1
28.031462366,0,0
28.032692438,1,0
28.032862592,1,1
28.034093100,0,1
28.034263440,0,0
28.035493756,1,0
28.035664082,1,1
28.036894418,0,1
28.037064914,0,0
28.038295074,1,0
28.038465240,1,1
28.039695736,0,1
28.039865920,0,0
28.041096392,1,0
28.041266762,1,1
28.042497054,0,1
28.042667678,0,0
28.043897710,1,0
28.044067920,1,1
28.045298372,0,1
28.045468734,0,0
28.046699030,1,0
28.046869444,1,1
28.048099690,0,1
28.048270292,0,0
28.049500348,1,0
28.049670600,1,1
28.050901010,0,1
28.051071282,0,0
28.052301666,1,0
28.052471940,1,1
28.053702328,0,1
28.053872838,0,0
28.055102984,1,0
28.055273080,1,1
28.056503646,0,1
28.056673928,0,0
28.057904302,1,0
28.058074688,1,1
28.059304964,0,1
28.059475402,0,0
28.060705620,1,0
28.060875894,1,1
28.062106282,0,1
28.062276526,0,0
28.063506938,1,0
28.063677252,1,1
28.064907600,0,1
28.065077924,0,0
28.066308258,1,0
28.066478376,1,1
28.067708918,0,1
28.067879206,0,0
28.069109576,1,0
28.069279866,1,1
28.070510238,0,1
28.070680696,0,0
28.071910894,1,0
28.072081140,1,1
28.073311556,0,1
28.073481770,0,0
28.074712212,1,0
28.074882412,1,1
28.076112874,0,1
28.076283460,0,0
28.077513530,1,0
28.077683686,1,1
28.078914192,0,1
28.079084502,0,0
28.080314848,1,0
28.080485094,1,1
28.081715510,0,1
28.081886142,0,0
28.083116166,1,0
28.083286384,1,1
28.084516828,0,1
28.084687214,0,0
28.085917486,1,0
28.086087858,1,1
28.087318148,0,1
28.087488772,0,0
28.088718804,1,0
28.088888930,1,1
28.090119466,0,1
28.090289612,0,0
28.091520122,1,0
28.091690472,1,1
28.092920784,0,1
28.093091302,0,0
28.094321440,1,0
28.094491612,1,1
28.095722102,0,1
28.095892426,0,0
28.097122758,1,0
28.097293152,1,1
28.098523420,0,1
28.098694134,0,0
28.099924076,1,0
28.100094176,1,1
28.101324738,0,1
28.101494940,0,0
28.102725394,1,0
28.102895832,1,1
28.104126056,0,1
28.104296614,0,0
28.105526714,1,0
28.105696856,1,1
28.106927374,0,1
28.107097670,0,0
28.108328032,1,0
28.108498396,1,1
28.109728694,0,1
28.109899378,0,0
28.111129350,1,0
28.111299536,1,1
28.112530012,0,1
28.112700300,0,0
28.113930668,1,0
28.114101026,1,1
28.115331330,0,1
28.115501858,0,0
28.116731986,1,0
28.116902100,1,1
28.118132648,0,1
28.118302864,0,0
28.119533304,1,0
28.119703558,1,1
28.120933966,0,1
28.121104472,0,0
28.122334622,1,0
28.122504664,1,1
28.123735284,0,1
28.123905428,0,0
28.125135942,1,0
28.125306322,1,1
28.126536602,0,1
28.126707152,0,0
28.127937260,1,0
28.128107544,1,1
28.129337922,0,1
28.129508226,0,0
28.130738578,1,0
28.130908952,1,1
28.132139240,0,1
28.132309916,0,0
28.133539896,1,0
28.133710076,1,1
28.134940558,0,1
28.135110840,0,0
28.136341214,1,0
28.136511432,1,1
28.137741876,0,1
28.137912464,0,0
28.139142532,1,0
28.139312706,1,1
28.140543194,0,1
28.140713404,0,0
28.141943850,1,0
28.142114112,1,1
28.143344512,0,1
28.143515078,0,0
28.144745170,1,0
28.144915320,1,1
28.146145830,0,1
28.146316200,0,0
28.147546488,1,0
28.147716876,1,1
28.148947150,0,1
28.149117792,0,0
28.150347806,1,0
28.150518034,1,1
28.151748468,0,1
28.151918714,0,0
28.153149124,1,0
28.153319358,1,1
28.154549786,0,1
28.154720472,0,0
28.155950442,1,0
28.156120514,1,1
28.157351104,0,1
28.157521328,0,0
28.158751760,1,0
28.158922122,1,1
28.160152422,0,1
28.160323002,0,0
28.161553078,1,0
28.161723312,1,1
28.162953740,0,1
28.163123876,0,0
28.164354398,1,0
28.164524802,1,1
28.165755058,0,1
28.165925716,0,0
28.167155716,1,0
28.167325926,1,1
28.168556376,0,1
28.168726640,0,0
28.169957034,1,0
28.170127366,1,1
28.171357696,0,1
28.171528246,0,0
28.172758352,1,0
28.172928490,1,1
28.174159014,0,1
28.174329320,0,0
28.175559670,1,0
28.175730046,1,1
28.176960332,0,1
28.177130878,0,0
28.178360988,1,0
28.178531320,1,1
28.179761650,0,1
28.179931884,0,0
28.181162306,1,0
28.181332568,1,1
28.182562968,0,1
28.182733642,0,0
28.183963624,1,0
28.184133800,1,1
28.185364286,0,1
28.185534482,0,0
28.186764944,1,0
28.186935458,1,1
28.188165604,0,1
28.188336172,0,0
28.189566262,1,0
28.189736414,1,1
28.190966924,0,1
28.191137328,0,0
28.192367580,1,0
28.192537888,1,1
28.193768242,0,1
28.193938736,0,0
28.195168898,1,0
28.195339094,1,1
28.196569560,0,1
28.196739810,0,0
28.197970216,1,0
28.198140568,1,1
28.199370878,0,1
28.199541416,0,0
28.200771534,1,0
28.200941808,1,1
28.202172196,0,1
28.202342406,0,0
28.203572852,1,0
28.203743148,1,1
28.204973514,0,1
28.205144046,0,0
28.206374172,1,0
28.206544340,1,1
28.207774832,0,1
28.207945104,0,0
28.209175490,1,0
28.209345812,1,1
28.210576152,0,1
28.210746660,0,0
28.211976808,1,0
28.212146970,1,1
28.213377470,0,1
28.213547734,0,0
28.214778126,1,0
28.214948426,1,1
28.216178788,0,1
28.216349292,0,0
28.217579444,1,0
28.217749700,1,1
28.218980106,0,1
28.219150332,0,0
28.220380762,1,0
28.220551058,1,1
28.221781424,0,1
28.221951972,0,0
28.223182080,1,0
28.223352264,1,1
28.224582742,0,1
28.224753028,0,0
28.225983400,1,0
28.226153538,1,1
28.227384062,0,1
28.227554652,0,0
28.228784718,1,0
28.228954944,1,1
28.230185380,0,1
28.230355660,0,0
28.231586036,1,0
28.231756352,1,1
28.232986698,0,1
28.233157216,0,0
28.234387354,1,0
28.234557458,1,1
28.235788016,0,1
28.235958256,0,0
28.237188672,1,0
28.237359066,1,1
28.238589334,0,1
28.238759896,0,0
28.239989990,1,0
28.240160190,1,1
28.241390652,0,1
28.241560954,0,0
28.242791308,1,0
28.242961596,1,1
28.244191970,0,1
28.244362460,0,0
28.245592626,1,0
28.245762670,1,1
28.246993288,0,1
28.247163584,0,0
28.248393946,1,0
28.248564160,1,1
28.249794608,0,1
28.249965142,0,0
28.251195264,1,0
28.251365550,1,1
28.252595926,0,1
28.252766264,0,0
28.253996582,1,0
28.254166990,1,1
28.255397244,0,1
28.255567822,0,0
28.256797900,1,0
28.256967980,1,1
28.258198562,0,1
28.258368946,0,0
28.259599218,1,0
28.259769588,1,1
28.260999880,0,1
28.261170586,0,0
28.262400536,1,0
28.262570794,1,1
28.263801198,0,1
28.263971310,0,0
28.265201854,1,0
28.265372202,1,1
28.266602516,0,1
28.266773182,0,0
28.268003174,1,0
28.268173426,1,1
28.269403834,0,1
28.269574040,0,0
28.270804492,1,0
28.270974766,1,1
28.272205154,0,1
28.272375664,0,0
28.273605810,1,0
28.273776040,1,1
28.275006472,0,1
28.275176720,0,0
28.276407128,1,0
28.276577446,1,1
28.277807790,0,1
28.277978278,0,0
28.279208446,1,0
28.279378586,1,1
28.280609108,0,1
28.280779234,0,0
28.282009764,1,0
28.282180126,1,1
28.283410426,0,1
28.283580908,0,0
28.284811082,1,0
28.284981200,1,1
28.286211744,0,1
28.286381914,0,0
28.287612402,1,0
28.287782756,1,1
28.289013062,0,1
28.289183588,0,0
28.290413720,1,0
28.290583914,1,1
28.291814382,0,1
28.291984678,0,0
28.293215038,1,0
28.293385320,1,1
28.294615700,0,1
28.294786436,0,0
28.296016356,1,0
28.296186644,1,1
28.297417018,0,1
28.297587276,0,0
28.298817674,1,0
28.298988084,1,1
28.300218336,0,1
28.300388916,0,0
28.301618992,1,0
28.301789126,1,1
28.303019654,0,1
28.303189890,0,0
28.304420310,1,0
28.304590566,1,1
28.305820972,0,1
28.305991596,0,0
28.307221630,1,0
28.307391838,1,1
28.308622290,0,1
28.308792520,0,0
28.310022948,1,0
28.310193296,1,1
28.311423610,0,1
28.311594210,0,0
28.312824266,1,0
28.312994520,1,1
28.314224928,0,1
28.314395200,0,0
28.315625584,1,0
28.315795926,1,1
28.317026246,0,1
28.317196758,0,0
28.318426902,1,0
28.318597000,1,1
28.319827564,0,1
28.319997764,0,0
28.321228220,1,0
28.321398540,1,1
28.322628882,0,1
28.322799522,0,0
28.324029538,1,0
28.324199680,1,1
28.325430200,0,1
28.325600496,0,0
28.326830856,1,0
28.327001220,1,1
28.328231518,0,1
28.328402086,0,0
28.329632176,1,0
28.329802362,1,1
28.331032838,0,1
28.331203010,0,0
28.332433494,1,0
28.332603852,1,1
28.333834156,0,1
28.334004816,0,0
28.335234812,1,0
28.335405008,1,1
28.336635474,0,1
28.336805806,0,0
28.338036130,1,0
28.338206416,1,1
28.339436792,0,1
28.339607296,0,0
28.340837448,1,0
28.341007538,1,1
28.342238110,0,1
28.342408370,0,0
28.343638766,1,0
28.343809080,1,1
28.345039428,0,1
28.345210128,0,0
28.346440084,1,0
28.346610370,1,1
28.347840746,0,1
28.348010984,0,0
28.349241404,1,0
28.349411776,1,1
28.350642064,0,1
28.350812540,0,0
28.352042722,1,0
28.352212850,1,1
28.353443384,0,1
28.353613614,0,0
28.354844040,1,0
28.355014456,1,1
28.356244702,0,1
28.356415222,0,0
28.357645358,1,0
28.357815614,1,1
28.359046020,0,1
28.359216346,0,0
28.360446676,1,0
28.360617020,1,1
28.361847338,0,1
28.362017852,0,0
28.363247994,1,0
28.363418144,1,1
28.364648656,0,1
28.364818908,0,0
28.366049312,1,0
28.366219752,1,1
28.367449974,0,1
28.367620532,0,0
28.368850632,1,0
28.369020774,1,1
28.370251292,0,1
28.370421540,0,0
28.371651950,1,0
28.371822266,1,1
28.373052612,0,1
28.373223096,0,0
28.374453268,1,0
28.374623388,1,1
28.375853930,0,1
28.376024104,0,0
28.377254586,1,0
28.377424796,1,1
28.378655248,0,1
28.378825860,0,0
28.380055904,1,0
28.380226070,1,1
28.381456566,0,1
28.381626900,0,0
28.382857222,1,0
28.383027476,1,1
28.384257884,0,1
28.384428458,0,0
28.385658540,1,0
28.385828784,1,1
28.387059202,0,1
28.387229382,0,0
28.388459858,1,0
28.388630106,1,1
28.389860520,0,1
28.390031104,0,0
28.391261178,1,0
28.391431264,1,1
28.392661840,0,1
28.392832194,0,0
28.394062496,1,0
28.394232870,1,1
28.395463158,0,1
28.395633786,0,0
28.396863814,1,0
28.397033994,1,1
28.398264476,0,1
28.398434626,0,0
28.399665132,1,0
28.399835352,1,1
28.401065794,0,1
28.401236466,0,0
28.402466450,1,0
28.402636674,1,1
28.403867112,0,1
28.404037390,0,0
28.405267768,1,0
28.405438032,1,1
28.406668430,0,1
28.406839080,0,0
28.408069088,1,0
28.408239306,1,1
28.409469748,0,1
28.409640004,0,0
28.410870406,1,0
28.411040596,1,1
28.412271068,0,1
28.412441626,0,0
28.413671724,1,0
28.413841870,1,1
28.415072386,0,1
28.415242550,0,0
28.416473042,1,0
28.416643410,1,1
28.417873704,0,1
28.418044308,0,0
28.419274360,1,0
28.419444632,1,1
28.420675022,0,1
28.420845230,0,0
28.422075678,1,0
28.422246040,1,1
28.423476340,0,1
28.423646872,0,0
28.424876996,1,0
28.425047164,1,1
28.426277658,0,1
28.426447994,0,0
28.427678314,1,0
28.427848720,1,1
28.429078976,0,1
28.429249552,0,0
28.430479634,1,0
28.430649794,1,1
28.431880294,0,1
28.432050608,0,0
28.433280952,1,0
28.433451250,1,1
28.434681614,0,1
28.434852316,0,0
28.436082270,1,0
28.436252358,1,1
28.437482932,0,1
28.437653090,0,0
28.438883588,1,0
28.439053964,1,1
28.440284250,0,1
28.440454730,0,0
28.441684906,1,0
28.441855038,1,1
28.443085568,0,1
28.443255854,0,0
28.444486224,1,0
28.444656562,1,1
28.445886886,0,1
28.446057476,0,0
28.447287542,1,0
28.447457652,1,1
28.448688204,0,1
28.448858484,0,0
28.450088862,1,0
28.450259210,1,1
28.451489522,0,1
28.451660240,0,0
28.452890180,1,0
28.453060282,1,1
28.454290842,0,1
28.454461080,0,0
28.455691498,1,0
28.455861890,1,1
28.457092160,0,1
28.457262604,0,0
28.458492816,1,0
28.458662964,1,1
28.459893478,0,1
28.460063894,0,0
28.461294134,1,0
28.461464570,1,1
28.462694796,0,1
28.462865286,0,0
28.464095452,1,0
28.464265694,1,1
28.465496114,0,1
28.465666408,0,0
28.466896770,1,0
28.467067050,1,1
28.468297432,0,1
28.468467966,0,0
28.469698088,1,0
28.469868258,1,1
28.471098750,0,1
28.471268940,0,0
28.472499408,1,0
28.472669814,1,1
28.473900068,0,1
28.474070580,0,0
28.475300726,1,0
28.475470938,1,1
28.476701388,0,1
28.476871654,0,0
28.478102044,1,0
28.478272346,1,1
28.479502706,0,1
28.479673210,0,0
28.480903362,1,0
28.481073502,1,1
28.482304024,0,1
28.482474334,0,0
28.483704680,1,0
28.483874960,1,1
28.485105342,0,1
28.485275890,0,0
28.486505998,1,0
28.486676182,1,1
28.487906660,0,1
28.488076898,0,0
28.489307316,1,0
28.489477656,1,1
28.490707978,0,1
28.490878454,0,0
28.492108634,1,0
28.492278730,1,1
28.493509296,0,1
28.493679428,0,0
28.494909954,1,0
28.495080336,1,1
28.496310616,0,1
28.496481252,0,0
28.497711272,1,0
28.497881428,1,1
28.499111934,0,1
28.499282176,0,0
28.500512590,1,0
28.500682900,1,1
28.501913252,0,1
28.502083866,0,0
28.503313908,1,0
28.503484108,1,1
28.504714570,0,1
28.504884872,0,0
28.506115226,1,0
28.506285514,1,1
28.507515888,0,1
28.507686496,0,0
28.508916544,1,0
28.509086738,1,1
28.510317206,0,1
28.510487420,0,0
28.511717862,1,0
28.511888146,1,1
28.513118524,0,1
28.513288976,0,0
28.514519182,1,0
28.514689302,1,1
28.515919842,0,1
28.516090184,0,0
28.517320500,1,0
28.517490826,1,1
28.518721162,0,1
28.518891740,0,0
28.520121818,1,0
28.520291900,1,1
28.521522480,0,1
28.521692714,0,0
28.522923136,1,0
28.523093440,1,1
28.524323798,0,1
28.524494354,0,0
28.525724454,1,0
28.525894664,1,1
28.527125116,0,1
28.527295428,0,0
28.528525772,1,0
28.528696004,1,1
28.529926434,0,1
28.530097034,0,0
28.531327090,1,0
28.531497226,1,1
28.532727752,0,1
28.532897958,0,0
28.534128408,1,0
28.534298800,1,1
28.535529070,0,1
28.535699716,0,0
28.536929728,1,0
28.537099908,1,1
28.538330390,0,1
28.538500588,0,0
28.539731046,1,0
28.539901314,1,1
28.541131708,0,1
28.541302346,0,0
28.542532364,1,0
28.542702388,1,1
28.543933026,0,1
28.544103270,0,0
28.545333682,1,0
28.545504044,1,1
28.546734344,0,1
28.546904826,0,0
28.548135000,1,0
28.548305202,1,1
28.549535662,0,1
28.549705950,0,0
28.550936318,1,0
28.551106558,1,1
28.552336980,0,1
28.552507590,0,0
28.553737636,1,0
28.553907882,1,1
28.555138298,0,1
28.555308564,0,0
28.556538954,1,0
28.556709240,1,1
28.557939616,0,1
28.558110320,0,0
28.559340274,1,0
28.559510430,1,1
28.560740936,0,1
28.560911194,0,0
28.562141592,1,0
28.562311970,1,1
28.563542254,0,1
28.563712834,0,0
28.564942910,1,0
28.565112884,1,1
28.566343572,0,1
28.566513808,0,0
28.567744228,1,0
28.567914684,1,1
28.569144890,0,1
28.569315364,0,0
28.570545546,1,0
28.570715758,1,1
28.571946208,0,1
28.572116522,0,0
28.573346864,1,0
28.573517164,1,1
28.574747526,0,1
28.574918128,0,0
28.576148182,1,0
28.576318354,1,1
28.577548844,0,1
28.577719120,0,0
28.578949502,1,0
28.579119928,1,1
28.580350162,0,1
28.580520760,0,0
28.581750820,1,0
28.581920852,1,1
28.583151482,0,1
28.583321682,0,0
28.584552138,1,0
28.584722408,1,1
28.585952800,0,1
28.586123490,0,0
28.587353456,1,0
28.587523532,1,1
28.588754118,0,1
28.588924496,0,0
28.590154774,1,0
28.590325138,1,1
28.591555436,0,1
28.591725920,0,0
28.592956092,1,0
28.593126212,1,1
28.594356754,0,1
28.594527044,0,0
28.595757410,1,0
28.595927620,1,1
28.597158072,0,1
28.597328684,0,0
28.598558730,1,0
28.598728892,1,1
28.599959390,0,1
28.600129608,0,0
28.601360048,1,0
28.601530450,1,1
28.602760710,0,1
28.602931298,0,0
28.604161366,1,0
28.604331524,1,1
28.605562028,0,1
28.605732338,0,0
28.606962684,1,0
28.607133014,1,1
28.608363346,0,1
28.608533846,0,0
28.609764002,1,0
28.609934138,1,1
28.611164664,0,1
28.611334902,0,0
28.612565320,1,0
28.612735694,1,1
28.613965982,0,1
28.614136526,0,0
28.615366638,1,0
28.615536768,1,1
28.616767300,0,1
28.616937650,0,0
28.618167956,1,0
28.618338258,1,1
28.619568618,0,1
28.619739290,0,0
28.620969276,1,0
28.621139382,1,1
28.622369936,0,1
28.622540146,0,0
28.623770594,1,0
28.623940846,1,1
28.625171256,0,1
28.625341770,0,0
28.626571912,1,0
28.626742096,1,1
28.627972574,0,1
28.628142894,0,0
28.629373230,1,0
28.629543620,1,1
28.630773892,0,1
28.630944450,0,0
28.632174548,1,0
28.632344692,1,1
28.633575210,0,1
28.633745458,0,0
28.634975866,1,0
28.635146232,1,1
28.636376528,0,1
28.636547098,0,0
28.637777184,1,0
28.637947306,1,1
28.639177846,0,1
28.639348222,0,0
28.640578502,1,0
28.640748914,1,1
28.641979164,0,1
28.642149694,0,0
28.643379822,1,0
28.643549936,1,1
28.644780484,0,1
28.644950702,0,0
28.646181140,1,0
28.646351428,1,1
28.647581802,0,1
28.647752258,0,0
28.648982458,1,0
28.649152700,1,1
28.650383120,0,1
28.650553382,0,0
28.651783776,1,0
28.651954108,1,1
28.653184438,0,1
28.653354940,0,0
28.654585094,1,0
28.654755232,1,1
28.655985756,0,1
28.656155946,0,0
28.657386412,1,0
28.657556704,1,1
28.658787074,0,1
28.658957702,0,0
28.660187730,1,0
28.660357912,1,1
28.661588392,0,1
28.661758744,0,0
28.662989048,1,0
28.663159468,1,1
28.664389710,0,1
28.664560234,0,0
28.665790368,1,0
28.665960626,1,1
28.667191030,0,1
28.667361240,0,0
28.668591686,1,0
28.668762032,1,1
28.669992348,0,1
28.670162798,0,0
28.671393004,1,0
28.671563106,1,1
28.672793666,0,1
28.672963988,0,0
28.674194322,1,0
28.674364646,1,1
28.675594984,0,1
28.675765628,0,0
28.676995640,1,0
28.677165786,1,1
28.678396302,0,1
28.678566602,0,0
28.679796958,1,0
28.679967394,1,1
28.681197620,0,1
28.681368108,0,0
28.682598276,1,0
28.682768468,1,1
28.683998938,0,1
28.684169232,0,0
28.685399596,1,0
28.685569874,1,1
28.686800256,0,1
28.686970788,0,0
28.688200914,1,0
28.688371082,1,1
28.689601576,0,1
28.689771846,0,0
28.691002232,1,0
28.691172488,1,1
28.692402894,0,1
28.692573352,0,0
28.693803550,1,0
28.693973762,1,1
28.695204212,0,1
28.695374476,0,0
28.696604868,1,0
28.696775252,1,1
28.698005530,0,1
28.698176082,0,0
28.699406186,1,0
28.699576276,1,1
28.700806848,0,1
28.700977156,0,0
28.702207504,1,0
28.702377732,1,1
28.703608166,0,1
28.703785222,0,0
30.448025600,0,0
