Time [s],Channel 0,Channel 1
0.000000000,0,0
16.252141314,1,0
16.253397372,1,1
16.253610552,0,1
16.254073656,0,0
16.255823982,1,0
16.256187028,1,1
16.257825988,0,1
16.258188214,0,0
16.259827888,1,0
16.260190292,1,1
16.261829844,0,1
16.262193094,0,0
16.263831794,1,0
16.264194640,1,1
16.265833800,0,1
16.266196284,0,0
16.267835702,1,0
16.268198420,1,1
16.269837658,0,1
16.270200564,0,0
16.271839608,1,0
16.272202702,1,1
16.273841614,0,1
16.274203920,0,0
16.275843514,1,0
16.276205964,1,1
16.277845470,0,1
16.278208592,0,0
16.279847422,1,0
16.280210138,1,1
16.281849426,0,1
16.282211780,0,0
16.283851328,1,0
16.284213918,1,1
16.285853284,0,1
16.286216152,0,0
16.287855234,1,0
16.288218106,1,1
16.289857240,0,1
16.290219750,0,0
16.291859140,1,0
16.292221888,1,1
16.293861096,0,1
16.294224030,0,0
16.295863048,1,0
16.296225734,1,1
16.297865054,0,1
16.298227302,0,0
16.299866954,1,0
16.300229398,1,1
16.301868910,0,1
16.302231984,0,0
16.303870860,1,0
16.304233578,1,1
16.305872866,0,1
16.306235138,0,0
16.307874768,1,0
16.308237276,1,1
16.309876724,0,1
16.310240010,0,0
16.311878674,1,0
16.312241556,1,1
16.313880680,0,1
16.314243200,0,0
16.315882580,1,0
16.316244920,1,1
16.317884536,0,1
16.318247580,0,0
16.319886488,1,0
16.320249052,1,1
16.321888494,0,1
16.322251160,0,0
16.323890394,1,0
16.324252864,1,1
16.325892350,0,1
16.326255434,0,0
16.327894300,1,0
16.328256996,1,1
16.329896306,0,1
16.330258638,0,0
16.331898206,1,0
16.332260776,1,1
16.333900162,0,1
16.334263510,0,0
16.335902114,1,0
16.336265056,1,1
16.337904120,0,1
16.338266700,0,0
16.339906020,1,0
16.340268388,1,1
16.341907968,0,1
16.342270972,0,0
16.343909926,1,0
16.344272602,1,1
16.345911932,0,1
16.346274136,0,0
16.347913834,1,0
16.348276214,1,1
16.349915790,0,1
16.350278866,0,0
16.351917740,1,0
16.352280428,1,1
16.353919746,0,1
16.354282072,0,0
16.355921646,1,0
16.356284210,1,1
16.357923602,0,1
16.358286520,0,0
16.359925554,1,0
16.360288490,1,1
16.361927560,0,1
16.362290132,0,0
16.363929460,1,0
16.364292270,1,1
16.365931416,0,1
16.366294414,0,0
16.367933366,1,0
16.368296068,1,1
16.369935372,0,1
16.370297602,0,0
16.371937272,1,0
16.372299740,1,1
16.373939228,0,1
16.374302474,0,0
16.375941180,1,0
16.376304020,1,1
16.377943186,0,1
16.378305664,0,0
16.379945086,1,0
16.380307800,1,1
16.381947042,0,1
16.382309986,0,0
16.383948992,1,0
16.384312040,1,1
16.385950998,0,1
16.386313682,0,0
16.387952900,1,0
16.388315238,1,1
16.389954856,0,1
16.390317972,0,0
16.391956806,1,0
16.392319518,1,1
16.393958804,0,1
16.394321160,0,0
16.395960712,1,0
16.396323298,1,1
16.397962668,0,1
16.398325592,0,0
16.399964620,1,0
16.400334470,1,1
16.401966624,0,1
16.402329014,0,0
16.403968526,1,0
16.404331150,1,1
16.405970482,0,1
16.406333386,0,0
16.407972432,1,0
16.408335340,1,1
16.409974438,0,1
16.410336982,0,0
16.411976338,1,0
16.412339120,1,1
16.413978294,0,1
16.414341264,0,0
16.415980246,1,0
16.416342918,1,1
16.417982252,0,1
16.418344502,0,0
16.419984152,1,0
16.420346632,1,1
16.421986108,0,1
16.422349182,0,0
16.423988058,1,0
16.424350728,1,1
16.425990064,0,1
16.426352446,0,0
16.427991966,1,0
16.428354476,1,1
16.429993922,0,1
16.430357210,0,0
16.431995872,1,0
16.432358756,1,1
16.433997878,0,1
16.434360400,0,0
16.435999778,1,0
16.436362536,1,1
16.438001734,0,1
16.438364764,0,0
16.440003684,1,0
16.440366268,1,1
16.442005690,0,1
16.442368352,0,0
16.444007592,1,0
16.444370048,1,1
16.446009548,0,1
16.446372624,0,0
16.448011498,1,0
16.448374312,1,1
16.450013504,0,1
16.450375806,0,0
16.452015404,1,0
16.452377950,1,1
16.454017360,0,1
16.454380686,0,0
16.456019304,1,0
16.456382232,1,1
16.458021318,0,1
16.458383874,0,0
16.460023218,1,0
16.460385520,1,1
16.462025174,0,1
16.462388080,0,0
16.464027124,1,0
16.464389784,1,1
16.466029130,0,1
16.466391318,0,0
16.468031032,1,0
16.468393482,1,1
16.470032988,0,1
16.470396092,0,0
16.472034938,1,0
16.472397662,1,1
16.474036944,0,1
16.474399346,0,0
16.476038844,1,0
16.476401400,1,1
16.478040800,0,1
16.478404136,0,0
16.480042752,1,0
16.480405680,1,1
16.482044756,0,1
16.482407324,0,0
16.484046658,1,0
16.484409462,1,1
16.486048614,0,1
16.486411630,0,0
16.488050564,1,0
16.488413284,1,1
16.490052570,0,1
16.490414868,0,0
16.492054470,1,0
16.492416998,1,1
16.494056426,0,1
16.494419608,0,0
16.496058378,1,0
16.496421154,1,1
16.498060384,0,1
16.498422812,0,0
16.500062284,1,0
16.500424950,1,1
16.502064240,0,1
16.502427252,0,0
16.504066190,1,0
16.504429222,1,1
16.506068196,0,1
16.506430458,0,0
16.508070098,1,0
16.508432428,1,1
16.510072054,0,1
16.510435162,0,0
16.512074004,1,0
16.512436800,1,1
16.514076010,0,1
16.514438402,0,0
16.516077910,1,0
16.516440390,1,1
16.518079850,0,1
16.518443124,0,0
16.520081816,1,0
16.520444670,1,1
16.522083822,0,1
16.522446312,0,0
16.524085724,1,0
16.524448008,1,1
16.526087680,0,1
16.526450652,0,0
16.528089630,1,0
16.528452222,1,1
16.530091636,0,1
16.530453874,0,0
16.532093536,1,0
16.532456020,1,1
16.534095492,0,1
16.534458630,0,0
16.536097444,1,0
16.536460176,1,1
16.538099450,0,1
16.538461818,0,0
16.540101350,1,0
16.540464322,1,1
16.542103298,0,1
16.542466466,0,0
16.544105256,1,0
16.544468012,1,1
16.546107262,0,1
16.546469654,0,0
16.548109164,1,0
16.548471792,1,1
16.550111118,0,1
16.550474068,0,0
16.552113070,1,0
16.552476090,1,1
16.554115076,0,1
16.554477732,0,0
16.556116976,1,0
16.556479436,1,1
16.558118932,0,1
16.558482004,0,0
16.560120882,1,0
16.560483566,1,1
16.562122888,0,1
16.562485210,0,0
16.564124790,1,0
16.564487348,1,1
16.566126746,0,1
16.566490082,0,0
16.568128696,1,0
16.568491628,1,1
16.570130702,0,1
16.570493270,0,0
16.572132602,1,0
16.572495408,1,1
16.574134558,0,1
16.574497552,0,0
16.576136508,1,0
16.576499240,1,1
16.578138506,0,1
16.578500774,0,0
16.580140416,1,0
16.580502902,1,1
16.582142372,0,1
16.582505530,0,0
16.584144322,1,0
16.584507076,1,1
16.586146328,0,1
16.586508718,0,0
16.588148228,1,0
16.588510856,1,1
16.590150184,0,1
16.590513090,0,0
16.592152136,1,0
16.592515044,1,1
16.594154142,0,1
16.594516688,0,0
16.596156042,1,0
16.596518826,1,1
16.598157998,0,1
16.598520968,0,0
16.600159948,1,0
16.600522672,1,1
16.602161954,0,1
16.602524324,0,0
16.604163856,1,0
16.604526294,1,1
16.606165812,0,1
16.606529030,0,0
16.608167762,1,0
16.608530576,1,1
16.610169768,0,1
16.610532218,0,0
16.612171668,1,0
16.612534356,1,1
16.614173624,0,1
16.614536640,0,0
16.616175574,1,0
16.616538628,1,1
16.618177580,0,1
16.618540270,0,0
16.620179482,1,0
16.620541924,1,1
16.622181438,0,1
16.622544534,0,0
16.624183388,1,0
16.624546080,1,1
16.626185394,0,1
16.626547724,0,0
16.628187294,1,0
16.628549860,1,1
16.630189250,0,1
16.630552162,0,0
16.632191202,1,0
16.632554132,1,1
16.634193208,0,1
16.634555776,0,0
16.636195108,1,0
16.636557480,1,1
16.638197064,0,1
16.638560048,0,0
16.640199014,1,0
16.640561744,1,1
16.642201020,0,1
16.642563346,0,0
16.644202920,1,0
16.644565408,1,1
16.646204876,0,1
16.646568060,0,0
16.648206828,1,0
16.648569606,1,1
16.650208834,0,1
16.650571248,0,0
16.652210710,1,0
16.652573386,1,1
16.654212690,0,1
16.654575662,0,0
16.656214640,1,0
16.656577684,1,1
16.658216646,0,1
16.658578868,0,0
16.660218548,1,0
16.660581030,1,1
16.662220504,0,1
16.662583616,0,0
16.664222446,1,0
16.664585160,1,1
16.666224460,0,1
16.666586804,0,0
16.668226360,1,0
16.668588942,1,1
16.670228316,0,1
16.670591676,0,0
16.672230266,1,0
16.672593222,1,1
16.674232272,0,1
16.674594864,0,0
16.676234174,1,0
16.676597002,1,1
16.678236130,0,1
16.678599146,0,0
16.680238080,1,0
16.680601074,1,1
16.682240086,0,1
16.682602718,0,0
16.684241986,1,0
16.684604430,1,1
16.686243942,0,1
16.686606998,0,0
16.688245894,1,0
16.688608628,1,1
16.690247900,0,1
16.690610246,0,0
16.692249800,1,0
16.692612216,1,1
16.694251756,0,1
16.694614950,0,0
16.696253706,1,0
16.696616496,1,1
16.698255712,0,1
16.698618140,0,0
16.700257612,1,0
16.700620278,1,1
16.702259568,0,1
16.702622528,0,0
16.704261520,1,0
16.704624540,1,1
16.706263526,0,1
16.706626184,0,0
16.708265426,1,0
16.708627896,1,1
16.710267382,0,1
16.710630464,0,0
16.712269332,1,0
16.712632028,1,1
16.714271330,0,1
16.714633670,0,0
16.716273240,1,0
16.716635808,1,1
16.718275196,0,1
16.718638542,0,0
16.720277146,1,0
16.720640088,1,1
16.722279152,0,1
16.722641732,0,0
16.724281052,1,0
16.724643436,1,1
16.726283008,0,1
16.726646004,0,0
16.728284960,1,0
16.728647648,1,1
16.730286964,0,1
16.730649184,0,0
16.732288866,1,0
16.732651214,1,1
16.734290822,0,1
16.734653948,0,0
16.736292772,1,0
16.736655494,1,1
16.738294778,0,1
16.738657136,0,0
16.740296678,1,0
16.740659274,1,1
16.742298634,0,1
16.742662008,0,0
16.744300586,1,0
16.744663554,1,1
16.746302592,0,1
16.746665198,0,0
16.748304492,1,0
16.748666868,1,1
16.750306448,0,1
16.750669478,0,0
16.752308398,1,0
16.752671050,1,1
16.754310404,0,1
16.754672734,0,0
16.756312306,1,0
16.756674788,1,1
16.758314260,0,1
16.758677522,0,0
16.760316212,1,0
16.760679068,1,1
16.762318218,0,1
16.762680712,0,0
16.764320118,1,0
16.764682848,1,1
16.766322074,0,1
16.766685050,0,0
16.768324024,1,0
16.768687104,1,1
16.770326030,0,1
16.770688206,0,0
16.772327932,1,0
16.772690418,1,1
16.774329888,0,1
16.774692986,0,0
16.776331838,1,0
16.776694548,1,1
16.778333844,0,1
16.778696284,0,0
16.780335744,1,0
16.780698262,1,1
16.782337700,0,1
16.782701006,0,0
16.784339652,1,0
16.784702552,1,1
16.786341658,0,1
16.786704194,0,0
16.788343558,1,0
16.788706332,1,1
16.790345514,0,1
16.790708476,0,0
16.792347464,1,0
16.792710138,1,1
16.794349470,0,1
16.794711756,0,0
16.796351370,1,0
16.796713884,1,1
16.798353326,0,1
16.798716452,0,0
16.800355278,1,0
16.800718098,1,1
16.802357284,0,1
16.802719558,0,0
16.804359184,1,0
16.804721696,1,1
16.806361140,0,1
16.806724430,0,0
16.808363090,1,0
16.808725976,1,1
16.810365096,0,1
16.810727620,0,0
16.812366996,1,0
16.812729756,1,1
16.814368954,0,1
16.814731900,0,0
16.816370904,1,0
16.816733570,1,1
16.818372910,0,1
16.818735138,0,0
16.820374810,1,0
16.820737918,1,1
16.822376766,0,1
16.822740060,0,0
16.824378708,1,0
16.824741606,1,1
16.826380722,0,1
16.826743250,0,0
16.828382624,1,0
16.828744912,1,1
16.830384580,0,1
16.830747522,0,0
16.832386530,1,0
16.832749160,1,1
16.834388536,0,1
16.834751210,0,0
16.836390436,1,0
16.836752906,1,1
16.838392392,0,1
16.838755484,0,0
16.840394342,1,0
16.840757028,1,1
16.842396348,0,1
16.842758672,0,0
16.844398250,1,0
16.844760810,1,1
16.846400206,0,1
16.846763544,0,0
16.848402156,1,0
16.848765090,1,1
16.850404162,0,1
16.850766732,0,0
16.852406062,1,0
16.852768870,1,1
16.854408018,0,1
16.854771014,0,0
16.856409970,1,0
16.856772710,1,1
16.858411976,0,1
16.858774194,0,0
16.860413876,1,0
16.860776374,1,1
16.862415832,0,1
16.862779024,0,0
16.864417782,1,0
16.864780570,1,1
16.866419788,0,1
16.866782214,0,0
16.868421688,1,0
16.868784350,1,1
16.870423644,0,1
16.870786610,0,0
16.872425596,1,0
16.872788622,1,1
16.874427602,0,1
16.874790266,0,0
16.876429502,1,0
16.876791928,1,1
16.878431458,0,1
16.878794538,0,0
16.880433408,1,0
16.880796084,1,1
16.882435414,0,1
16.882797728,0,0
16.884437316,1,0
16.884799864,1,1
16.886439272,0,1
16.886802150,0,0
16.888441222,1,0
16.888804136,1,1
16.890443228,0,1
16.890805780,0,0
16.892445128,1,0
16.892807918,1,1
16.894447084,0,1
16.894810110,0,0
16.896449034,1,0
16.896811648,1,1
16.898451042,0,1
16.898813774,0,0
16.900452942,1,0
16.900815320,1,1
16.902454898,0,1
16.902818054,0,0
16.904456848,1,0
16.904819600,1,1
16.906458854,0,1
16.906821244,0,0
16.908460754,1,0
16.908823380,1,1
16.910462710,0,1
16.910825582,0,0
16.912464662,1,0
16.912827636,1,1
16.914466668,0,1
16.914829280,0,0
16.916468568,1,0
16.916830866,1,1
16.918470524,0,1
16.918833518,0,0
16.920472474,1,0
16.920835130,1,1
16.922474472,0,1
16.922836782,0,0
16.924476380,1,0
16.924838862,1,1
16.926478336,0,1
16.926841472,0,0
16.928480288,1,0
16.928843016,1,1
16.930482294,0,1
16.930844652,0,0
16.932484194,1,0
16.932846788,1,1
16.934486150,0,1
16.934849524,0,0
16.936488100,1,0
16.936851070,1,1
16.938490106,0,1
16.938852288,0,0
16.940492008,1,0
16.940854334,1,1
16.942493964,0,1
16.942856960,0,0
16.944495914,1,0
16.944858680,1,1
16.946497920,0,1
16.946860198,0,0
16.948499820,1,0
16.948862252,1,1
16.950501776,0,1
16.950864988,0,0
16.952503726,1,0
16.952866534,1,1
16.954505732,0,1
16.954868176,0,0
16.956507634,1,0
16.956870314,1,1
16.958509590,0,1
16.958872598,0,0
16.960511540,1,0
16.960874736,1,1
16.962513546,0,1
16.962875788,0,0
16.964515446,1,0
16.964877924,1,1
16.966517402,0,1
16.966880660,0,0
16.968519352,1,0
16.968882206,1,1
16.970521358,0,1
16.970883848,0,0
16.972523252,1,0
16.972885986,1,1
16.974525216,0,1
16.974888130,0,0
16.976527166,1,0
16.976890266,1,1
16.978529172,0,1
16.978891360,0,0
16.980531072,1,0
16.980894006,1,1
16.982533028,0,1
16.982896148,0,0
16.984534980,1,0
16.984897770,1,1
16.986536986,0,1
16.986899354,0,0
16.988538886,1,0
16.988901408,1,1
16.990540842,0,1
16.990904142,0,0
16.992542792,1,0
16.992905688,1,1
16.994544798,0,1
16.994907332,0,0
16.996546698,1,0
16.996909470,1,1
16.998548654,0,1
16.998911620,0,0
17.000550606,1,0
17.000913758,1,1
17.002552612,0,1
17.002914976,0,0
17.004554512,1,0
17.004916988,1,1
17.006556468,0,1
17.006919640,0,0
17.008558418,1,0
17.008921186,1,1
17.010560424,0,1
17.010922828,0,0
17.012562326,1,0
17.012924966,1,1
17.014564282,0,1
17.014927292,0,0
17.016566232,1,0
17.016929264,1,1
17.018568238,0,1
17.018930498,0,0
17.020570138,1,0
17.020933060,1,1
17.022572094,0,1
17.022935204,0,0
17.024574028,1,0
17.024936750,1,1
17.026576050,0,1
17.026938392,0,0
17.028577952,1,0
17.028940530,1,1
17.030579908,0,1
17.030943264,0,0
17.032581858,1,0
17.032944810,1,1
17.034583864,0,1
17.034946454,0,0
17.036585764,1,0
17.036948050,1,1
17.038587720,0,1
17.038950700,0,0
17.040589670,1,0
17.040952312,1,1
17.042591676,0,1
17.042954048,0,0
17.044593578,1,0
17.044956018,1,1
17.046595534,0,1
17.046958754,0,0
17.048597468,1,0
17.048960298,1,1
17.050599490,0,1
17.050961942,0,0
17.052601390,1,0
17.052964080,1,1
17.054603346,0,1
17.054966314,0,0
17.056605298,1,0
17.056968268,1,1
17.058607304,0,1
17.058969912,0,0
17.060609204,1,0
17.060971598,1,1
17.062611160,0,1
17.062974184,0,0
17.064613110,1,0
17.064975730,1,1
17.066615116,0,1
17.066977372,0,0
17.068617016,1,0
17.068979510,1,1
17.070618972,0,1
17.070982244,0,0
17.072620924,1,0
17.072983790,1,1
17.074622930,0,1
17.074985434,0,0
17.076624830,1,0
17.076987570,1,1
17.078626786,0,1
17.078989714,0,0
17.080628736,1,0
17.080991402,1,1
17.082630742,0,1
17.082992936,0,0
17.084632642,1,0
17.084995148,1,1
17.086634598,0,1
17.086997716,0,0
17.088636550,1,0
17.088999362,1,1
17.090638556,0,1
17.091000864,0,0
17.092640456,1,0
17.093002918,1,1
17.094642412,0,1
17.095005652,0,0
17.096644362,1,0
17.097007198,1,1
17.098646360,0,1
17.099009034,0,0
17.100648270,1,0
17.101011088,1,1
17.102650226,0,1
17.103013230,0,0
17.104652176,1,0
17.105014834,1,1
17.106654182,0,1
17.107016486,0,0
17.108656082,1,0
17.109018548,1,1
17.110658014,0,1
17.111021158,0,0
17.112659988,1,0
17.113022704,1,1
17.114661994,0,1
17.115024364,0,0
17.116663896,1,0
17.117026502,1,1
17.118665852,0,1
17.119028802,0,0
17.120667802,1,0
17.121030356,1,1
17.122669808,0,1
17.123032424,0,0
17.124671708,1,0
17.125034088,1,1
17.126673664,0,1
17.127036696,0,0
17.128675616,1,0
17.129038242,1,1
17.130677620,0,1
17.131039886,0,0
17.132679522,1,0
17.133042024,1,1
17.134681478,0,1
17.135044324,0,0
17.136683428,1,0
17.137046296,1,1
17.138685434,0,1
17.139047938,0,0
17.140687334,1,0
17.141050076,1,1
17.142689290,0,1
17.143052218,0,0
17.144691242,1,0
17.145054356,1,1
17.146693248,0,1
17.147055558,0,0
17.148695148,1,0
17.149057570,1,1
17.150697104,0,1
17.151060222,0,0
17.152699054,1,0
17.153061768,1,1
17.154701060,0,1
17.155063410,0,0
17.156702960,1,0
17.157065548,1,1
17.158704916,0,1
17.159068282,0,0
17.160706868,1,0
17.161069828,1,1
17.162708874,0,1
17.163071472,0,0
17.164710774,1,0
17.165073608,1,1
17.166712730,0,1
17.167075752,0,0
17.168714680,1,0
17.169077298,1,1
17.170716686,0,1
17.171079058,0,0
17.172718578,1,0
17.173081070,1,1
17.174720542,0,1
17.175083804,0,0
17.176722494,1,0
17.177085350,1,1
17.178724500,0,1
17.179086994,0,0
17.180726400,1,0
17.181089130,1,1
17.182728356,0,1
17.183091374,0,0
17.184730306,1,0
17.185093328,1,1
17.186732312,0,1
17.187094972,0,0
17.188734214,1,0
17.189097108,1,1
17.190736170,0,1
17.191099244,0,0
17.192738120,1,0
17.193100790,1,1
17.194740126,0,1
17.195102432,0,0
17.196742026,1,0
17.197104570,1,1
17.198743982,0,1
17.199106896,0,0
17.200745932,1,0
17.201108866,1,1
17.202747938,0,1
17.203110510,0,0
17.204749840,1,0
17.205112648,1,1
17.206751796,0,1
17.207113648,0,0
17.208753746,1,0
17.209116936,1,1
17.210755752,0,1
17.211118488,0,0
17.212757652,1,0
17.213120042,1,1
17.214759608,0,1
17.215122776,0,0
17.216761558,1,0
17.217124414,1,1
17.218763564,0,1
17.219125966,0,0
17.220765466,1,0
17.221128102,1,1
17.222767422,0,1
17.223130280,0,0
17.224769364,1,0
17.225132424,1,1
17.226771378,0,1
17.227133976,0,0
17.228773278,1,0
17.229135648,1,1
17.230775234,0,1
17.231138256,0,0
17.232777186,1,0
17.233140036,1,1
17.234779192,0,1
17.235141570,0,0
17.236781076,1,0
17.237143592,1,1
17.238783048,0,1
17.239146192,0,0
17.240784998,1,0
17.241147746,1,1
17.242787004,0,1
17.243149706,0,0
17.244788904,1,0
17.245151252,1,1
17.246790860,0,1
17.247153988,0,0
17.248792794,1,0
17.249155708,1,1
17.250794818,0,1
17.251157668,0,0
18.304204800,0,0
