Time [s],Channel 0,Channel 1
0.000000000,0,0
174.001164040,1,0
174.002413958,1,1
174.003265278,0,1
174.003619526,0,0
174.005266992,1,0
174.005620986,1,1
174.007268978,0,1
174.007622410,0,0
174.009270858,1,0
174.009624314,1,1
174.011272794,0,1
174.011626996,0,0
174.013274726,1,0
174.013628690,1,1
174.015276712,0,1
174.015630198,0,0
174.017278592,1,0
174.017632016,1,1
174.019280530,0,1
174.019634700,0,0
174.021282460,1,0
174.021636560,1,1
174.023284446,0,1
174.023637786,0,0
174.025286328,1,0
174.025639688,1,1
174.027288264,0,1
174.027642370,0,0
174.029290194,1,0
174.029644264,1,1
174.031292180,0,1
174.031645572,0,0
174.033294062,1,0
174.033647474,1,1
174.035295998,0,1
174.035650074,0,0
174.037297928,1,0
174.037651934,1,1
174.039299916,0,1
174.039653442,0,0
174.041301796,1,0
174.041655262,1,1
174.043303732,0,1
174.043657860,0,0
174.045305664,1,0
174.045659772,1,1
174.047307650,0,1
174.047661080,0,0
174.049309530,1,0
174.049662898,1,1
174.051311466,0,1
174.051665582,0,0
174.053313398,1,0
174.053667558,1,1
174.055315384,0,1
174.055668866,0,0
174.057317264,1,0
174.057670768,1,1
174.059319200,0,1
174.059673318,0,0
174.061321132,1,0
174.061675228,1,1
174.063323118,0,1
174.063676454,0,0
174.065324998,1,0
174.065678506,1,1
174.067326934,0,1
174.067681038,0,0
174.069328858,1,0
174.069682966,1,1
174.071330852,0,1
174.071684190,0,0
174.073332732,1,0
174.073686208,1,1
174.075334670,0,1
174.075688826,0,0
174.077336600,1,0
174.077690752,1,1
174.079338586,0,1
174.079691978,0,0
174.081340458,1,0
174.081693930,1,1
174.083342404,0,1
174.083696562,0,0
174.085344334,1,0
174.085698390,1,1
174.087346320,0,1
174.087699898,0,0
174.089348202,1,0
174.089701666,1,1
174.091350138,0,1
174.091704350,0,0
174.093352068,1,0
174.093706176,1,1
174.095354054,0,1
174.095707484,0,0
174.097355936,1,0
174.097709454,1,1
174.099357872,0,1
174.099711936,0,0
174.101359802,1,0
174.101713796,1,1
174.103368298,0,1
174.103934592,0,0
174.105563666,1,0
174.105917160,1,1
174.107565610,0,1
174.107919778,0,0
174.109567540,1,0
174.109921620,1,1
174.111569526,0,1
174.111922812,0,0
174.113571408,1,0
174.113924832,1,1
174.115573344,0,1
174.115927514,0,0
174.117575274,1,0
174.117929424,1,1
174.119577252,0,1
174.119930716,0,0
174.121579142,1,0
174.121932668,1,1
174.123581078,0,1
174.123935100,0,0
174.125583008,1,0
174.125937012,1,1
174.127584996,0,1
174.127938386,0,0
174.129586876,1,0
174.129940256,1,1
174.131588812,0,1
174.131942804,0,0
174.133590744,1,0
174.133944798,1,1
174.135592730,0,1
174.135946090,0,0
174.137594610,1,0
174.137948042,1,1
174.139596546,0,1
174.139950724,0,0
174.141598478,1,0
174.141953078,1,1
174.143600464,0,1
174.143953876,0,0
174.145602344,1,0
174.145955862,1,1
174.147604282,0,1
174.147958462,0,0
174.149606212,1,0
174.149960240,1,1
174.151608198,0,1
174.151961596,0,0
174.153610080,1,0
174.153963500,1,1
174.155612016,0,1
174.155966248,0,0
174.157613946,1,0
174.157967960,1,1
174.159615932,0,1
174.159969418,0,0
174.161617814,1,0
174.161971286,1,1
174.163619750,0,1
174.163973920,0,0
174.165621680,1,0
174.165975696,1,1
174.167623666,0,1
174.167977120,0,0
174.169625548,1,0
174.169979074,1,1
174.171627484,0,1
174.171981622,0,0
174.173629414,1,0
174.173983484,1,1
174.175631402,0,1
174.175984842,0,0
174.177633282,1,0
174.177986810,1,1
174.179635218,0,1
174.179989344,0,0
174.181637148,1,0
174.181991270,1,1
174.183639136,0,1
174.183992578,0,0
174.185641016,1,0
174.185994480,1,1
174.187642952,0,1
174.187996996,0,0
174.189644884,1,0
174.189998858,1,1
174.191646870,0,1
174.192000166,0,0
174.193648750,1,0
174.194002268,1,1
174.195650686,0,1
174.196004784,0,0
174.197652618,1,0
174.198006694,1,1
174.199654604,0,1
174.200007868,0,0
174.201656484,1,0
174.202009904,1,1
174.203658420,0,1
174.204012654,0,0
174.205660352,1,0
174.206014432,1,1
174.207662338,0,1
174.208015740,0,0
174.209664218,1,0
174.210017642,1,1
174.211666156,0,1
174.212020324,0,0
174.213668086,1,0
174.214022152,1,1
174.215670048,0,1
174.216023376,0,0
174.217671952,1,0
174.218025428,1,1
174.219673890,0,1
174.220028112,0,0
174.221675820,1,0
174.222029938,1,1
174.223677806,0,1
174.224031364,0,0
174.225679688,1,0
174.226033132,1,1
174.227681624,0,1
174.228035748,0,0
174.229683554,1,0
174.230037676,1,1
174.231685540,0,1
174.232038984,0,0
174.233687422,1,0
174.234040852,1,1
174.235689358,0,1
174.236043402,0,0
174.237691280,1,0
174.238045462,1,1
174.239693276,0,1
174.240046688,0,0
174.241695156,1,0
174.242048640,1,1
174.243697092,0,1
174.244051188,0,0
174.245699024,1,0
174.246053100,1,1
174.247701010,0,1
174.248054408,0,0
174.249702890,1,0
174.250056376,1,1
174.251704826,0,1
174.252058910,0,0
174.253706758,1,0
174.254060770,1,1
174.255708744,0,1
174.256062062,0,0
174.257710624,1,0
174.258064046,1,1
174.259712560,0,1
174.260066696,0,0
174.261714492,1,0
174.262068508,1,1
174.263716478,0,1
174.264069932,0,0
174.265718358,1,0
174.266071750,1,1
174.267720294,0,1
174.268074484,0,0
174.269722226,1,0
174.270076210,1,1
174.271724212,0,1
174.272077718,0,0
174.273726092,1,0
174.274079620,1,1
174.275728030,0,1
174.276082154,0,0
174.277729960,1,0
174.278083998,1,1
174.279731946,0,1
174.280092298,0,0
174.281733828,1,0
174.282087258,1,1
174.283735764,0,1
174.284090008,0,0
174.285737694,1,0
174.286091784,1,1
174.287739680,0,1
174.288093176,0,0
174.289741562,1,0
174.290094994,1,1
174.291743498,0,1
174.292097728,0,0
174.293745428,1,0
174.294099506,1,1
174.295747414,0,1
174.296100880,0,0
174.297749296,1,0
174.298102698,1,1
174.299751232,0,1
174.300105314,0,0
174.301753162,1,0
174.302107292,1,1
174.303755148,0,1
174.304108466,0,0
174.305757030,1,0
174.306110486,1,1
174.307758966,0,1
174.308113052,0,0
174.309760896,1,0
174.310114912,1,1
174.311762884,0,1
174.312116186,0,0
174.313764764,1,0
174.314118206,1,1
174.315766700,0,1
174.316120838,0,0
174.317768632,1,0
174.318122750,1,1
174.319770618,0,1
174.320124040,0,0
174.321772498,1,0
174.322125876,1,1
174.323774434,0,1
174.324128626,0,0
174.325776366,1,0
174.326130486,1,1
174.327778352,0,1
174.328131760,0,0
174.329780232,1,0
174.330133580,1,1
174.331782168,0,1
174.332136330,0,0
174.333784100,1,0
174.334138124,1,1
174.335786070,0,1
174.336139498,0,0
174.337787966,1,0
174.338141450,1,1
174.339789904,0,1
174.340144000,0,0
174.341791834,1,0
174.342145910,1,1
174.343793820,0,1
174.344147284,0,0
174.345795702,1,0
174.346149188,1,1
174.347797638,0,1
174.348151870,0,0
174.349799568,1,0
174.350153564,1,1
174.351801554,0,1
174.352154956,0,0
174.353803436,1,0
174.354156974,1,1
174.355805372,0,1
174.356159506,0,0
174.357807302,1,0
174.358161350,1,1
174.359809288,0,1
174.360162658,0,0
174.361811170,1,0
174.362164560,1,1
174.363813106,0,1
174.364167294,0,0
174.365815036,1,0
174.366169138,1,1
174.367817024,0,1
174.368170380,0,0
174.369818904,1,0
174.370172264,1,1
174.371820840,0,1
174.372175030,0,0
174.373822772,1,0
174.374176808,1,1
174.375824758,0,1
174.376178116,0,0
174.377826638,1,0
174.378180068,1,1
174.379828574,0,1
174.380182734,0,0
174.381830506,1,0
174.382184528,1,1
174.383832492,0,1
174.384185904,0,0
174.385834372,1,0
174.386187722,1,1
174.387836308,0,1
174.388190322,0,0
174.389838240,1,0
174.390192316,1,1
174.391840226,0,1
174.392193690,0,0
174.393842106,1,0
174.394195592,1,1
174.395844044,0,1
174.396198108,0,0
174.397845974,1,0
174.398199970,1,1
174.399847960,0,1
174.400201394,0,0
174.401849840,1,0
174.402203430,1,1
174.403851778,0,1
174.404205828,0,0
174.405853708,1,0
174.406207840,1,1
174.407855694,0,1
174.408209148,0,0
174.409857576,1,0
174.410210966,1,1
174.411859512,0,1
174.412213700,0,0
174.413861442,1,0
174.414215476,1,1
174.415863428,0,1
174.416216784,0,0
174.417865310,1,0
174.418218754,1,1
174.419867246,0,1
174.420221978,0,0
174.421869176,1,0
174.422223214,1,1
174.423871162,0,1
174.424224638,0,0
174.425873044,1,0
174.426226590,1,1
174.427874980,0,1
174.428229074,0,0
174.429876910,1,0
174.430230916,1,1
174.431878896,0,1
174.432232308,0,0
174.433880778,1,0
174.434234328,1,1
174.435882714,0,1
174.436236810,0,0
174.437884644,1,0
174.438238638,1,1
174.439886632,0,1
174.440240094,0,0
174.441888512,1,0
174.442241964,1,1
174.443890448,0,1
174.444244598,0,0
174.445892380,1,0
174.446246458,1,1
174.447894366,0,1
174.448247932,0,0
174.449896246,1,0
174.450249752,1,1
174.451898182,0,1
174.452252384,0,0
174.453900114,1,0
174.454254162,1,1
174.455902100,0,1
174.456255470,0,0
174.457903980,1,0
174.458257338,1,1
174.459905916,0,1
174.460260088,0,0
174.461907848,1,0
174.462261832,1,1
174.463909834,0,1
174.464263256,0,0
174.465911714,1,0
174.466265076,1,1
174.467913652,0,1
174.468267874,0,0
174.469915582,1,0
174.470269618,1,1
174.471917568,0,1
174.472270976,0,0
174.473919450,1,0
174.474272862,1,1
174.475921386,0,1
174.476275428,0,0
174.477923316,1,0
174.478277406,1,1
174.479925302,0,1
174.480278630,0,0
174.481927184,1,0
174.482280650,1,1
174.483929120,0,1
174.484283266,0,0
174.485931050,1,0
174.486284992,1,1
174.487933036,0,1
174.488286350,0,0
174.489934918,1,0
174.490288436,1,1
174.491936854,0,1
174.492291052,0,0
174.493938784,1,0
174.494292780,1,1
174.495940746,0,1
174.496294204,0,0
174.497942652,1,0
174.498296106,1,1
174.499944588,0,1
174.500298706,0,0
174.501946518,1,0
174.502300566,1,1
174.503948506,0,1
174.504301874,0,0
174.505950386,1,0
174.506303744,1,1
174.507952322,0,1
174.508306368,0,0
174.509954254,1,0
174.510308286,1,1
174.511956240,0,1
174.512309578,0,0
174.513958120,1,0
174.514311530,1,1
174.515960056,0,1
174.516314214,0,0
174.517961988,1,0
174.518316024,1,1
174.519963974,0,1
174.520317448,0,0
174.521965854,1,0
174.522319268,1,1
174.523967790,0,1
174.524322000,0,0
174.525969722,1,0
174.526323728,1,1
174.527971708,0,1
174.528325236,0,0
174.529973588,1,0
174.530326988,1,1
174.531975526,0,1
174.532329738,0,0
174.533977456,1,0
174.534331514,1,1
174.535979426,0,1
174.536332906,0,0
174.537981324,1,0
174.538334774,1,1
174.539983260,0,1
174.540337374,0,0
174.541985190,1,0
174.542339302,1,1
174.543987176,0,1
174.544340492,0,0
174.545989058,1,0
174.546342512,1,1
174.547990994,0,1
174.548345194,0,0
174.549992924,1,0
174.550347022,1,1
174.551994910,0,1
174.552348280,0,0
174.553996792,1,0
174.554350298,1,1
174.555998728,0,1
174.556352948,0,0
174.558000658,1,0
174.558354808,1,1
174.560002620,0,1
174.560356608,0,0
174.562004526,1,0
174.562357886,1,1
174.564006462,0,1
174.564360486,0,0
174.566008392,1,0
174.566362396,1,1
174.568010380,0,1
174.568363904,0,0
174.570012260,1,0
174.570365756,1,1
174.572014196,0,1
174.572368272,0,0
174.574016128,1,0
174.574370182,1,1
174.576018114,0,1
174.576371490,0,0
174.578019994,1,0
174.578373510,1,1
174.580021930,0,1
174.580376142,0,0
174.582023862,1,0
174.582377970,1,1
174.584025848,0,1
174.584379278,0,0
174.586027728,1,0
174.586381096,1,1
174.588029664,0,1
174.588383846,0,0
174.590031596,1,0
174.590385640,1,1
174.592033582,0,1
174.592386864,0,0
174.594035462,1,0
174.594388834,1,1
174.596037400,0,1
174.596391566,0,0
174.598039330,1,0
174.598393378,1,1
174.600041316,0,1
174.600394652,0,0
174.602043196,1,0
174.602396754,1,1
174.604045134,0,1
174.604399236,0,0
174.606047064,1,0
174.606401080,1,1
174.608049050,0,1
174.608402472,0,0
174.610050932,1,0
174.610404408,1,1
174.612052868,0,1
174.612406940,0,0
174.614054798,1,0
174.614408868,1,1
174.616056784,0,1
174.616410226,0,0
174.618058666,1,0
174.618412128,1,1
174.620060602,0,1
174.620414728,0,0
174.622062532,1,0
174.622416654,1,1
174.624064518,0,1
174.624417846,0,0
174.626066400,1,0
174.626419782,1,1
174.628068336,0,1
174.628422348,0,0
174.630070266,1,0
174.630424242,1,1
174.632072254,0,1
174.632425750,0,0
174.634074134,1,0
174.634427568,1,1
174.636076070,0,1
174.636430136,0,0
174.638078000,1,0
174.638432112,1,1
174.640079988,0,1
174.640433420,0,0
174.642081868,1,0
174.642435240,1,1
174.644083796,0,1
174.644437838,0,0
174.646085736,1,0
174.646439782,1,1
174.648087722,0,1
174.648441258,0,0
174.650089602,1,0
174.650442960,1,1
174.652091538,0,1
174.652445710,0,0
174.654093470,1,0
174.654447570,1,1
174.656095430,0,1
174.656448994,0,0
174.658097336,1,0
174.658450746,1,1
174.660099272,0,1
174.660453296,0,0
174.662101204,1,0
174.662455206,1,1
174.664103190,0,1
174.664456632,0,0
174.666105070,1,0
174.666458484,1,1
174.668107008,0,1
174.668461200,0,0
174.670108938,1,0
174.670462944,1,1
174.672110924,0,1
174.672464302,0,0
174.674112806,1,0
174.674466270,1,1
174.676114742,0,1
174.676468954,0,0
174.678116672,1,0
174.678470730,1,1
174.680118658,0,1
174.680472038,0,0
174.682120540,1,0
174.682473858,1,1
174.684122476,0,1
174.684476658,0,0
174.686124406,1,0
174.686478568,1,1
174.688126392,0,1
174.688479792,0,0
174.690128274,1,0
174.690481762,1,1
174.692130210,0,1
174.692484294,0,0
174.694132140,1,0
174.694486304,1,1
174.696134128,0,1
174.696487462,0,0
174.698136008,1,0
174.698489482,1,1
174.700137944,0,1
174.700492740,0,0
174.702139874,1,0
174.702493942,1,1
174.704141862,0,1
174.704495316,0,0
174.706143742,1,0
174.706497136,1,1
174.708145678,0,1
174.708499952,0,0
174.710147610,1,0
174.710501728,1,1
174.712149596,0,1
174.712503036,0,0
174.714151476,1,0
174.714504890,1,1
174.716153412,0,1
174.716507538,0,0
174.718155334,1,0
174.718509350,1,1
174.720157330,0,1
174.720510690,0,0
174.722159210,1,0
174.722512676,1,1
174.724161146,0,1
174.724515276,0,0
174.726163078,1,0
174.726517302,1,1
174.728165064,0,1
174.728518410,0,0
174.730166944,1,0
174.730520380,1,1
174.732168880,0,1
174.732522862,0,0
174.734170812,1,0
174.734524924,1,1
174.736172798,0,1
174.736526198,0,0
174.738174678,1,0
174.738528100,1,1
174.740176616,0,1
174.740530700,0,0
174.742178546,1,0
174.742532510,1,1
174.744180532,0,1
174.744533984,0,0
174.746182412,1,0
174.746535878,1,1
174.748184350,0,1
174.748538370,0,0
174.750186280,1,0
174.750540298,1,1
174.752188266,0,1
174.752541722,0,0
174.754190148,1,0
174.754543624,1,1
174.756192084,0,1
174.756546158,0,0
174.758194014,1,0
174.758548002,1,1
174.760196000,0,1
174.760549560,0,0
174.762197882,1,0
174.762551412,1,1
174.764199818,0,1
174.764554060,0,0
174.766201748,1,0
174.766555788,1,1
174.768203718,0,1
174.768557230,0,0
174.770205616,1,0
174.770559048,1,1
174.772207552,0,1
174.772561732,0,0
174.774209482,1,0
174.774563576,1,1
174.776211470,0,1
174.776564884,0,0
174.778213350,1,0
174.778566836,1,1
174.780215286,0,1
174.780569384,0,0
174.782217218,1,0
174.782571296,1,1
174.784219204,0,1
174.784572670,0,0
174.786221084,1,0
174.786574656,1,1
174.788223020,0,1
174.788577106,0,0
174.790224952,1,0
174.790579082,1,1
174.792226938,0,1
174.792580340,0,0
174.794228818,1,0
174.794582360,1,1
174.796230754,0,1
174.796584842,0,0
174.798232686,1,0
174.798586820,1,1
174.800234672,0,1
174.800588178,0,0
174.802236552,1,0
174.802590080,1,1
174.804238488,0,1
174.804592630,0,0
174.806240420,1,0
174.806594406,1,1
174.808242406,0,1
174.808595832,0,0
174.810244286,1,0
174.810597734,1,1
174.812246222,0,1
174.812600416,0,0
174.814248154,1,0
174.814602194,1,1
174.816250140,0,1
174.816603502,0,0
174.818252012,1,0
174.818605404,1,1
174.820253958,0,1
174.820608086,0,0
174.822255888,1,0
174.822609980,1,1
174.824257874,0,1
174.824611288,0,0
174.826259756,1,0
174.826613190,1,1
174.828261692,0,1
174.828615840,0,0
174.830263622,1,0
174.830617700,1,1
174.832265608,0,1
174.832619076,0,0
174.834267490,1,0
174.834621028,1,1
174.836269426,0,1
174.836623428,0,0
174.838271356,1,0
174.838625354,1,1
174.840273342,0,1
174.840627372,0,0
174.842275224,1,0
174.842628614,1,1
174.844277160,0,1
174.844631414,0,0
174.846279090,1,0
174.846633142,1,1
174.848281076,0,1
174.848634450,0,0
174.850282958,1,0
174.850636402,1,1
174.852284894,0,1
174.852639034,0,0
174.854286824,1,0
174.854641012,1,1
174.856288810,0,1
174.856642236,0,0
174.858290692,1,0
174.858644188,1,1
174.860292628,0,1
174.860646822,0,0
174.862294558,1,0
174.862648650,1,1
174.864296546,0,1
174.864649956,0,0
174.866298426,1,0
174.866651860,1,1
174.868300362,0,1
174.868654458,0,0
174.870302294,1,0
174.870656270,1,1
174.872304280,0,1
174.872657744,0,0
174.874306160,1,0
174.874659646,1,1
174.876308096,0,1
174.876662196,0,0
174.878310028,1,0
174.878664056,1,1
174.880312014,0,1
174.880665598,0,0
174.882313894,1,0
174.882667384,1,1
174.884315830,0,1
174.884670034,0,0
174.886317762,1,0
174.886671760,1,1
174.888319748,0,1
174.888673268,0,0
174.890321628,1,0
174.890675020,1,1
174.892323564,0,1
174.892677820,0,0
174.894325496,1,0
174.894679430,1,1
174.896327482,0,1
174.896680856,0,0
174.898329362,1,0
174.898682808,1,1
174.900331300,0,1
174.900685408,0,0
174.902333230,1,0
174.902687418,1,1
174.904335216,0,1
174.904688726,0,0
174.906337096,1,0
174.906690594,1,1
174.908339034,0,1
174.908693228,0,0
174.910340964,1,0
174.910695054,1,1
174.912342950,0,1
174.912696430,0,0
174.914344832,1,0
174.914698332,1,1
174.916346768,0,1
174.916700864,0,0
174.918348698,1,0
174.918702792,1,1
174.920350684,0,1
174.920704100,0,0
174.922352566,1,0
174.922706036,1,1
174.924354502,0,1
174.924708602,0,0
174.926356432,1,0
174.926710512,1,1
174.928358410,0,1
174.928711886,0,0
174.930360300,1,0
174.930713756,1,1
174.932362236,0,1
174.932716388,0,0
174.934364166,1,0
174.934718216,1,1
174.936366152,0,1
174.936719590,0,0
174.938368034,1,0
174.938721542,1,1
174.940369970,0,1
174.940724176,0,0
174.942371900,1,0
174.942726002,1,1
174.944373888,0,1
174.944727260,0,0
174.946375768,1,0
174.946729280,1,1
174.948377704,0,1
174.948731880,0,0
174.950379634,1,0
174.950733824,1,1
174.952381622,0,1
174.952735098,0,0
174.954383502,1,0
174.954736950,1,1
174.956385438,0,1
174.956739550,0,0
174.958387370,1,0
174.958741410,1,1
174.960389356,0,1
174.960742684,0,0
174.962391236,1,0
174.962744654,1,1
174.964393172,0,1
174.964747336,0,0
174.966395104,1,0
174.966749048,1,1
174.968397090,0,1
174.968750622,0,0
174.970398970,1,0
174.970752524,1,1
174.972400906,0,1
174.972755056,0,0
174.974402838,1,0
174.974756834,1,1
174.976404808,0,1
174.976758208,0,0
174.978406704,1,0
174.978760736,1,1
174.980408640,0,1
174.980762844,0,0
174.982410572,1,0
174.982764622,1,1
174.984412558,0,1
174.984765880,0,0
174.986414438,1,0
174.986767814,1,1
174.988416374,0,1
174.988770582,0,0
174.990418306,1,0
174.990772408,1,1
174.992420292,0,1
174.992773784,0,0
174.994422172,1,0
174.994775602,1,1
174.996424110,0,1
174.996778368,0,0
174.998426040,1,0
174.998780146,1,1
175.000428026,0,1
175.000781370,0,0
177.124147200,0,0
