Time [s],Channel 0,Channel 1
0.000000000,0,0
17.162235992,1,0
17.162745224,1,1
17.163600778,0,1
17.163771998,0,0
17.165000660,1,0
17.165172106,1,1
17.166401306,0,1
17.166571672,0,0
17.167802086,1,0
17.167973148,1,1
17.169202874,0,1
17.169374162,0,0
17.170603798,1,0
17.170775272,1,1
17.172004444,0,1
17.172174686,0,0
17.173405224,1,0
17.173576394,1,1
17.174806012,0,1
17.174977160,0,0
17.176206936,1,0
17.176378468,1,1
17.177607582,0,1
17.177777968,0,0
17.179008362,1,0
17.179179592,1,1
17.180409150,0,1
17.180580608,0,0
17.181810074,1,0
17.181981634,1,1
17.183210720,0,1
17.183381082,0,0
17.184611500,1,0
17.184782690,1,1
17.186012288,0,1
17.186183538,0,0
17.187413212,1,0
17.187584598,1,1
17.188813858,0,1
17.188984012,0,0
17.190214638,1,0
17.190385638,1,1
17.191615426,0,1
17.191786704,0,0
17.193016350,1,0
17.193187878,1,1
17.194416996,0,1
17.194587178,0,0
17.195817778,1,0
17.195989052,1,1
17.197218564,0,1
17.197389734,0,0
17.198619488,1,0
17.198790844,1,1
17.200020134,0,1
17.200190458,0,0
17.201420914,1,0
17.201592084,1,1
17.202821702,0,1
17.202992900,0,0
17.204222626,1,0
17.204394058,1,1
17.205623272,0,1
17.205793490,0,0
17.207024052,1,0
17.207195048,1,1
17.208424840,0,1
17.208596030,0,0
17.209825764,1,0
17.209997206,1,1
17.211226410,0,1
17.211396704,0,0
17.212627190,1,0
17.212798414,1,1
17.214027978,0,1
17.214199312,0,0
17.215428902,1,0
17.215600420,1,1
17.216829548,0,1
17.216999736,0,0
17.218230330,1,0
17.218401494,1,1
17.219631116,0,1
17.219802426,0,0
17.221032040,1,0
17.221203452,1,1
17.222432686,0,1
17.222603150,0,0
17.223833468,1,0
17.224004576,1,1
17.225234254,0,1
17.225405508,0,0
17.226635178,1,0
17.226806466,1,1
17.228035824,0,1
17.228206064,0,0
17.229436606,1,0
17.229607824,1,1
17.230837392,0,1
17.231008522,0,0
17.232238316,1,0
17.232409898,1,1
17.233638962,0,1
17.233809278,0,0
17.235039744,1,0
17.235210822,1,1
17.236440530,0,1
17.236611752,0,0
17.237841454,1,0
17.238012978,1,1
17.239242100,0,1
17.239412310,0,0
17.240642882,1,0
17.240813986,1,1
17.242043668,0,1
17.242214918,0,0
17.243444584,1,0
17.243616026,1,1
17.244845238,0,1
17.245015442,0,0
17.246246020,1,0
17.246417068,1,1
17.247646806,0,1
17.247817998,0,0
17.249047730,1,0
17.249219158,1,1
17.250448376,0,1
17.250618672,0,0
17.251849158,1,0
17.252020232,1,1
17.253249944,0,1
17.253421364,0,0
17.254650868,1,0
17.254822272,1,1
17.256051514,0,1
17.256221638,0,0
17.257452296,1,0
17.257623512,1,1
17.258853082,0,1
17.259024294,0,0
17.260254006,1,0
17.260425554,1,1
17.261654652,0,1
17.261824918,0,0
17.263055434,1,0
17.263226678,1,1
17.264456220,0,1
17.264627410,0,0
17.265857144,1,0
17.266028518,1,1
17.267257790,0,1
17.267428082,0,0
17.268658572,1,0
17.268829642,1,1
17.270059358,0,1
17.270230574,0,0
17.271460282,1,0
17.271631800,1,1
17.272860928,0,1
17.273031164,0,0
17.274261710,1,0
17.274432974,1,1
17.275662496,0,1
17.275833854,0,0
17.277063420,1,0
17.277234964,1,1
17.278464066,0,1
17.278634412,0,0
17.279864848,1,0
17.280036088,1,1
17.281265634,0,1
17.281436986,0,0
17.282666558,1,0
17.282838046,1,1
17.284067204,0,1
17.284237544,0,0
17.285467986,1,0
17.285639102,1,1
17.286868772,0,1
17.287040018,0,0
17.288269696,1,0
17.288441010,1,1
17.289670342,0,1
17.289840492,0,0
17.291071124,1,0
17.291242184,1,1
17.292471902,0,1
17.292643114,0,0
17.293872834,1,0
17.294044340,1,1
17.295273480,0,1
17.295443856,0,0
17.296674262,1,0
17.296845414,1,1
17.298075048,0,1
17.298246396,0,0
17.299475972,1,0
17.299647372,1,1
17.300876618,0,1
17.301046936,0,0
17.302277400,1,0
17.302448512,1,1
17.303678186,0,1
17.303849478,0,0
17.305079110,1,0
17.305250536,1,1
17.306479756,0,1
17.306649952,0,0
17.307880538,1,0
17.308051660,1,1
17.309281324,0,1
17.309452592,0,0
17.310682248,1,0
17.310853750,1,1
17.312082894,0,1
17.312253066,0,0
17.313483676,1,0
17.313654942,1,1
17.314884462,0,1
17.315055524,0,0
17.316285386,1,0
17.316456832,1,1
17.317686032,0,1
17.317856280,0,0
17.319086814,1,0
17.319258106,1,1
17.320487600,0,1
17.320658838,0,0
17.321888524,1,0
17.322059996,1,1
17.323289170,0,1
17.323459428,0,0
17.324689952,1,0
17.324860988,1,1
17.326090738,0,1
17.326261968,0,0
17.327491662,1,0
17.327663228,1,1
17.328892308,0,1
17.329062526,0,0
17.330293090,1,0
17.330464202,1,1
17.331693876,0,1
17.331865000,0,0
17.333094800,1,0
17.333266242,1,1
17.334495446,0,1
17.334665558,0,0
17.335896228,1,0
17.336067434,1,1
17.337297014,0,1
17.337468214,0,0
17.338697938,1,0
17.338869274,1,1
17.340098584,0,1
17.340268972,0,0
17.341499366,1,0
17.341670448,1,1
17.342900152,0,1
17.343071246,0,0
17.344301076,1,0
17.344472638,1,1
17.345701722,0,1
17.345871920,0,0
17.347102504,1,0
17.347273678,1,1
17.348503290,0,1
17.348674526,0,0
17.349904214,1,0
17.350075570,1,1
17.351304860,0,1
17.351475084,0,0
17.352705642,1,0
17.352876844,1,1
17.354106428,0,1
17.354277692,0,0
17.355507352,1,0
17.355678850,1,1
17.356907998,0,1
17.357078248,0,0
17.358308780,1,0
17.358479924,1,1
17.359709566,0,1
17.359880856,0,0
17.361110490,1,0
17.361281966,1,1
17.362511136,0,1
17.362681380,0,0
17.363911918,1,0
17.364083006,1,1
17.365312704,0,1
17.365483938,0,0
17.366713628,1,0
17.366885096,1,1
17.368114274,0,1
17.368284494,0,0
17.369515056,1,0
17.369686220,1,1
17.370915842,0,1
17.371087152,0,0
17.372316766,1,0
17.372488260,1,1
17.373717412,0,1
17.373887658,0,0
17.375118194,1,0
17.375289334,1,1
17.376518980,0,1
17.376690266,0,0
17.377919904,1,0
17.378091292,1,1
17.379320550,0,1
17.379490856,0,0
17.380721332,1,0
17.380892466,1,1
17.382122118,0,1
17.382293198,0,0
17.383523042,1,0
17.383694506,1,1
17.384923688,0,1
17.385093954,0,0
17.386324470,1,0
17.386495630,1,1
17.387725256,0,1
17.387896362,0,0
17.389126180,1,0
17.389297588,1,1
17.390526826,0,1
17.390697236,0,0
17.391927608,1,0
17.392098912,1,1
17.393328394,0,1
17.393499710,0,0
17.394729318,1,0
17.394900752,1,1
17.396129964,0,1
17.396300268,0,0
17.397530746,1,0
17.397701826,1,1
17.398931532,0,1
17.399102758,0,0
17.400332456,1,0
17.400503900,1,1
17.401733102,0,1
17.401903348,0,0
17.403133884,1,0
17.403304990,1,1
17.404534670,0,1
17.404705838,0,0
17.405935594,1,0
17.406106998,1,1
17.407336240,0,1
17.407506512,0,0
17.408737022,1,0
17.408908072,1,1
17.410137808,0,1
17.410309120,0,0
17.411538732,1,0
17.411710146,1,1
17.412939378,0,1
17.413109794,0,0
17.414340160,1,0
17.414511436,1,1
17.415740946,0,1
17.415912202,0,0
17.417141870,1,0
17.417313244,1,1
17.418542516,0,1
17.418712808,0,0
17.419943298,1,0
17.420114518,1,1
17.421344084,0,1
17.421515250,0,0
17.422745008,1,0
17.422916392,1,1
17.424145654,0,1
17.424315922,0,0
17.425546436,1,0
17.425717598,1,1
17.426947222,0,1
17.427118530,0,0
17.428348146,1,0
17.428519640,1,1
17.429748792,0,1
17.429919004,0,0
17.431149574,1,0
17.431320814,1,1
17.432550362,0,1
17.432721612,0,0
17.433951284,1,0
17.434122770,1,1
17.435351922,0,1
17.435522286,0,0
17.436752712,1,0
17.436923844,1,1
17.438153498,0,1
17.438324692,0,0
17.439554422,1,0
17.439725886,1,1
17.440955068,0,1
17.441125234,0,0
17.442355850,1,0
17.442526926,1,1
17.443756636,0,1
17.443927708,0,0
17.445157560,1,0
17.445328816,1,1
17.446558206,0,1
17.446728414,0,0
17.447958988,1,0
17.448130090,1,1
17.449359774,0,1
17.449530872,0,0
17.450760698,1,0
17.450932180,1,1
17.452161344,0,1
17.452331696,0,0
17.453562126,1,0
17.453733254,1,1
17.454962914,0,1
17.455134186,0,0
17.456363836,1,0
17.456535212,1,1
17.457764482,0,1
17.457934776,0,0
17.459165264,1,0
17.459336336,1,1
17.460566050,0,1
17.460737268,0,0
17.461966974,1,0
17.462138344,1,1
17.463367620,0,1
17.463537858,0,0
17.464768402,1,0
17.464939550,1,1
17.466169188,0,1
17.466340398,0,0
17.467570112,1,0
17.467741658,1,1
17.468970758,0,1
17.469140906,0,0
17.470371540,1,0
17.470542698,1,1
17.471772326,0,1
17.471943564,0,0
17.473173250,1,0
17.473344672,1,1
17.474573896,0,1
17.474744238,0,0
17.475974678,1,0
17.476145796,1,1
17.477375466,0,1
17.477546844,0,0
17.478776388,1,0
17.478947754,1,1
17.480177034,0,1
17.480347268,0,0
17.481577816,1,0
17.481749028,1,1
17.482978604,0,1
17.483149808,0,0
17.484379526,1,0
17.484550984,1,1
17.485780172,0,1
17.485950282,0,0
17.487180954,1,0
17.487352192,1,1
17.488581740,0,1
17.488752974,0,0
17.489982664,1,0
17.490154150,1,1
17.491383310,0,1
17.491553514,0,0
17.492784092,1,0
17.492955190,1,1
17.494184880,0,1
17.494356122,0,0
17.495585802,1,0
17.495757114,1,1
17.496986448,0,1
17.497156796,0,0
17.498387230,1,0
17.498558238,1,1
17.499788018,0,1
17.499959136,0,0
17.501188940,1,0
17.501360312,1,1
17.502589586,0,1
17.502759810,0,0
17.503990368,1,0
17.504161518,1,1
17.505391154,0,1
17.505562250,0,0
17.506792078,1,0
17.506963476,1,1
17.508192724,0,1
17.508362924,0,0
17.509593506,1,0
17.509764734,1,1
17.510994294,0,1
17.511165448,0,0
17.512395216,1,0
17.512566690,1,1
17.513795862,0,1
17.513966256,0,0
17.515196644,1,0
17.515367814,1,1
17.516597430,0,1
17.516768612,0,0
17.517998354,1,0
17.518169772,1,1
17.519399000,0,1
17.519569286,0,0
17.520799782,1,0
17.520970978,1,1
17.522200570,0,1
17.522371452,0,0
17.523601492,1,0
17.523772802,1,1
17.525002138,0,1
17.525172384,0,0
17.526402920,1,0
17.526574060,1,1
17.527803708,0,1
17.527974992,0,0
17.529204630,1,0
17.529376168,1,1
17.530605276,0,1
17.530775532,0,0
17.532006058,1,0
17.532177224,1,1
17.533406844,0,1
17.533578072,0,0
17.534807768,1,0
17.534979048,1,1
17.536208414,0,1
17.536378746,0,0
17.537609196,1,0
17.537780456,1,1
17.539009984,0,1
17.539181104,0,0
17.540410906,1,0
17.540582414,1,1
17.541811552,0,1
17.541981712,0,0
17.543212334,1,0
17.543383420,1,1
17.544613122,0,1
17.544784468,0,0
17.546014044,1,0
17.546185378,1,1
17.547414690,0,1
17.547585076,0,0
17.548815472,1,0
17.548986702,1,1
17.550216258,0,1
17.550387600,0,0
17.551617182,1,0
17.551788708,1,1
17.553017828,0,1
17.553188106,0,0
17.554418610,1,0
17.554589782,1,1
17.555819398,0,1
17.555990630,0,0
17.557220320,1,0
17.557391674,1,1
17.558620966,0,1
17.558791238,0,0
17.560021748,1,0
17.560192798,1,1
17.561422534,0,1
17.561593646,0,0
17.562823458,1,0
17.562994904,1,1
17.564224104,0,1
17.564394402,0,0
17.565624886,1,0
17.565796028,1,1
17.567025674,0,1
17.567196960,0,0
17.568426596,1,0
17.568598068,1,1
17.569827242,0,1
17.569997634,0,0
17.571228024,1,0
17.571399192,1,1
17.572628812,0,1
17.572799974,0,0
17.574029734,1,0
17.574201200,1,1
17.575430380,0,1
17.575600648,0,0
17.576831162,1,0
17.577002358,1,1
17.578231950,0,1
17.578403206,0,0
17.579632872,1,0
17.579804232,1,1
17.581033518,0,1
17.581203762,0,0
17.582434300,1,0
17.582605438,1,1
17.583835088,0,1
17.584006420,0,0
17.585236010,1,0
17.585407596,1,1
17.586636656,0,1
17.586806960,0,0
17.588037438,1,0
17.588208604,1,1
17.589438226,0,1
17.589609452,0,0
17.590839148,1,0
17.591010560,1,1
17.592239794,0,1
17.592410176,0,0
17.593640576,1,0
17.593811734,1,1
17.595041362,0,1
17.595212466,0,0
17.596442286,1,0
17.596613758,1,1
17.597842932,0,1
17.598013090,0,0
17.599243714,1,0
17.599414848,1,1
17.600644502,0,1
17.600815696,0,0
17.602045424,1,0
17.602216922,1,1
17.603446070,0,1
17.603616488,0,0
17.604846852,1,0
17.605017980,1,1
17.606247640,0,1
17.606418912,0,0
17.607648562,1,0
17.607820004,1,1
17.609049208,0,1
17.609219536,0,0
17.610449990,1,0
17.610621144,1,1
17.611850778,0,1
17.612021992,0,0
17.613251700,1,0
17.613423218,1,1
17.614652346,0,1
17.614822666,0,0
17.616053128,1,0
17.616224226,1,1
17.617453916,0,1
17.617625074,0,0
17.618854838,1,0
17.619026132,1,1
17.620255484,0,1
17.620425580,0,0
17.621656266,1,0
17.621827506,1,1
17.623057054,0,1
17.623228388,0,0
17.624457976,1,0
17.624629464,1,1
17.625858622,0,1
17.626028912,0,0
17.627259404,1,0
17.627430538,1,1
17.628660192,0,1
17.628831470,0,0
17.630061114,1,0
17.630232496,1,1
17.631461760,0,1
17.631631944,0,0
17.632862542,1,0
17.633033702,1,1
17.634263330,0,1
17.634434634,0,0
17.635664252,1,0
17.635835710,1,1
17.637064898,0,1
17.637235108,0,0
17.638465680,1,0
17.638636918,1,1
17.639866468,0,1
17.640037564,0,0
17.641267390,1,0
17.641438740,1,1
17.642668036,0,1
17.642838188,0,0
17.644068818,1,0
17.644239948,1,1
17.645469606,0,1
17.645640880,0,0
17.646870528,1,0
17.647041956,1,1
17.648271174,0,1
17.648441470,0,0
17.649671956,1,0
17.649843162,1,1
17.651072734,0,1
17.651243960,0,0
17.652473666,1,0
17.652645186,1,1
17.653874312,0,1
17.654044634,0,0
17.655275094,1,0
17.655446310,1,1
17.656675882,0,1
17.656847126,0,0
17.658076804,1,0
17.658248084,1,1
17.659477450,0,1
17.659647516,0,0
17.660878232,1,0
17.661049474,1,1
17.662279018,0,1
17.662450140,0,0
17.663679942,1,0
17.663851516,1,1
17.665080588,0,1
17.665250930,0,0
17.666481370,1,0
17.666652640,1,1
17.667882158,0,1
17.668053420,0,0
17.669283080,1,0
17.669454530,1,1
17.670683726,0,1
17.670854044,0,0
17.672084508,1,0
17.672255520,1,1
17.673485296,0,1
17.673656536,0,0
17.674886218,1,0
17.675057612,1,1
17.676286864,0,1
17.676457126,0,0
17.677687646,1,0
17.677858734,1,1
17.679088434,0,1
17.679259534,0,0
17.680489356,1,0
17.680660842,1,1
17.681890002,0,1
17.682060340,0,0
17.683290784,1,0
17.683461900,1,1
17.684691572,0,1
17.684862898,0,0
17.686092494,1,0
17.686264006,1,1
17.687493140,0,1
17.687663454,0,0
17.688893922,1,0
17.689065130,1,1
17.690294710,0,1
17.690465862,0,0
17.691695632,1,0
17.691867138,1,1
17.693096278,0,1
17.693266536,0,0
17.694497060,1,0
17.694668212,1,1
17.695897846,0,1
17.696069194,0,0
17.697298770,1,0
17.697470102,1,1
17.698699416,0,1
17.698869750,0,0
17.700100198,1,0
17.700271294,1,1
17.701500986,0,1
17.701672358,0,0
17.702901908,1,0
17.703073216,1,1
17.704302554,0,1
17.704472832,0,0
17.705703336,1,0
17.705874590,1,1
17.707104122,0,1
17.707275306,0,0
17.708505046,1,0
17.708676414,1,1
17.709905692,0,1
17.710075862,0,0
17.711306474,1,0
17.711477538,1,1
17.712707262,0,1
17.712878404,0,0
17.714108184,1,0
17.714279580,1,1
17.715508830,0,1
17.715679228,0,0
17.716909612,1,0
17.717080636,1,1
17.718310400,0,1
17.718481752,0,0
17.719711322,1,0
17.719882794,1,1
17.721111968,0,1
17.721282308,0,0
17.722512750,1,0
17.722683860,1,1
17.723913538,0,1
17.724084850,0,0
17.725314460,1,0
17.725485874,1,1
17.726715106,0,1
17.726885390,0,0
17.728115888,1,0
17.728287082,1,1
17.729516674,0,1
17.729688080,0,0
17.730917598,1,0
17.731088990,1,1
17.732318244,0,1
17.732488604,0,0
17.733719026,1,0
17.733890230,1,1
17.735119814,0,1
17.735290962,0,0
17.736520736,1,0
17.736692270,1,1
17.737921382,0,1
17.738091568,0,0
17.739322164,1,0
17.739493328,1,1
17.740722950,0,1
17.740894242,0,0
17.742123874,1,0
17.742295436,1,1
17.743524520,0,1
17.743694884,0,0
17.744925302,1,0
17.745096476,1,1
17.746326088,0,1
17.746497340,0,0
17.747727012,1,0
17.747898366,1,1
17.749127658,0,1
17.749297964,0,0
17.750528440,1,0
17.750699490,1,1
17.751929228,0,1
17.752100372,0,0
17.753330150,1,0
17.753501680,1,1
17.754730796,0,1
17.754901128,0,0
17.756131578,1,0
17.756302722,1,1
17.757532364,0,1
17.757703736,0,0
17.758933288,1,0
17.759104762,1,1
17.760333934,0,1
17.760504326,0,0
17.761734716,1,0
17.761905886,1,1
17.763135502,0,1
17.763306818,0,0
17.764536426,1,0
17.764707926,1,1
17.765937072,0,1
17.766107374,0,0
17.767337854,1,0
17.767509050,1,1
17.768738640,0,1
17.768909898,0,0
17.770139564,1,0
17.770310940,1,1
17.771540210,0,1
17.771710372,0,0
17.772940992,1,0
17.773112214,1,1
17.774341778,0,1
17.774513062,0,0
17.775742702,1,0
17.775914222,1,1
17.777143348,0,1
17.777313536,0,0
17.778544130,1,0
17.778715212,1,1
17.779944916,0,1
17.780116278,0,0
17.781345840,1,0
17.781517370,1,1
17.782746486,0,1
17.782916818,0,0
17.784147268,1,0
17.784318426,1,1
17.785548054,0,1
17.785719224,0,0
17.786948978,1,0
17.787120268,1,1
17.788349624,0,1
17.788519832,0,0
17.789750406,1,0
17.789921658,1,1
17.791151192,0,1
17.791322240,0,0
17.792552116,1,0
17.792723698,1,1
17.793952762,0,1
17.794123146,0,0
17.795353544,1,0
17.795524622,1,1
17.796754330,0,1
17.796925604,0,0
17.798155254,1,0
17.798326664,1,1
17.799555900,0,1
17.799726228,0,0
17.800956682,1,0
17.801127838,1,1
17.802357468,0,1
17.802528702,0,0
17.803758392,1,0
17.803929744,1,1
17.805159038,0,1
17.805329392,0,0
17.806559820,1,0
17.806730952,1,1
17.807960606,0,1
17.808131800,0,0
17.809361530,1,0
17.809532826,1,1
17.810762176,0,1
17.810932524,0,0
17.812162958,1,0
17.812334082,1,1
17.813563744,0,1
17.813734880,0,0
17.814964668,1,0
17.815136106,1,1
17.816365314,0,1
17.816535688,0,0
17.817766096,1,0
17.817937248,1,1
17.819166882,0,1
17.819338096,0,0
17.820567806,1,0
17.820739404,1,1
17.821968452,0,1
17.822138720,0,0
17.823369234,1,0
17.823540396,1,1
17.824770020,0,1
17.824941326,0,0
17.826170944,1,0
17.826342352,1,1
17.827571590,0,1
17.827741800,0,0
17.828972372,1,0
17.829143410,1,1
17.830373158,0,1
17.830544342,0,0
17.831774082,1,0
17.831945566,1,1
17.833174728,0,1
17.833344882,0,0
17.834575510,1,0
17.834746574,1,1
17.835976296,0,1
17.836147572,0,0
17.837377220,1,0
17.837548682,1,1
17.838777866,0,1
17.838948180,0,0
17.840178648,1,0
17.840349688,1,1
17.841579434,0,1
17.841750654,0,0
17.842980358,1,0
17.843151762,1,1
17.844381004,0,1
17.844551328,0,0
17.845781786,1,0
17.845952970,1,1
17.847182572,0,1
17.847353752,0,0
17.848583504,1,0
17.848754844,1,1
17.849984142,0,1
17.850154576,0,0
17.851384924,1,0
17.851555984,1,1
17.852785710,0,1
17.852957098,0,0
17.854186634,1,0
17.854358092,1,1
17.855587280,0,1
17.855757656,0,0
17.856988062,1,0
17.857159266,1,1
17.858388848,0,1
17.858560114,0,0
17.859789772,1,0
17.859961222,1,1
17.861190418,0,1
17.861360812,0,0
20.964966400,0,0
