Time [s],Channel 0,Channel 1
0.000000000,0,0
9.894660116,1,0
9.895124346,1,1
9.896022368,0,1
9.896243196,0,0
9.897421932,1,0
9.897642046,1,1
9.898822552,0,1
9.899042594,0,0
9.900223208,1,0
9.900443618,1,1
9.901623870,0,1
9.901844690,0,0
9.903024568,1,0
9.903244706,1,1
9.904425188,0,1
9.904645204,0,0
9.905825844,1,0
9.906046328,1,1
9.907226506,0,1
9.907447168,0,0
9.908627204,1,0
9.908847268,1,1
9.910027824,0,1
9.910247880,0,0
9.911428480,1,0
9.911648972,1,1
9.912829142,0,1
9.913049862,0,0
9.914229840,1,0
9.914449860,1,1
9.915630460,0,1
9.915850374,0,0
9.917031116,1,0
9.917251500,1,1
9.918431778,0,1
9.918652454,0,0
9.919832476,1,0
9.920052588,1,1
9.921233096,0,1
9.921453168,0,0
9.922633752,1,0
9.922854144,1,1
9.924034414,0,1
9.924255098,0,0
9.925435110,1,0
9.925655148,1,1
9.926835730,0,1
9.927055812,0,0
9.928236388,1,0
9.928456836,1,1
9.929637048,0,1
9.929857658,0,0
9.931037746,1,0
9.931257876,1,1
9.932438366,0,1
9.932658306,0,0
9.933839022,1,0
9.934059430,1,1
9.935239684,0,1
9.935460302,0,0
9.936640382,1,0
9.936860436,1,1
9.938041002,0,1
9.938260900,0,0
9.939441658,1,0
9.939662074,1,1
9.940842320,0,1
9.941062962,0,0
9.942243018,1,0
9.942463212,1,1
9.943643638,0,1
9.943863544,0,0
9.945044294,1,0
9.945264718,1,1
9.946444956,0,1
9.946665524,0,0
9.947845654,1,0
9.948065740,1,1
9.949246274,0,1
9.949466186,0,0
9.950646930,1,0
9.950867362,1,1
9.952047592,0,1
9.952268200,0,0
9.953448290,1,0
9.953668334,1,1
9.954848910,0,1
9.955068880,0,0
9.956249566,1,0
9.956469888,1,1
9.957650228,0,1
9.957870844,0,0
9.959050926,1,0
9.959271028,1,1
9.960451546,0,1
9.960671474,0,0
9.961852194,1,0
9.962072582,1,1
9.963252864,0,1
9.963473604,0,0
9.964653562,1,0
9.964873620,1,1
9.966054182,0,1
9.966274118,0,0
9.967454838,1,0
9.967675226,1,1
9.968855500,0,1
9.969076248,0,0
9.970256196,1,0
9.970476314,1,1
9.971656816,0,1
9.971876762,0,0
9.973057464,1,0
9.973277936,1,1
9.974458134,0,1
9.974678826,0,0
9.975858832,1,0
9.976078958,1,1
9.977259452,0,1
9.977479338,0,0
9.978660108,1,0
9.978880580,1,1
9.980060770,0,1
9.980281468,0,0
9.981461468,1,0
9.981681552,1,1
9.982862088,0,1
9.983081932,0,0
9.984262744,1,0
9.984483108,1,1
9.985663406,0,1
9.985884062,0,0
9.987064104,1,0
9.987284280,1,1
9.988464724,0,1
9.988684626,0,0
9.989865380,1,0
9.990085800,1,1
9.991266042,0,1
9.991486756,0,0
9.992666740,1,0
9.992886890,1,1
9.994067360,0,1
9.994287420,0,0
9.995468016,1,0
9.995688528,1,1
9.996868678,0,1
9.997089284,0,0
9.998269376,1,0
9.998489566,1,1
9.999669996,0,1
9.999889914,0,0
10.001070652,1,0
10.001291088,1,1
10.002471314,0,1
10.002691928,0,0
10.003872012,1,0
10.004092010,1,1
10.005272632,0,1
10.005492640,0,0
10.006673288,1,0
10.006893766,1,1
10.008073950,0,1
10.008294570,0,0
10.009474646,1,0
10.009694770,1,1
10.010875266,0,1
10.011095152,0,0
10.012275922,1,0
10.012496260,1,1
10.013676584,0,1
10.013897214,0,0
10.015077282,1,0
10.015297298,1,1
10.016477902,0,1
10.016697878,0,0
10.017878558,1,0
10.018098970,1,1
10.019279220,0,1
10.019499858,0,0
10.020679918,1,0
10.020900058,1,1
10.022080538,0,1
10.022300522,0,0
10.023481194,1,0
10.023701696,1,1
10.024881856,0,1
10.025102568,0,0
10.026282554,1,0
10.026502702,1,1
10.027683174,0,1
10.027903216,0,0
10.029083830,1,0
10.029304258,1,1
10.030484492,0,1
10.030705212,0,0
10.031885190,1,0
10.032105230,1,1
10.033285810,0,1
10.033506368,0,0
10.034686466,1,0
10.034906918,1,1
10.036087128,0,1
10.036307790,0,0
10.037487826,1,0
10.037707922,1,1
10.038888446,0,1
10.039108386,0,0
10.040289102,1,0
10.040509512,1,1
10.041689764,0,1
10.041910466,0,0
10.043090462,1,0
10.043310566,1,1
10.044491082,0,1
10.044710980,0,0
10.045891738,1,0
10.046112154,1,1
10.047292400,0,1
10.047513110,0,0
10.048693096,1,0
10.048913160,1,1
10.050093718,0,1
10.050313624,0,0
10.051494374,1,0
10.051714716,1,1
10.052895034,0,1
10.053115804,0,0
10.054295732,1,0
10.054515804,1,1
10.055696352,0,1
10.055916268,0,0
10.057097008,1,0
10.057317492,1,1
10.058497670,0,1
10.058718398,0,0
10.059898368,1,0
10.060118448,1,1
10.061298988,0,1
10.061518962,0,0
10.062699644,1,0
10.062920136,1,1
10.064100306,0,1
10.064320892,0,0
10.065501004,1,0
10.065721024,1,1
10.066901624,0,1
10.067121604,0,0
10.068302280,1,0
10.068522646,1,1
10.069702942,0,1
10.069923536,0,0
10.071103640,1,0
10.071323618,1,1
10.072504260,0,1
10.072724398,0,0
10.073904916,1,0
10.074125306,1,1
10.075305578,0,1
10.075526178,0,0
10.076706276,1,0
10.076926346,1,1
10.078106896,0,1
10.078326926,0,0
10.079507552,1,0
10.079727868,1,1
10.080908214,0,1
10.081128906,0,0
10.082308912,1,0
10.082529040,1,1
10.083709532,0,1
10.083929570,0,0
10.085110188,1,0
10.085330544,1,1
10.086510850,0,1
10.086731416,0,0
10.087911548,1,0
10.088131682,1,1
10.089312168,0,1
10.089532014,0,0
10.090712824,1,0
10.090933238,1,1
10.092113486,0,1
10.092334144,0,0
10.093514182,1,0
10.093734326,1,1
10.094914802,0,1
10.095134706,0,0
10.096315460,1,0
10.096535832,1,1
10.097716120,0,1
10.097936788,0,0
10.099116818,1,0
10.099336970,1,1
10.100517438,0,1
10.100737500,0,0
10.101918094,1,0
10.102138526,1,1
10.103318756,0,1
10.103539348,0,0
10.104719454,1,0
10.104939680,1,1
10.106120074,0,1
10.106339994,0,0
10.107520730,1,0
10.107741120,1,1
10.108921392,0,1
10.109141992,0,0
10.110322090,1,0
10.110542124,1,1
10.111722710,0,1
10.111942704,0,0
10.113123366,1,0
10.113343812,1,1
10.114524028,0,1
10.114744718,0,0
10.115924726,1,0
10.116144934,1,1
10.117325346,0,1
10.117545314,0,0
10.118726002,1,0
10.118946456,1,1
10.120126664,0,1
10.120347362,0,0
10.121527362,1,0
10.121747578,1,1
10.122927982,0,1
10.123148008,0,0
10.124328638,1,0
10.124549050,1,1
10.125729300,0,1
10.125949940,0,0
10.127129998,1,0
10.127350072,1,1
10.128530618,0,1
10.128750570,0,0
10.129931274,1,0
10.130151694,1,1
10.131331934,0,1
10.131552582,0,0
10.132732632,1,0
10.132952716,1,1
10.134133252,0,1
10.134353296,0,0
10.135533908,1,0
10.135754270,1,1
10.136934570,0,1
10.137155176,0,0
10.138335260,1,0
10.138555310,1,1
10.139735888,0,1
10.139955806,0,0
10.141136544,1,0
10.141356914,1,1
10.142537206,0,1
10.142757870,0,0
10.143937904,1,0
10.144158002,1,1
10.145338524,0,1
10.145558384,0,0
10.146739180,1,0
10.146959708,1,1
10.148139842,0,1
10.148360514,0,0
10.149540540,1,0
10.149760646,1,1
10.150941160,0,1
10.151161178,0,0
10.152341816,1,0
10.152562352,1,1
10.153742478,0,1
10.153963108,0,0
10.155143176,1,0
10.155363240,1,1
10.156543796,0,1
10.156763738,0,0
10.157944452,1,0
10.158164928,1,1
10.159345114,0,1
10.159565802,0,0
10.160745812,1,0
10.160965818,1,1
10.162146432,0,1
10.162366464,0,0
10.163547088,1,0
10.163767522,1,1
10.164947750,0,1
10.165168478,0,0
10.166348448,1,0
10.166568662,1,1
10.167749068,0,1
10.167969108,0,0
10.169149724,1,0
10.169370216,1,1
10.170550384,0,1
10.170771088,0,0
10.171951082,1,0
10.172171930,1,1
10.173351702,0,1
10.173571602,0,0
10.174752360,1,0
10.174972726,1,1
10.176153020,0,1
10.176373766,0,0
10.177553718,1,0
10.177773816,1,1
10.178954338,0,1
10.179174278,0,0
10.180354994,1,0
10.180575454,1,1
10.181755656,0,1
10.181976210,0,0
10.183156354,1,0
10.183376458,1,1
10.184556974,0,1
10.184776972,0,0
10.185957630,1,0
10.186178098,1,1
10.187358292,0,1
10.187579052,0,0
10.188758990,1,0
10.188979036,1,1
10.190159610,0,1
10.190379566,0,0
10.191560266,1,0
10.191780592,1,1
10.192960928,0,1
10.193181546,0,0
10.194361626,1,0
10.194581746,1,1
10.195762246,0,1
10.195982210,0,0
10.197162902,1,0
10.197383302,1,1
10.198563564,0,1
10.198784340,0,0
10.199964262,1,0
10.200184390,1,1
10.201364882,0,1
10.201584854,0,0
10.202765538,1,0
10.202985912,1,1
10.204166200,0,1
10.204386868,0,0
10.205566898,1,0
10.205786968,1,1
10.206967518,0,1
10.207187498,0,0
10.208368174,1,0
10.208588556,1,1
10.209768834,0,1
10.209989562,0,0
10.211169532,1,0
10.211389760,1,1
10.212570152,0,1
10.212790142,0,0
10.213970810,1,0
10.214191400,1,1
10.215371470,0,1
10.215592122,0,0
10.216772168,1,0
10.216992254,1,1
10.218172788,0,1
10.218392836,0,0
10.219573444,1,0
10.219793894,1,1
10.220974106,0,1
10.221194648,0,0
10.222374804,1,0
10.222594932,1,1
10.223775424,0,1
10.223995428,0,0
10.225176080,1,0
10.225396404,1,1
10.226576742,0,1
10.226797442,0,0
10.227977440,1,0
10.228197576,1,1
10.229378060,0,1
10.229598072,0,0
10.230778716,1,0
10.230999180,1,1
10.232179378,0,1
10.232400002,0,0
10.233580076,1,0
10.233800218,1,1
10.234980696,0,1
10.235200516,0,0
10.236381352,1,0
10.236601824,1,1
10.237782014,0,1
10.238002730,0,0
10.239182712,1,0
10.239402862,1,1
10.240583332,0,1
10.240803244,0,0
10.241983988,1,0
10.242204418,1,1
10.243384650,0,1
10.243605290,0,0
10.244785348,1,0
10.245005506,1,1
10.246185968,0,1
10.246405936,0,0
10.247586624,1,0
10.247807062,1,1
10.248987284,0,1
10.249207900,0,0
10.250387982,1,0
10.250608150,1,1
10.251788602,0,1
10.252008614,0,0
10.253189258,1,0
10.253409788,1,1
10.254589920,0,1
10.254810510,0,0
10.255990618,1,0
10.256210728,1,1
10.257391238,0,1
10.257611174,0,0
10.258791894,1,0
10.259012350,1,1
10.260192556,0,1
10.260413154,0,0
10.261593254,1,0
10.261813320,1,1
10.262993874,0,1
10.263213818,0,0
10.264394530,1,0
10.264615076,1,1
10.265795192,0,1
10.266015882,0,0
10.267195890,1,0
10.267415964,1,1
10.268596510,0,1
10.268816394,0,0
10.269997166,1,0
10.270217570,1,1
10.271397828,0,1
10.271618476,0,0
10.272798526,1,0
10.273018658,1,1
10.274199146,0,1
10.274419038,0,0
10.275599802,1,0
10.275820364,1,1
10.277000464,0,1
10.277221118,0,0
10.278401162,1,0
10.278621302,1,1
10.279801782,0,1
10.280021748,0,0
10.281202438,1,0
10.281422924,1,1
10.282603100,0,1
10.282823762,0,0
10.284003798,1,0
10.284223812,1,1
10.285404418,0,1
10.285624326,0,0
10.286805074,1,0
10.287025534,1,1
10.288205734,0,1
10.288426406,0,0
10.289606432,1,0
10.289826590,1,1
10.291007052,0,1
10.291227052,0,0
10.292407710,1,0
10.292628144,1,1
10.293808370,0,1
10.294029050,0,0
10.295209068,1,0
10.295429266,1,1
10.296609688,0,1
10.296829696,0,0
10.298010344,1,0
10.298230788,1,1
10.299411006,0,1
10.299631694,0,0
10.300811704,1,0
10.301031710,1,1
10.302212324,0,1
10.302432290,0,0
10.303612980,1,0
10.303833432,1,1
10.305013642,0,1
10.305234420,0,0
10.306414340,1,0
10.306634470,1,1
10.307814960,0,1
10.308034850,0,0
10.309215616,1,0
10.309436026,1,1
10.310616278,0,1
10.310836982,0,0
10.312016976,1,0
10.312237672,1,1
10.313417596,0,1
10.313637628,0,0
10.314818252,1,0
10.315038670,1,1
10.316218914,0,1
10.316439508,0,0
10.317619612,1,0
10.317839758,1,1
10.319020232,0,1
10.319240272,0,0
10.320420888,1,0
10.320641312,1,1
10.321821550,0,1
10.322042202,0,0
10.323222248,1,0
10.323442402,1,1
10.324622866,0,1
10.324842782,0,0
10.326023524,1,0
10.326243890,1,1
10.327424184,0,1
10.327644912,0,0
10.328824882,1,0
10.329044978,1,1
10.330225502,0,1
10.330445426,0,0
10.331626158,1,0
10.331846534,1,1
10.333026820,0,1
10.333247440,0,0
10.334427518,1,0
10.334647572,1,1
10.335828138,0,1
10.336048152,0,0
10.337228794,1,0
10.337449260,1,1
10.338629456,0,1
10.338850082,0,0
10.340030154,1,0
10.340250266,1,1
10.341430774,0,1
10.341650730,0,0
10.342831430,1,0
10.343051854,1,1
10.344232092,0,1
10.344452810,0,0
10.345632790,1,0
10.345852910,1,1
10.347033410,0,1
10.347253324,0,0
10.348434066,1,0
10.348654416,1,1
10.349834728,0,1
10.350055454,0,0
10.351235426,1,0
10.351455504,1,1
10.352636046,0,1
10.352856084,0,0
10.354036702,1,0
10.354257058,1,1
10.355437364,0,1
10.355658098,0,0
10.356838062,1,0
10.357058230,1,1
10.358238682,0,1
10.358458610,0,0
10.359639330,1,0
10.359859702,1,1
10.361040000,0,1
10.361260658,0,0
10.362440696,1,0
10.362660790,1,1
10.363841318,0,1
10.364061304,0,0
10.365241974,1,0
10.365462430,1,1
10.366642634,0,1
10.366863302,0,0
10.368043332,1,0
10.368263318,1,1
10.369443952,0,1
10.369663814,0,0
10.370844608,1,0
10.371065122,1,1
10.372245270,0,1
10.372466028,0,0
10.373645968,1,0
10.373866078,1,1
10.375046588,0,1
10.375266626,0,0
10.376447244,1,0
10.376667634,1,1
10.377847906,0,1
10.378068606,0,0
10.379248604,1,0
10.379468856,1,1
10.380649224,0,1
10.380869236,0,0
10.382049880,1,0
10.382270360,1,1
10.383450542,0,1
10.383671316,0,0
10.384851240,1,0
10.385071332,1,1
10.386251860,0,1
10.386471880,0,0
10.387652516,1,0
10.387873054,1,1
10.389053178,0,1
10.389273842,0,0
10.390453876,1,0
10.390673942,1,1
10.391854496,0,1
10.392074406,0,0
10.393255152,1,0
10.393475580,1,1
10.394655814,0,1
10.394876486,0,0
10.396056512,1,0
10.396276620,1,1
10.397457130,0,1
10.397677116,0,0
10.398857788,1,0
10.399078174,1,1
10.400258450,0,1
10.400479130,0,0
10.401659146,1,0
10.401879264,1,1
10.403059766,0,1
10.403279694,0,0
10.404460424,1,0
10.404680818,1,1
10.405861084,0,1
10.406081774,0,0
10.407261782,1,0
10.407481956,1,1
10.408662402,0,1
10.408882288,0,0
10.410063058,1,0
10.410283462,1,1
10.411463720,0,1
10.411684468,0,0
10.412864418,1,0
10.413084550,1,1
10.414265038,0,1
10.414484930,0,0
10.415665694,1,0
10.415886156,1,1
10.417066356,0,1
10.417287110,0,0
10.418467054,1,0
10.418687128,1,1
10.419867674,0,1
10.420087658,0,0
10.421268330,1,0
10.421488750,1,1
10.422668992,0,1
10.422889754,0,0
10.424069690,1,0
10.424289772,1,1
10.425470310,0,1
10.425690218,0,0
10.426870966,1,0
10.427091394,1,1
10.428271628,0,1
10.428492348,0,0
10.429672326,1,0
10.429892332,1,1
10.431072946,0,1
10.431292912,0,0
10.432473602,1,0
10.432693920,1,1
10.433874264,0,1
10.434094876,0,0
10.435274962,1,0
10.435495058,1,1
10.436675580,0,1
10.436895438,0,0
10.438076238,1,0
10.438296614,1,1
10.439476898,0,1
10.439697518,0,0
10.440877596,1,0
10.441097568,1,1
10.442278216,0,1
10.442498232,0,0
10.443678864,1,0
10.443899408,1,1
10.445079534,0,1
10.445300212,0,0
10.446480232,1,0
10.446700346,1,1
10.447880852,0,1
10.448100792,0,0
10.449281508,1,0
10.449501968,1,1
10.450682170,0,1
10.450902722,0,0
10.452082868,1,0
10.452303564,1,1
10.453483488,0,1
10.453703436,0,0
10.454884144,1,0
10.455104544,1,1
10.456284806,0,1
10.456505500,0,0
10.457685504,1,0
10.457905500,1,1
10.459086124,0,1
10.459306080,0,0
10.460486780,1,0
10.460707222,1,1
10.461887442,0,1
10.462108144,0,0
10.463288140,1,0
10.463508310,1,1
10.464688760,0,1
10.464908740,0,0
10.466089416,1,0
10.466309866,1,1
10.467490078,0,1
10.467710788,0,0
10.468890776,1,0
10.469110920,1,1
10.470291396,0,1
10.470511384,0,0
10.471692052,1,0
10.471912426,1,1
10.473092714,0,1
10.473313264,0,0
10.474493412,1,0
10.474713514,1,1
10.475894032,0,1
10.476113944,0,0
10.477294688,1,0
10.477515002,1,1
10.478695348,0,1
10.478916024,0,0
10.480096046,1,0
10.480316042,1,1
10.481496666,0,1
10.481716672,0,0
10.482897322,1,0
10.483117796,1,1
10.484297984,0,1
10.484518752,0,0
10.485698682,1,0
10.485918884,1,1
10.487099302,0,1
10.487319316,0,0
10.488499958,1,0
10.488720356,1,1
10.489900620,0,1
10.490121312,0,0
10.491301318,1,0
10.491521328,1,1
10.492701938,0,1
10.492921908,0,0
10.494102594,1,0
10.494323084,1,1
10.495503256,0,1
10.495723956,0,0
10.496903954,1,0
10.497124172,1,1
10.498304574,0,1
10.498524552,0,0
10.499705230,1,0
10.499925644,1,1
10.501105892,0,1
10.501326482,0,0
10.502506590,1,0
10.502726666,1,1
10.503907210,0,1
10.504127246,0,0
10.505307866,1,0
10.505528254,1,1
10.506708528,0,1
10.506929326,0,0
10.508109226,1,0
10.508329310,1,1
10.509509846,0,1
10.509729840,0,0
10.510910502,1,0
10.511130898,1,1
10.512311162,0,1
10.512531904,0,0
10.513711860,1,0
10.513932036,1,1
10.515112480,0,1
10.515332534,0,0
10.516513138,1,0
10.516733542,1,1
10.517913798,0,1
10.518134464,0,0
10.519314496,1,0
10.519534546,1,1
10.520715116,0,1
10.520935010,0,0
10.522115772,1,0
10.522336186,1,1
10.523516434,0,1
10.523737058,0,0
10.524917132,1,0
10.525137274,1,1
10.526317752,0,1
10.526537704,0,0
10.527718408,1,0
10.527938880,1,1
10.529119070,0,1
10.529339702,0,0
10.530519768,1,0
10.530739918,1,1
10.531920388,0,1
10.532140298,0,0
10.533321044,1,0
10.533541472,1,1
10.534721706,0,1
10.534942428,0,0
10.536122404,1,0
10.536342612,1,1
10.537523024,0,1
10.537742992,0,0
10.538923680,1,0
10.539144116,1,1
10.540324342,0,1
10.540544988,0,0
10.541725040,1,0
10.541945204,1,1
10.543125660,0,1
10.543345636,0,0
10.544526316,1,0
10.544746676,1,1
10.545926978,0,1
10.546147716,0,0
10.547327674,1,0
10.547547648,1,1
10.548728296,0,1
10.548948428,0,0
10.550128952,1,0
10.550349404,1,1
10.551529612,0,1
10.551750292,0,0
10.552930310,1,0
10.553150376,1,1
10.554330930,0,1
10.554550922,0,0
10.555731588,1,0
10.555952098,1,1
10.557132248,0,1
10.557353002,0,0
10.558532946,1,0
10.558753020,1,1
10.559933566,0,1
10.560153516,0,0
10.561334222,1,0
10.561554742,1,1
10.562734884,0,1
10.562955530,0,0
10.564135582,1,0
10.564355712,1,1
10.565536202,0,1
10.565756160,0,0
10.566936858,1,0
10.567157268,1,1
10.568337520,0,1
10.568558174,0,0
10.569738218,1,0
10.569958224,1,1
10.571138838,0,1
10.571358938,0,0
10.572539494,1,0
10.572759912,1,1
10.573940156,0,1
10.574160934,0,0
10.575340854,1,0
10.575560950,1,1
10.576741474,0,1
10.576961448,0,0
10.578142130,1,0
10.578362556,1,1
10.579542792,0,1
10.579763460,0,0
10.580943490,1,0
10.581163594,1,1
10.582344110,0,1
10.582564024,0,0
10.583744766,1,0
10.583965200,1,1
10.585145428,0,1
10.585366104,0,0
10.586546126,1,0
10.586766238,1,1
10.587946744,0,1
10.588166734,0,0
10.589347402,1,0
10.589567842,1,1
10.590748062,0,1
10.590968632,0,0
10.592148760,1,0
10.592369390,1,1
10.593549380,0,1
10.593769262,0,0
11.567104000,0,0
