Time [s],Channel 0,Channel 1
0.000000000,0,1
17.070097858,1,1
17.070755072,1,0
17.071580944,0,0
17.172150776,1,0
17.172504620,1,1
17.173584636,0,1
17.173938934,0,0
17.175481998,1,0
17.175836244,1,1
17.176887482,0,1
17.177241090,0,0
17.178784936,1,0
17.179139074,1,1
17.180190356,0,1
17.180543862,0,0
17.182087810,1,0
17.182441522,1,1
17.183493294,0,1
17.183847434,0,0
17.185390790,1,0
17.185744252,1,1
17.186796166,0,1
17.187150474,0,0
17.188693620,1,0
17.189047866,1,1
17.190099106,0,1
17.190452762,0,0
17.191996560,1,0
17.192350730,1,1
17.193401978,0,1
17.193755602,0,0
17.195299414,1,0
17.195653194,1,1
17.196704916,0,1
17.197059156,0,0
17.198602412,1,0
17.198955940,1,1
17.200007788,0,1
17.200362012,0,0
17.201905242,1,0
17.202259472,1,1
17.203310728,0,1
17.203664368,0,0
17.205208182,1,0
17.205562468,1,1
17.206613600,0,1
17.206967224,0,0
17.208511054,1,0
17.208864850,1,1
17.209916538,0,1
17.210270630,0,0
17.211814034,1,0
17.212167680,1,1
17.213219410,0,1
17.213573752,0,0
17.215116864,1,0
17.215470926,1,1
17.216522350,0,1
17.216876106,0,0
17.218419778,1,0
17.218773924,1,1
17.219825222,0,1
17.220178812,0,0
17.221722676,1,0
17.222076338,1,1
17.223128160,0,1
17.223482234,0,0
17.225025656,1,0
17.225379136,1,1
17.226431032,0,1
17.226785340,0,0
17.228328486,1,0
17.228682666,1,1
17.229733972,0,1
17.230087646,0,0
17.231631426,1,0
17.231985596,1,1
17.233036844,0,1
17.233390302,0,0
17.234934298,1,0
17.235288126,1,1
17.236339782,0,1
17.236693906,0,0
17.238237278,1,0
17.238590750,1,1
17.239642654,0,1
17.239996946,0,0
17.241540110,1,0
17.241894288,1,1
17.242945594,0,1
17.243299318,0,0
17.244843048,1,0
17.245197136,1,1
17.246248466,0,1
17.246602006,0,0
17.248145920,1,0
17.248499666,1,1
17.249551404,0,1
17.249905446,0,0
17.251448900,1,0
17.251802462,1,1
17.252854278,0,1
17.253208568,0,0
17.254751732,1,0
17.255105994,1,1
17.256157216,0,1
17.256510974,0,0
17.258054670,1,0
17.258409024,1,1
17.259460088,0,1
17.259813746,0,0
17.261357542,1,0
17.261711354,1,1
17.262763028,0,1
17.263117052,0,0
17.264660524,1,0
17.265013952,1,1
17.266065900,0,1
17.266420156,0,0
17.267963354,1,0
17.268317616,1,1
17.269368838,0,1
17.269722512,0,0
17.271266292,1,0
17.271620480,1,1
17.272671710,0,1
17.273025234,0,0
17.274569164,1,0
17.274922894,1,1
17.275974650,0,1
17.276328840,0,0
17.277872120,1,0
17.278225690,1,1
17.279277522,0,1
17.279632438,0,0
17.281174976,1,0
17.281529072,1,1
17.282580460,0,1
17.282934202,0,0
17.284477914,1,0
17.284832102,1,1
17.285883332,0,1
17.286236890,0,0
17.287780786,1,0
17.288134598,1,1
17.289186272,0,1
17.289540380,0,0
17.291083768,1,0
17.291437280,1,1
17.292489144,0,1
17.292843384,0,0
17.294386598,1,0
17.294740876,1,1
17.295792082,0,1
17.296145790,0,0
17.297689536,1,0
17.298043640,1,1
17.299094956,0,1
17.299448512,0,0
17.300992410,1,0
17.301346138,1,1
17.302397894,0,1
17.302751984,0,0
17.304295390,1,0
17.304648968,1,1
17.305700766,0,1
17.306055090,0,0
17.307598220,1,0
17.307952500,1,1
17.309003704,0,1
17.309357280,0,0
17.310901158,1,0
17.311255296,1,1
17.312306576,0,1
17.312660218,0,0
17.314204024,1,0
17.314557744,1,1
17.315609516,0,1
17.315963656,0,0
17.317507012,1,0
17.317860424,1,1
17.318912388,0,1
17.319266580,0,0
17.320809842,1,0
17.321164038,1,1
17.322215328,0,1
17.322568934,0,0
17.324112782,1,0
17.324467036,1,1
17.325518200,0,1
17.325871756,0,0
17.327415654,1,0
17.327769482,1,1
17.328821138,0,1
17.329175262,0,0
17.330718634,1,0
17.331072046,1,1
17.332124010,0,1
17.332478234,0,0
17.334021464,1,0
17.334375626,1,1
17.335426950,0,1
17.335780590,0,0
17.337324386,1,0
17.337678490,1,1
17.338729822,0,1
17.339083530,0,0
17.340627276,1,0
17.340981104,1,1
17.342032760,0,1
17.342386884,0,0
17.343930256,1,0
17.344283752,1,1
17.345335632,0,1
17.345689856,0,0
17.347233086,1,0
17.347587232,1,1
17.348638572,0,1
17.348992212,0,0
17.350536026,1,0
17.350890280,1,1
17.351941444,0,1
17.352295102,0,0
17.353838898,1,0
17.354192644,1,1
17.355244382,0,1
17.355598590,0,0
17.357141878,1,0
17.357495240,1,1
17.358547256,0,1
17.358901562,0,0
17.360444710,1,0
17.360798888,1,1
17.361850194,0,1
17.362203952,0,0
17.363747648,1,0
17.364101768,1,1
17.365153066,0,1
17.365506574,0,0
17.367050520,1,0
17.367404382,1,1
17.368456006,0,1
17.368810080,0,0
17.370353500,1,0
17.370707030,1,1
17.371758878,0,1
17.372113134,0,0
17.373656332,1,0
17.374010560,1,1
17.375061816,0,1
17.375415540,0,0
17.376959270,1,0
17.377313424,1,1
17.378364688,0,1
17.378718312,0,0
17.380262142,1,0
17.380615972,1,1
17.381667628,0,1
17.382021734,0,0
17.383565122,1,0
17.383918568,1,1
17.384970500,0,1
17.385324708,0,0
17.386867954,1,0
17.387222250,1,1
17.388273438,0,1
17.388627030,0,0
17.390170892,1,0
17.390525046,1,1
17.391576310,0,1
17.391929968,0,0
17.393473764,1,0
17.393827494,1,1
17.394879250,0,1
17.395233358,0,0
17.396776746,1,0
17.397130224,1,1
17.398182122,0,1
17.398536330,0,0
17.400079576,1,0
17.400433788,1,1
17.401485060,0,1
17.401838684,0,0
17.403382514,1,0
17.403736786,1,1
17.404787932,0,1
17.405141590,0,0
17.406685386,1,0
17.407039032,1,1
17.408090872,0,1
17.408445096,0,0
17.409988358,1,0
17.410341912,1,1
17.411393744,0,1
17.411748068,0,0
17.413291198,1,0
17.413645328,1,1
17.414696682,0,1
17.415050424,0,0
17.416594136,1,0
17.416948240,1,1
17.417999554,0,1
17.418353046,0,0
17.419897010,1,0
17.420251480,1,1
17.421302494,0,1
17.421656684,0,0
17.423199990,1,0
17.423553452,1,1
17.424605366,0,1
17.424959608,0,0
17.426502820,1,0
17.426857032,1,1
17.427908304,0,1
17.428261962,0,0
17.429805760,1,0
17.430159914,1,1
17.431211178,0,1
17.431564736,0,0
17.433108632,1,0
17.433462394,1,1
17.434514116,0,1
17.434868140,0,0
17.436411612,1,0
17.436765042,1,1
17.437816988,0,1
17.438171196,0,0
17.439714442,1,0
17.440068572,1,1
17.441119928,0,1
17.441473552,0,0
17.443017382,1,0
17.443371602,1,1
17.444422800,0,1
17.444776324,0,0
17.446320254,1,0
17.446673900,1,1
17.447725738,0,1
17.448079746,0,0
17.449623234,1,0
17.449976780,1,1
17.451028610,0,1
17.451383002,0,0
17.452926064,1,0
17.453280260,1,1
17.454331550,0,1
17.454685208,0,0
17.456229004,1,0
17.456583108,1,1
17.457634422,0,1
17.457987862,0,0
17.459531876,1,0
17.459885588,1,1
17.460937360,0,1
17.461291418,0,0
17.462834856,1,0
17.463188436,1,1
17.464240232,0,1
17.464594540,0,0
17.466137686,1,0
17.466491916,1,1
17.467543172,0,1
17.467896830,0,0
17.469440626,1,0
17.469794846,1,1
17.470846044,0,1
17.471199718,0,0
17.472743498,1,0
17.473097244,1,1
17.474148982,0,1
17.474503158,0,0
17.476046478,1,0
17.476399974,1,1
17.477451854,0,1
17.477806130,0,0
17.479349310,1,0
17.479703454,1,1
17.480754794,0,1
17.481108552,0,0
17.482652248,1,0
17.483006386,1,1
17.484057666,0,1
17.484411258,0,0
17.485955120,1,0
17.486308866,1,1
17.487360604,0,1
17.487714812,0,0
17.489258100,1,0
17.489611580,1,1
17.490663478,0,1
17.491017818,0,0
17.492560932,1,0
17.492915128,1,1
17.493966416,0,1
17.494319974,0,0
17.495863870,1,0
17.496218074,1,1
17.497269288,0,1
17.497622946,0,0
17.499166742,1,0
17.499520404,1,1
17.500572228,0,1
17.500926386,0,0
17.502469722,1,0
17.502823118,1,1
17.503875100,0,1
17.504229358,0,0
17.505772554,1,0
17.506126782,1,1
17.507178038,0,1
17.507531712,0,0
17.509075492,1,0
17.509429664,1,1
17.510480910,0,1
17.510834486,0,0
17.512378364,1,0
17.512732194,1,1
17.513783850,0,1
17.514137974,0,0
17.515681346,1,0
17.516034742,1,1
17.517086722,0,1
17.517441012,0,0
17.518984176,1,0
17.519338472,1,1
17.520389660,0,1
17.520743252,0,0
17.522287114,1,0
17.522641268,1,1
17.523692532,0,1
17.524046074,0,0
17.525589986,1,0
17.525943850,1,1
17.526995472,0,1
17.527349580,0,0
17.528892968,1,0
17.529246480,1,1
17.530298344,0,1
17.530652552,0,0
17.532195798,1,0
17.532550060,1,1
17.533601282,0,1
17.533954908,0,0
17.535498712,1,0
17.535853058,1,1
17.536904156,0,1
17.537257680,0,0
17.538801610,1,0
17.539155388,1,1
17.540207094,0,1
17.540561168,0,0
17.542104590,1,0
17.542458018,1,1
17.543509966,0,1
17.543864290,0,0
17.545407420,1,0
17.545761666,1,1
17.546812904,0,1
17.547166646,0,0
17.548710360,1,0
17.549064464,1,1
17.550115778,0,1
17.550469468,0,0
17.552013232,1,0
17.552366928,1,1
17.553418716,0,1
17.553772908,0,0
17.555316212,1,0
17.555669724,1,1
17.556721588,0,1
17.557075946,0,0
17.558619026,1,0
17.558973914,1,1
17.560024528,0,1
17.560378186,0,0
17.561921982,1,0
17.562276286,1,1
17.563327400,0,1
17.563681008,0,0
17.565224854,1,0
17.565578666,1,1
17.566630338,0,1
17.566984512,0,0
17.568527834,1,0
17.568881330,1,1
17.569933210,0,1
17.570287618,0,0
17.571830664,1,0
17.572184944,1,1
17.573236150,0,1
17.573589774,0,0
17.575133604,1,0
17.575487824,1,1
17.576539022,0,1
17.576892612,0,0
17.578436476,1,0
17.578790206,1,1
17.579841960,0,1
17.580195986,0,0
17.581739448,1,0
17.582092952,1,1
17.583144832,0,1
17.583499108,0,0
17.585042288,1,0
17.585396482,1,1
17.586447772,0,1
17.586801380,0,0
17.588345226,1,0
17.588699480,1,1
17.589750644,0,1
17.590104286,0,0
17.591648098,1,0
17.592001944,1,1
17.593053582,0,1
17.593407790,0,0
17.594951054,1,0
17.595304492,1,1
17.596356456,0,1
17.596710812,0,0
17.598253910,1,0
17.598608222,1,1
17.599659394,0,1
17.600013052,0,0
17.601556848,1,0
17.601911068,1,1
17.602962266,0,1
17.603315824,0,0
17.604859720,1,0
17.605213400,1,1
17.606265206,0,1
17.606619246,0,0
17.608162702,1,0
17.608516146,1,1
17.609568078,0,1
17.609922352,0,0
17.611465532,1,0
17.611819760,1,1
17.612871016,0,1
17.613224790,0,0
17.614768470,1,0
17.615122558,1,1
17.616173888,0,1
17.616527512,0,0
17.618071342,1,0
17.618425138,1,1
17.619476828,0,1
17.619830868,0,0
17.621374324,1,0
17.621727886,1,1
17.622779700,0,1
17.623133958,0,0
17.624677154,1,0
17.625031350,1,1
17.626082638,0,1
17.626436330,0,0
17.627980092,1,0
17.628334346,1,1
17.629385510,0,1
17.629739102,0,0
17.631282956,1,0
17.631636744,1,1
17.632688450,0,1
17.633042608,0,0
17.634585946,1,0
17.634939424,1,1
17.635991322,0,1
17.636345696,0,0
17.637888776,1,0
17.638242954,1,1
17.639294260,0,1
17.639647984,0,0
17.641191714,1,0
17.641545836,1,1
17.642597132,0,1
17.642950558,0,0
17.644494570,1,0
17.644848282,1,1
17.645900072,0,1
17.646254146,0,0
17.647797568,1,0
17.648151014,1,1
17.649202944,0,1
17.649557318,0,0
17.651100398,1,0
17.651454778,1,1
17.652505884,0,1
17.652859674,0,0
17.654403338,1,0
17.654757624,1,1
17.655808756,0,1
17.656162296,0,0
17.657706210,1,0
17.658059896,1,1
17.659111694,0,1
17.659465734,0,0
17.661009190,1,0
17.661362752,1,1
17.662414566,0,1
17.662768858,0,0
17.664312020,1,0
17.664666282,1,1
17.665717506,0,1
17.666071212,0,0
17.667614960,1,0
17.667969280,1,1
17.669020378,0,1
17.669373826,0,0
17.670917832,1,0
17.671271560,1,1
17.672323316,0,1
17.672677540,0,0
17.674220812,1,0
17.674574290,1,1
17.675626188,0,1
17.675980512,0,0
17.677523642,1,0
17.677877972,1,1
17.678929128,0,1
17.679282802,0,0
17.680826582,1,0
17.681180652,1,1
17.682232000,0,1
17.682585574,0,0
17.684129454,1,0
17.684483232,1,1
17.685534938,0,1
17.685889080,0,0
17.687432434,1,0
17.687785980,1,1
17.688837810,0,1
17.689192052,0,0
17.690735264,1,0
17.691089310,1,1
17.692140750,0,1
17.692494408,0,0
17.694038204,1,0
17.694392308,1,1
17.695443622,0,1
17.695797180,0,0
17.697341076,1,0
17.697694838,1,1
17.698746560,0,1
17.699101444,0,0
17.700644056,1,0
17.700997718,1,1
17.702049432,0,1
17.702403790,0,0
17.703946886,1,0
17.704300966,1,1
17.705352372,0,1
17.705705996,0,0
17.707249818,1,0
17.707603964,1,1
17.708655244,0,1
17.709008802,0,0
17.710552698,1,0
17.710906494,1,1
17.711958182,0,1
17.712312358,0,0
17.713855678,1,0
17.714209058,1,1
17.715261056,0,1
17.715615380,0,0
17.717158510,1,0
17.717512704,1,1
17.718563994,0,1
17.718917684,0,0
17.720461440,1,0
17.720815636,1,1
17.721866866,0,1
17.722220508,0,0
17.723764320,1,0
17.724117966,1,1
17.725169806,0,1
17.725523946,0,0
17.727067300,1,0
17.727420764,1,1
17.728472678,0,1
17.728826984,0,0
17.730370132,1,0
17.730724376,1,1
17.731775616,0,1
17.732129340,0,0
17.733673070,1,0
17.734027324,1,1
17.735078488,0,1
17.735431996,0,0
17.736975942,1,0
17.737329704,1,1
17.738381428,0,1
17.738735552,0,0
17.740278924,1,0
17.740632452,1,1
17.741684300,0,1
17.742038606,0,0
17.743581746,1,0
17.743935982,1,1
17.744987238,0,1
17.745340962,0,0
17.746884692,1,0
17.747238864,1,1
17.748290110,0,1
17.748643652,0,0
17.750187564,1,0
17.750541310,1,1
17.751593050,0,1
17.751947090,0,0
17.753490546,1,0
17.753844040,1,1
17.754895922,0,1
17.755250262,0,0
17.756793376,1,0
17.757147722,1,1
17.758198860,0,1
17.758552502,0,0
17.760096314,1,0
17.760450568,1,1
17.761501732,0,1
17.761855274,0,0
17.763399188,1,0
17.763752982,1,1
17.764804672,0,1
17.765158746,0,0
17.766702168,1,0
17.767055730,1,1
17.768107544,0,1
17.768461718,0,0
17.770004998,1,0
17.770359310,1,1
17.771410484,0,1
17.771764206,0,0
17.773307938,1,0
17.773662108,1,1
17.774713356,0,1
17.775066930,0,0
17.776610810,1,0
17.776964522,1,1
17.778016294,0,1
17.778370568,0,0
17.779913790,1,0
17.780267236,1,1
17.781319166,0,1
17.781673540,0,0
17.783216620,1,0
17.783570716,1,1
17.784622106,0,1
17.784975780,0,0
17.786519560,1,0
17.786873796,1,1
17.787924978,0,1
17.788278402,0,0
17.789822432,1,0
17.790176176,1,1
17.791227916,0,1
17.791581956,0,0
17.793125412,1,0
17.793478858,1,1
17.794530788,0,1
17.794884996,0,0
17.796428242,1,0
17.796782538,1,1
17.797833728,0,1
17.798187352,0,0
17.799731182,1,0
17.800085252,1,1
17.801136600,0,1
17.801490256,0,0
17.803034054,1,0
17.803387866,1,1
17.804439538,0,1
17.804793696,0,0
17.806337010,1,0
17.806690462,1,1
17.807742410,0,1
17.808096734,0,0
17.809639864,1,0
17.809994126,1,1
17.811045350,0,1
17.811399024,0,0
17.812942804,1,0
17.813297124,1,1
17.814348222,0,1
17.814701796,0,0
17.816245676,1,0
17.816599454,1,1
17.817651160,0,1
17.818005352,0,0
17.819548656,1,0
17.819902202,1,1
17.820954032,0,1
17.821308274,0,0
17.822851488,1,0
17.823205616,1,1
17.824256972,0,1
17.824610628,0,0
17.826154426,1,0
17.826508612,1,1
17.827559844,0,1
17.827913484,0,0
17.829457298,1,0
17.829810994,1,1
17.830862782,0,1
17.831216974,0,0
17.832760278,1,0
17.833113790,1,1
17.834165656,0,1
17.834519812,0,0
17.836063110,1,0
17.836417322,1,1
17.837468594,0,1
17.837829552,0,0
17.839366048,1,0
17.839720110,1,1
17.840771466,0,1
17.841124940,0,0
17.842668920,1,0
17.843022598,1,1
17.844074404,0,1
17.844428578,0,0
17.845971900,1,0
17.846325480,1,1
17.847377278,0,1
17.847731550,0,0
17.849274732,1,0
17.849628926,1,1
17.850680216,0,1
17.851033956,0,0
17.852577670,1,0
17.852931856,1,1
17.853983088,0,1
17.854336612,0,0
17.855880542,1,0
17.856234270,1,1
17.857286028,0,1
17.857640118,0,0
17.859183524,1,0
17.859537018,1,1
17.860588900,0,1
17.860943206,0,0
17.862486354,1,0
17.862840598,1,1
17.863891838,0,1
17.864245496,0,0
17.865789292,1,0
17.866143546,1,1
17.867194710,0,1
17.867548350,0,0
17.869092164,1,0
17.869445926,1,1
17.870497650,0,1
17.870851774,0,0
17.872395146,1,0
17.872748674,1,1
17.873800522,0,1
17.874154878,0,0
17.875697976,1,0
17.876052288,1,1
17.877103460,0,1
17.877457068,0,0
17.879000914,1,0
17.879355134,1,1
17.880406332,0,1
17.880759956,0,0
17.882303786,1,0
17.882657532,1,1
17.883709272,0,1
17.884063396,0,0
17.885606768,1,0
17.885960346,1,1
17.887012144,0,1
17.887366410,0,0
17.888909598,1,0
17.889263742,1,1
17.890315082,0,1
17.890668722,0,0
17.892212536,1,0
17.892566624,1,1
17.893617954,0,1
17.893971546,0,0
17.895515408,1,0
17.895869154,1,1
17.896920894,0,1
17.897275134,0,0
17.898818390,1,0
17.899172002,1,1
17.900223766,0,1
17.900577956,0,0
17.902121220,1,0
17.902475282,1,1
17.903526704,0,1
17.903880462,0,0
17.905424158,1,0
17.905778412,1,1
17.906829578,0,1
17.907183150,0,0
17.908727032,1,0
17.909080810,1,1
17.910132516,0,1
17.910486522,0,0
17.912030012,1,0
17.912383406,1,1
17.913435388,0,1
17.913789844,0,0
17.915332842,1,0
17.915687070,1,1
17.916738326,0,1
17.917092050,0,0
17.918635782,1,0
17.918989950,1,1
17.920041200,0,1
17.920394772,0,0
17.921938654,1,0
17.922292432,1,1
17.923344138,0,1
17.923698328,0,0
17.925241626,1,0
17.925595028,1,1
17.926647010,0,1
17.927001300,0,0
17.928544464,1,0
17.928898676,1,1
17.929949950,0,1
17.930303540,0,0
17.931847404,1,0
17.932201640,1,1
17.933252822,0,1
17.933606312,0,0
17.935150276,1,0
17.935503936,1,1
17.936555760,0,1
17.936909866,0,0
17.938453240,1,0
17.938806684,1,1
17.939858632,0,1
17.940212922,0,0
17.941756086,1,0
17.942110348,1,1
17.943161572,0,1
17.943515194,0,0
17.945059026,1,0
17.945413212,1,1
17.946464444,0,1
17.946818050,0,0
17.948361898,1,0
17.948715560,1,1
17.949767382,0,1
17.950121606,0,0
17.951664878,1,0
17.952018506,1,1
17.953070254,0,1
17.953424494,0,0
17.954967708,1,0
17.955321954,1,1
17.956373194,0,1
17.956726984,0,0
17.958270648,1,0
17.958624884,1,1
17.959676066,0,1
17.960029788,0,0
17.961573520,1,0
17.961927214,1,1
17.962979004,0,1
17.963333144,0,0
17.964876500,1,0
17.965229962,1,1
17.966281876,0,1
17.966636116,0,0
17.968179330,1,0
17.968533426,1,1
17.969584816,0,1
17.969938472,0,0
17.971482270,1,0
17.971836422,1,1
17.972887688,0,1
17.973241244,0,0
17.974785134,1,0
17.975138820,1,1
17.976190626,0,1
17.976544734,0,0
17.978088122,1,0
17.978442208,1,1
17.979493498,0,1
17.979847856,0,0
17.981390954,1,0
17.981745032,1,1
17.982796438,0,1
17.983150128,0,0
17.984693892,1,0
17.985048162,1,1
17.986099310,0,1
17.986452916,0,0
17.987996764,1,0
17.988350492,1,1
17.989402248,0,1
17.989756422,0,0
17.991299744,1,0
17.991653240,1,1
17.992705122,0,1
17.993059444,0,0
20.696268800,0,0
