Time [s],Channel 0,Channel 1
0.000000000,0,0
3.346548708,1,0
3.347184086,1,1
3.846549694,0,1
3.846832730,0,0
4.346563906,1,0
4.346846872,1,1
4.846578120,0,1
4.846860402,0,0
5.346592322,1,0
5.346875206,1,1
5.846606528,0,1
5.846888796,0,0
6.346620722,1,0
6.346903678,1,1
6.846634918,0,1
6.846917196,0,0
7.346649106,1,0
7.346931906,1,1
7.846663294,0,1
7.846945566,0,0
8.346677476,1,0
8.346960402,1,1
8.846691660,0,1
8.846974198,0,0
9.346705838,1,0
9.346988984,1,1
9.846720016,0,1
9.847002470,0,0
10.346734188,1,0
10.347017264,1,1
10.846748360,0,1
10.847030978,0,0
11.346762528,1,0
11.347045514,1,1
11.846776700,0,1
11.847059204,0,0
12.346790866,1,0
12.347073976,1,1
12.846805034,0,1
12.847087608,0,0
13.346819198,1,0
13.347102266,1,1
13.846833366,0,1
13.847115450,0,0
14.346847544,1,0
14.347130628,1,1
14.846861728,0,1
14.847143878,0,0
15.346875904,1,0
15.347158976,1,1
15.846890086,0,1
15.847172260,0,0
16.346904264,1,0
16.347187552,1,1
16.846918444,0,1
16.847200680,0,0
17.346932620,1,0
17.347215796,1,1
17.846946824,0,1
17.847229916,0,0
18.346960994,1,0
18.347244158,1,1
18.846975168,0,1
18.847258278,0,0
19.346989338,1,0
19.347272840,1,1
19.847003512,0,1
19.847286506,0,0
20.347017678,1,0
20.347300998,1,1
20.847031846,0,1
20.847314894,0,0
21.347046010,1,0
21.347329530,1,1
21.847060562,0,1
21.847350454,0,0
22.347074334,1,0
22.347357390,1,1
22.847088482,0,1
22.847370628,0,0
23.347102624,1,0
23.347385638,1,1
23.847116774,0,1
23.847398854,0,0
24.347130918,1,0
24.347414120,1,1
24.847145068,0,1
24.847427372,0,0
25.347159212,1,0
25.347442596,1,1
25.847173364,0,1
25.847455498,0,0
26.347187508,1,0
26.347470442,1,1
26.847201662,0,1
26.847483998,0,0
27.347215812,1,0
27.347498834,1,1
27.847229962,0,1
27.847512344,0,0
28.347244102,1,0
28.347527012,1,1
28.847258246,0,1
28.847540696,0,0
29.347272384,1,0
29.347555422,1,1
29.847286528,0,1
29.847569084,0,0
30.347300668,1,0
30.347583788,1,1
30.847314812,0,1
30.847597282,0,0
31.347328952,1,0
31.347612084,1,1
31.847343092,0,1
31.847625488,0,0
32.347357228,1,0
32.347640320,1,1
32.847371374,0,1
32.847653826,0,0
33.347385514,1,0
33.347668894,1,1
33.847399662,0,1
33.847682624,0,0
34.347413814,1,0
34.347696822,1,1
34.847427970,0,1
34.847711150,0,0
35.347442120,1,0
35.347725056,1,1
35.847456278,0,1
35.847739416,0,0
36.347470436,1,0
36.347753522,1,1
36.847484600,0,1
36.847767732,0,0
37.347498758,1,0
37.347781938,1,1
37.847512918,0,1
37.847796182,0,0
38.347527074,1,0
38.347810088,1,1
38.847541230,0,1
38.847824622,0,0
39.347555380,1,0
39.347838562,1,1
39.847569538,0,1
39.847852992,0,0
40.347583692,1,0
40.347866932,1,1
40.847597852,0,1
40.847881214,0,0
41.347612008,1,0
41.347895090,1,1
41.847625194,0,1
41.847908290,0,0
42.347639168,1,0
42.347922032,1,1
42.847653314,0,1
42.847935582,0,0
43.347667454,1,0
43.347950392,1,1
43.847681598,0,1
43.847964256,0,0
44.347695738,1,0
44.347978686,1,1
44.847709880,0,1
44.847992300,0,0
45.347724018,1,0
45.348007038,1,1
45.847738164,0,1
45.848020732,0,0
46.347752302,1,0
46.348035256,1,1
46.847766448,0,1
46.848049068,0,0
47.347780590,1,0
47.348063492,1,1
47.847794736,0,1
47.848077304,0,0
48.347808880,1,0
48.348091954,1,1
48.847823028,0,1
48.848105114,0,0
49.347837172,1,0
49.348120318,1,1
49.847851320,0,1
49.848133498,0,0
50.347865464,1,0
50.348148524,1,1
50.847879614,0,1
50.848161622,0,0
51.347893760,1,0
51.348176830,1,1
51.847907908,0,1
51.848190072,0,0
52.347922052,1,0
52.348205022,1,1
52.847936198,0,1
52.848218462,0,0
53.347950340,1,0
53.348233612,1,1
53.847964486,0,1
53.848246878,0,0
54.347978644,1,0
54.348261556,1,1
54.847992808,0,1
54.848275156,0,0
55.348006964,1,0
55.348289924,1,1
55.848021128,0,1
55.848303404,0,0
56.348035290,1,0
56.348318310,1,1
56.848049458,0,1
56.848331872,0,0
57.348063616,1,0
57.348346714,1,1
57.848077780,0,1
57.848360144,0,0
58.348091940,1,0
58.348374848,1,1
58.848106104,0,1
58.848388730,0,0
59.348120254,1,0
59.348403292,1,1
59.848134402,0,1
59.848417062,0,0
60.348148546,1,0
60.348431674,1,1
60.848162696,0,1
60.848445238,0,0
61.348176840,1,0
61.348459934,1,1
61.848190990,0,1
61.848846482,0,0
62.348203952,1,0
62.348486896,1,1
62.848218084,0,1
62.848501196,0,0
63.348232210,1,0
63.348515078,1,1
63.848246336,0,1
63.848528830,0,0
64.348260460,1,0
64.348543400,1,1
64.848274592,0,1
64.848557226,0,0
65.348288718,1,0
65.348571730,1,1
65.848302850,0,1
65.848585524,0,0
66.348316980,1,0
66.348600012,1,1
66.848331118,0,1
66.848613758,0,0
67.348345254,1,0
67.348628298,1,1
67.848359396,0,1
67.848642078,0,0
68.348373532,1,0
68.348656584,1,1
68.848387676,0,1
68.848669790,0,0
69.348401816,1,0
69.348684872,1,1
69.848415962,0,1
69.848698064,0,0
70.348430106,1,0
70.348713180,1,1
70.848444252,0,1
70.848726286,0,0
71.348458392,1,0
71.348741534,1,1
71.848472532,0,1
71.848754718,0,0
72.348486668,1,0
72.348769796,1,1
72.848500808,0,1
72.848782910,0,0
73.348514940,1,0
73.348797952,1,1
73.848529076,0,1
73.848811208,0,0
74.348543226,1,0
74.348826608,1,1
74.848557380,0,1
74.848839478,0,0
75.348571532,1,0
75.348854340,1,1
75.848585692,0,1
75.848868000,0,0
76.348599846,1,0
76.348882978,1,1
76.848614006,0,1
76.848896514,0,0
77.348628160,1,0
77.348911260,1,1
77.848642318,0,1
77.848924458,0,0
78.348656474,1,0
78.348939848,1,1
78.848670634,0,1
78.848952966,0,0
79.348684790,1,0
79.348967680,1,1
79.848698952,0,1
79.848981334,0,0
80.348713108,1,0
80.348996080,1,1
80.848727272,0,1
80.849009698,0,0
81.348741430,1,0
81.349024322,1,1
81.848755594,0,1
81.849040902,0,0
82.348768572,1,0
82.349051890,1,1
82.848782722,0,1
82.849065800,0,0
83.348796868,1,0
83.349080122,1,1
83.848811018,0,1
83.849094098,0,0
84.348825162,1,0
84.349107962,1,1
84.848839314,0,1
84.849122450,0,0
85.348853462,1,0
85.349136364,1,1
85.848867618,0,1
85.849150830,0,0
86.348881768,1,0
86.349164708,1,1
86.848895926,0,1
86.849179056,0,0
87.348910080,1,0
87.349193080,1,1
87.848924236,0,1
87.849207398,0,0
88.348938384,1,0
88.349221340,1,1
88.848952536,0,1
88.849235880,0,0
89.348966680,1,0
89.349249664,1,1
89.848980824,0,1
89.849264106,0,0
90.348994962,1,0
90.349277960,1,1
90.849009106,0,1
90.849292554,0,0
91.349023244,1,0
91.349306174,1,1
91.849037390,0,1
91.849320564,0,0
92.349051530,1,0
92.349334496,1,1
92.849065676,0,1
92.849349062,0,0
93.349079810,1,0
93.349363200,1,1
93.849093952,0,1
93.849377086,0,0
94.349108090,1,0
94.349391010,1,1
94.849122252,0,1
94.849404436,0,0
95.349136410,1,0
95.349419342,1,1
95.849150576,0,1
95.849432720,0,0
96.349164736,1,0
96.349447574,1,1
96.849178904,0,1
96.849461284,0,0
97.349193066,1,0
97.349476022,1,1
97.849207232,0,1
97.849489688,0,0
98.349221394,1,0
98.349504374,1,1
98.849235560,0,1
98.849518192,0,0
99.349249720,1,0
99.349532718,1,1
99.849263888,0,1
99.849546470,0,0
100.349278050,1,0
100.349561098,1,1
100.849292218,0,1
100.849574900,0,0
101.349306382,1,0
101.349589444,1,1
101.849320546,0,1
101.849603110,0,0
102.349333906,1,0
102.349616856,1,1
102.849348054,0,1
102.849631130,0,0
103.349362194,1,0
103.349645114,1,1
103.849376340,0,1
103.849659660,0,0
104.349390480,1,0
104.349673380,1,1
104.849404622,0,1
104.849688106,0,0
105.349418754,1,0
105.349701794,1,1
105.849432892,0,1
105.849716290,0,0
106.349447028,1,0
106.349730128,1,1
106.849461170,0,1
106.849744488,0,0
107.349475304,1,0
107.349758258,1,1
107.849489446,0,1
107.849772832,0,0
108.349503584,1,0
108.349786516,1,1
108.849517728,0,1
108.849800748,0,0
109.349531868,1,0
109.349814858,1,1
109.849546014,0,1
109.849828988,0,0
110.349560152,1,0
110.349843260,1,1
110.849574292,0,1
110.849857272,0,0
111.349588422,1,0
111.349871456,1,1
111.849602554,0,1
111.849885508,0,0
112.349616680,1,0
112.349899772,1,1
112.849630808,0,1
112.849913742,0,0
113.349644928,1,0
113.349927940,1,1
113.849659050,0,1
113.849942104,0,0
114.349673168,1,0
114.349956408,1,1
114.849687312,0,1
114.849970250,0,0
115.349701450,1,0
115.349984852,1,1
115.849715586,0,1
115.849998576,0,0
116.349729710,1,0
116.350013108,1,1
116.849743838,0,1
116.850026962,0,0
117.349757964,1,0
117.350041378,1,1
117.849772098,0,1
117.850055142,0,0
118.349786230,1,0
118.350069690,1,1
118.849800370,0,1
118.850083450,0,0
119.349814506,1,0
119.350097502,1,1
119.849828650,0,1
119.850111824,0,0
120.349842790,1,0
120.350125824,1,1
120.849856936,0,1
120.850140162,0,0
121.349871078,1,0
121.350154040,1,1
121.849885226,0,1
121.850168420,0,0
122.349900068,1,0
122.350182644,1,1
122.849913484,0,1
122.850196484,0,0
123.349927610,1,0
123.350210168,1,1
123.849941744,0,1
123.850224758,0,0
124.349955870,1,0
124.350238016,1,1
124.849970002,0,1
124.850253096,0,0
125.349984128,1,0
125.350266988,1,1
125.849998260,0,1
125.850281368,0,0
126.350012380,1,0
126.350295342,1,1
126.850026502,0,1
126.850309540,0,0
127.350040620,1,0
127.350323630,1,1
127.850054744,0,1
127.850337892,0,0
128.350068864,1,0
128.350351750,1,1
128.850082992,0,1
128.850366322,0,0
129.350097114,1,0
129.350379990,1,1
129.850111242,0,1
129.850394594,0,0
130.350125364,1,0
130.350408356,1,1
130.850139490,0,1
130.850422892,0,0
131.350153610,1,0
131.350436654,1,1
131.850167736,0,1
131.850451002,0,0
132.350181856,1,0
132.350464810,1,1
132.850195978,0,1
132.850479308,0,0
133.350210094,1,0
133.350493032,1,1
133.850224214,0,1
133.850507136,0,0
134.350238322,1,0
134.350521400,1,1
134.850252452,0,1
134.850535470,0,0
135.350266576,1,0
135.350549566,1,1
135.850280708,0,1
135.850563698,0,0
136.350294830,1,0
136.350577858,1,1
136.850308952,0,1
136.850591872,0,0
137.350323064,1,0
137.350606042,1,1
137.850337176,0,1
137.850620204,0,0
138.350351278,1,0
138.350634360,1,1
138.850365384,0,1
138.850648538,0,0
139.350379486,1,0
139.350662906,1,1
139.850393594,0,1
139.850676778,0,0
140.350407694,1,0
140.350691110,1,1
140.850421800,0,1
140.850704930,0,0
141.350435896,1,0
141.350719226,1,1
141.850449996,0,1
141.850733044,0,0
142.350483226,1,0
142.850496104,0,0
143.350506960,1,0
143.850517806,0,0
144.350528648,1,0
144.850539496,0,0
145.350550338,1,0
145.850561194,0,0
146.350572034,1,0
146.850582874,0,0
149.376204800,0,0
