Time [s],Channel 0,Channel 1
0.000000000,0,0
16.758973104,1,0
16.759807240,1,1
17.259289322,0,1
17.259718684,0,0
17.759614986,1,0
17.760043760,1,1
18.259940728,0,1
18.260370038,0,0
18.760266842,1,0
18.760696162,1,1
19.260592578,0,1
19.261021990,0,0
19.760918580,1,0
19.761347496,1,1
20.261244472,0,1
20.261673754,0,0
20.761569966,1,0
20.761999272,1,1
21.261895782,0,1
21.262325244,0,0
21.762221804,1,0
21.762650134,1,1
22.262547444,0,1
22.262976730,0,0
22.762873392,1,0
22.763303068,1,1
23.263199194,0,1
23.263627676,0,0
23.763525020,1,0
23.763954502,1,1
24.263850750,0,1
24.264280182,0,0
24.764176932,1,0
24.764606608,1,1
25.264502540,0,1
25.264930926,0,0
25.764828608,1,0
25.765257888,1,1
26.265154040,0,1
26.265583320,0,0
26.765479866,1,0
26.765909038,1,1
27.265805686,0,1
27.266234192,0,0
27.766131632,1,0
27.766560948,1,1
28.266457508,0,1
28.266887060,0,0
28.766783456,1,0
28.767212650,1,1
29.267109274,0,1
29.267537758,0,0
29.767435036,1,0
29.767864376,1,1
30.267760804,0,1
30.268190440,0,0
30.768086788,1,0
30.768516182,1,1
31.268412540,0,1
31.268841128,0,0
31.768738310,1,0
31.769167974,1,1
32.269064068,0,1
32.269493328,0,0
32.769390000,1,0
32.769819254,1,1
33.269715514,0,1
33.270144204,0,0
33.770041714,1,0
33.770471414,1,1
34.270367186,0,1
34.270796598,0,0
34.770693094,1,0
34.771122426,1,1
35.271019032,0,1
35.271447694,0,0
35.771344802,1,0
35.771774456,1,1
36.271670560,0,1
36.272099908,0,0
36.771996224,1,0
36.772425630,1,1
37.272322158,0,1
37.272751040,0,0
37.772648060,1,0
37.773077302,1,1
38.272973636,0,1
38.273403070,0,0
38.773299740,1,0
38.773729168,1,1
39.273625390,0,1
39.274054372,0,0
39.773951158,1,0
39.774380386,1,1
40.274277032,0,1
40.274706406,0,0
40.774602960,1,0
40.775032338,1,1
41.274928742,0,1
41.275357540,0,0
41.775254380,1,0
41.775683796,1,1
42.275580080,0,1
42.276009456,0,0
42.775906186,1,0
42.776335968,1,1
43.276231694,0,1
43.276660218,0,0
43.776557888,1,0
43.776987144,1,1
44.276883644,0,1
44.277313326,0,0
44.777209396,1,0
44.777638732,1,1
45.277535170,0,1
45.277963776,0,0
45.777860716,1,0
45.778290182,1,1
46.278186834,0,1
46.278616380,0,0
46.778512626,1,0
46.778941878,1,1
47.278838224,0,1
47.279266932,0,0
47.779163982,1,0
47.779593686,1,1
48.279489844,0,1
48.279919046,0,0
48.779815634,1,0
48.780244968,1,1
49.280141532,0,1
49.280570212,0,0
49.780467286,1,0
49.780896852,1,1
50.280792854,0,1
50.281221968,0,0
50.781118670,1,0
50.781548012,1,1
51.281444440,0,1
51.281873128,0,0
51.781770252,1,0
51.782199796,1,1
52.282096130,0,1
52.282525770,0,0
52.782422020,1,0
52.782850380,1,1
53.282747814,0,1
53.283177296,0,0
53.783073764,1,0
53.783503124,1,1
54.283399514,0,1
54.283829192,0,0
54.783725158,1,0
54.784153636,1,1
55.284051156,0,1
55.284480432,0,0
55.784376606,1,0
55.784806070,1,1
56.284702698,0,1
56.285132414,0,0
56.785028202,1,0
56.785456744,1,1
57.285354060,0,1
57.285783742,0,0
57.785679970,1,0
57.786109094,1,1
58.286005838,0,1
58.286435286,0,0
58.786331648,1,0
58.786760208,1,1
59.286657502,0,1
59.287087218,0,0
59.786982944,1,0
59.787412090,1,1
60.287308710,0,1
60.287738034,0,0
60.787634664,1,0
60.788063186,1,1
61.287960500,0,1
61.288390244,0,0
61.788286104,1,0
61.788715290,1,1
62.288611874,0,1
62.289041256,0,0
62.788937870,1,0
62.789366708,1,1
63.289263540,0,1
63.289692766,0,0
63.789589444,1,0
63.790018788,1,1
64.289915038,0,1
64.290344416,0,0
64.790241182,1,0
64.790670104,1,1
65.290566826,0,1
65.290996132,0,0
65.790892774,1,0
65.791321986,1,1
66.291218204,0,1
66.291647544,0,0
66.791544158,1,0
66.791972524,1,1
67.291869868,0,1
67.292299224,0,0
67.792195772,1,0
67.792625244,1,1
68.292521582,0,1
68.292951270,0,0
68.792847514,1,0
68.793275888,1,1
69.293173050,0,1
69.293602374,0,0
69.793498848,1,0
69.793928206,1,1
70.293824656,0,1
70.294254442,0,0
70.794150486,1,0
70.794578856,1,1
71.294476326,0,1
71.294905674,0,0
71.794801936,1,0
71.795231544,1,1
72.295127708,0,1
72.295556936,0,0
72.795453800,1,0
72.795882416,1,1
73.295779298,0,1
73.296208766,0,0
73.796105294,1,0
73.796534998,1,1
74.296431170,0,1
74.296860466,0,0
74.796756730,1,0
74.797185180,1,1
75.297082588,0,1
75.297511998,0,0
75.797408348,1,0
75.797838076,1,1
76.297734356,0,1
76.298163660,0,0
76.798060042,1,0
76.798488482,1,1
77.298385884,0,1
77.298815440,0,0
77.798711536,1,0
77.799140768,1,1
78.299037544,0,1
78.299466900,0,0
78.799363106,1,0
78.799791762,1,1
79.299689232,0,1
79.300119026,0,0
79.800014864,1,0
79.800443952,1,1
80.300340784,0,1
80.300770082,0,0
80.800666576,1,0
80.801095292,1,1
81.300992424,0,1
81.301422138,0,0
81.801318082,1,0
81.801747316,1,1
82.301643962,0,1
82.302073402,0,0
82.801969460,1,0
82.802398320,1,1
83.302295528,0,1
83.302724838,0,0
83.802621040,1,0
83.803050434,1,1
84.302946946,0,1
84.303375652,0,0
84.803272978,1,0
84.803702600,1,1
85.303598422,0,1
85.304027604,0,0
85.803924178,1,0
85.804353552,1,1
86.304249942,0,1
86.304678690,0,0
86.804575962,1,0
86.805005080,1,1
87.304901520,0,1
87.305330846,0,0
87.805227610,1,0
87.805657264,1,1
88.305553380,0,1
88.305981790,0,0
88.805879152,1,0
88.806308458,1,1
89.306204866,0,1
89.306634214,0,0
89.806530874,1,0
89.806960514,1,1
90.306856420,0,1
90.307284870,0,0
90.807182304,1,0
90.807611704,1,1
91.307508044,0,1
91.307937346,0,0
91.807833688,1,0
91.808262904,1,1
92.308159460,0,1
92.308588032,0,0
92.808485360,1,0
92.808914922,1,1
93.308811046,0,1
93.309240158,0,0
93.809137176,1,0
93.809566596,1,1
94.309462610,0,1
94.309891416,0,0
94.809788418,1,0
94.810217774,1,1
95.310114356,0,1
95.310543762,0,0
95.810440266,1,0
95.810869436,1,1
96.310765900,0,1
96.311194426,0,0
96.811091570,1,0
96.811521052,1,1
97.311417340,0,1
97.311846582,0,0
97.811743430,1,0
97.812172964,1,1
98.312068928,0,1
98.312497548,0,0
98.812395112,1,0
98.812824694,1,1
99.312720518,0,1
99.313149712,0,0
99.813046336,1,0
99.813475694,1,1
100.313372108,0,1
100.313800646,0,0
100.813697906,1,0
100.814127510,1,1
101.314023692,0,1
101.314452924,0,0
101.814349506,1,0
101.814778890,1,1
102.314675276,0,1
102.315104280,0,0
102.815001324,1,0
102.815430488,1,1
103.315326908,0,1
103.315756434,0,0
103.815652670,1,0
103.816082106,1,1
104.315978706,0,1
104.316407748,0,0
104.816304602,1,0
104.816733898,1,1
105.316630174,0,1
105.317059586,0,0
105.816956026,1,0
105.817385618,1,1
106.317281850,0,1
106.317710774,0,0
106.817607594,1,0
106.818036970,1,1
107.317933200,0,1
107.318362718,0,0
107.818258960,1,0
107.818688734,1,1
108.318584728,0,1
108.319013186,0,0
108.818910908,1,0
108.819340198,1,1
109.319236310,0,1
109.319665864,0,0
109.819562102,1,0
109.819991870,1,1
110.319888158,0,1
110.320316732,0,0
110.820213968,1,0
110.820643302,1,1
111.320539504,0,1
111.320968996,0,0
111.820865526,1,0
111.821294984,1,1
112.321191004,0,1
112.321619604,0,0
112.821517010,1,0
112.821946590,1,1
113.321842554,0,1
113.322271766,0,0
113.822168492,1,0
113.822597134,1,1
114.322494464,0,1
114.322923790,0,0
114.822820230,1,0
114.823249708,1,1
115.323145906,0,1
115.323575284,0,0
115.823471420,1,0
115.823900004,1,1
116.323797528,0,1
116.324226914,0,0
116.824123000,1,0
116.824552182,1,1
117.324448914,0,1
117.324878350,0,0
117.824774494,1,0
117.825203254,1,1
118.325100330,0,1
118.325529634,0,0
118.825426042,1,0
118.825855358,1,1
119.325751794,0,1
119.326181236,0,0
119.826077722,1,0
119.826506640,1,1
120.326403544,0,1
120.326832730,0,0
120.826729300,1,0
120.827158478,1,1
121.327054868,0,1
121.327484502,0,0
121.827380840,1,0
121.827809202,1,1
122.327706482,0,1
122.328135800,0,0
122.828032362,1,0
122.828461684,1,1
123.328357930,0,1
123.328787608,0,0
123.828683950,1,0
123.829112274,1,1
124.329009668,0,1
124.329438912,0,0
124.829335422,1,0
124.829764760,1,1
125.329661308,0,1
125.330090948,0,0
125.829986764,1,0
125.830415116,1,1
126.330312606,0,1
126.330741954,0,0
126.830638358,1,0
126.831068056,1,1
127.330964044,0,1
127.331393222,0,0
127.831289932,1,0
127.831718504,1,1
128.331615660,0,1
128.332045106,0,0
128.831941344,1,0
128.832370952,1,1
129.332267358,0,1
129.332696688,0,0
129.832593198,1,0
129.833021668,1,1
130.332918694,0,1
130.333348068,0,0
130.833244382,1,0
130.833674046,1,1
131.333570394,0,1
131.333999564,0,0
131.833895916,1,0
131.834324444,1,1
132.334221840,0,1
132.334651552,0,0
132.834547462,1,0
132.834976612,1,1
133.334873296,0,1
133.335302526,0,0
133.835199200,1,0
133.835627770,1,1
134.335524740,0,1
134.335954354,0,0
134.835850412,1,0
134.836279610,1,1
135.336176430,0,1
135.336605758,0,0
135.836501930,1,0
135.836930552,1,1
136.336827660,0,1
136.337257300,0,0
136.837153436,1,0
136.837582612,1,1
137.337479166,0,1
137.337908720,0,0
137.837804940,1,0
137.838233812,1,1
138.338130878,0,1
138.338560126,0,0
138.838456618,1,0
138.838886034,1,1
139.338782172,0,1
139.339211616,0,0
139.839108278,1,0
139.839537158,1,1
140.339434044,0,1
140.339863308,0,0
140.839759452,1,0
140.840188836,1,1
141.340085500,0,1
141.340514904,0,0
141.840410960,1,0
141.840839232,1,1
142.340736790,0,1
142.341166174,0,0
142.841062550,1,0
142.841491836,1,1
143.341388414,0,1
143.341818102,0,0
143.841713974,1,0
143.842143280,1,1
144.342039882,0,1
144.342469098,0,0
144.842365486,1,0
144.842794910,1,1
145.342691364,0,1
145.343120328,0,0
145.843017210,1,0
145.843446508,1,1
146.343343076,0,1
146.343772326,0,0
146.843668784,1,0
146.844098338,1,1
147.343994382,0,1
147.344422910,0,0
147.844320220,1,0
147.844749482,1,1
148.344646080,0,1
148.345075546,0,0
148.844971824,1,0
148.845401434,1,1
149.345297506,0,1
149.345725926,0,0
149.845622998,1,0
149.846052178,1,1
150.345949066,0,1
150.346378598,0,0
150.846274838,1,0
150.846704446,1,1
151.346600498,0,1
151.347028936,0,0
151.846925994,1,0
151.847355386,1,1
152.347252062,0,1
152.347681668,0,0
152.847577810,1,0
152.848007170,1,1
153.347903220,0,1
153.348331826,0,0
153.848228974,1,0
153.848658278,1,1
154.348554766,0,1
154.348984402,0,0
154.848880488,1,0
154.849309654,1,1
155.349206358,0,1
155.349634944,0,0
155.849531992,1,0
155.849961344,1,1
156.349857726,0,1
156.350287386,0,0
156.850183504,1,0
156.850612836,1,1
157.350509376,0,1
157.350938018,0,0
157.850834992,1,0
157.851264616,1,1
158.351160914,0,1
158.351590102,0,0
158.851486516,1,0
158.851915868,1,1
159.351812386,0,1
159.352241002,0,0
159.852138222,1,0
159.852567850,1,1
160.352463738,0,1
160.352892888,0,0
160.852789506,1,0
160.853218888,1,1
161.353115228,0,1
161.353543944,0,0
161.853441076,1,0
161.853870210,1,1
162.353766890,0,1
162.354196268,0,0
162.854092480,1,0
162.854521864,1,1
163.354418342,0,1
163.354847182,0,0
163.854744332,1,0
163.855173508,1,1
164.355069686,0,1
164.355499026,0,0
164.855395726,1,0
164.855825120,1,1
165.355721444,0,1
165.356150220,0,0
165.856047142,1,0
165.856476264,1,1
166.356372654,0,1
166.356801864,0,0
166.856698544,1,0
166.857128192,1,1
167.357024410,0,1
167.357452868,0,0
167.857349894,1,0
167.857779060,1,1
168.357675946,0,1
168.358105508,0,0
168.858001676,1,0
168.858431372,1,1
169.358327346,0,1
169.358755858,0,0
169.858653196,1,0
169.859082570,1,1
170.358978544,0,1
170.359407938,0,0
170.859304412,1,0
170.859734050,1,1
171.359630200,0,1
171.360058602,0,0
171.859955778,1,0
171.860385574,1,1
172.360281544,0,1
172.360710882,0,0
172.860607532,1,0
172.861036942,1,1
173.360933112,0,1
173.361361676,0,0
173.861258966,1,0
173.861688604,1,1
174.361584450,0,1
174.362013684,0,0
174.861910546,1,0
174.862339042,1,1
175.362236030,0,1
175.362665406,0,0
175.862561690,1,0
175.862991328,1,1
176.362887406,0,1
176.363316690,0,0
176.863213308,1,0
176.863642070,1,1
177.363539246,0,1
177.363968508,0,0
177.863864638,1,0
177.864294018,1,1
178.364190352,0,1
178.364619698,0,0
178.864516384,1,0
178.864945274,1,1
179.364842188,0,1
179.365271470,0,0
179.865167574,1,0
179.865596862,1,1
180.365493556,0,1
180.365923060,0,0
180.865819170,1,0
180.866247984,1,1
181.366144938,0,1
181.366574132,0,0
181.866470522,1,0
181.866899864,1,1
182.366796462,0,1
182.367226200,0,0
182.867121934,1,0
182.867550388,1,1
183.367448004,0,1
183.367877414,0,0
183.867773726,1,0
183.868203204,1,1
184.368099300,0,1
184.368529028,0,0
184.868424970,1,0
184.868853412,1,1
185.368750896,0,1
185.369180268,0,0
185.869076450,1,0
185.869505736,1,1
186.369402292,0,1
186.369831992,0,0
186.869727718,1,0
186.870156152,1,1
187.370053628,0,1
187.370483102,0,0
187.870379248,1,0
187.870808802,1,1
188.370704866,0,1
188.371134192,0,0
188.871030614,1,0
188.871459208,1,1
189.371356402,0,1
189.371785830,0,0
189.871682430,1,0
189.872112044,1,1
190.372008038,0,1
190.372437310,0,0
190.872333650,1,0
190.872762206,1,1
191.372659574,0,1
191.373089024,0,0
191.872984952,1,0
191.873414146,1,1
192.373310654,0,1
192.373740004,0,0
192.873636404,1,0
192.874065016,1,1
193.373962472,0,1
193.374392150,0,0
193.874287852,1,0
193.874717126,1,1
194.374613554,0,1
194.375042876,0,0
194.874939576,1,0
194.875368122,1,1
195.375265210,0,1
195.375694770,0,0
195.875590794,1,0
195.876019998,1,1
196.375916438,0,1
196.376345896,0,0
196.876242452,1,0
196.876671246,1,1
197.376567952,0,1
197.376997132,0,0
197.876893654,1,0
197.877323036,1,1
198.377219296,0,1
198.377648726,0,0
198.877545308,1,0
198.877974210,1,1
199.377870724,0,1
199.378299918,0,0
199.878196636,1,0
199.878625890,1,1
200.378522154,0,1
200.378951536,0,0
200.878847894,1,0
200.879276694,1,1
201.379173956,0,1
201.379603110,0,0
201.879499330,1,0
201.879928596,1,1
202.379825026,0,1
202.380254750,0,0
202.880151042,1,0
202.880579408,1,1
203.380476830,0,1
203.380906208,0,0
203.880802254,1,0
203.881231750,1,1
204.381128172,0,1
204.381557978,0,0
204.881453634,1,0
204.881882066,1,1
205.381779408,0,1
205.382208878,0,0
205.882105112,1,0
205.882534620,1,1
206.382430752,0,1
206.382860450,0,0
206.882756624,1,0
206.883185114,1,1
207.383082396,0,1
207.383511700,0,0
207.883408054,1,0
207.883837604,1,1
208.383733828,0,1
208.384163214,0,0
208.884059272,1,0
208.884487732,1,1
209.384384998,0,1
209.384814390,0,0
209.884710664,1,0
209.885140342,1,1
210.385036650,0,1
210.385466030,0,0
210.885362144,1,0
210.885790762,1,1
211.385687916,0,1
211.386117414,0,0
211.886013468,1,0
211.886442584,1,1
212.386339084,0,1
212.386768430,0,0
212.886664776,1,0
212.887093572,1,1
213.386990826,0,1
213.387420078,0,0
213.887316508,1,0
213.887746154,1,1
214.387642146,0,1
214.388071412,0,0
214.887967800,1,0
214.888396442,1,1
215.388293196,0,1
215.388722832,0,0
215.888619078,1,0
215.889048392,1,1
216.388944562,0,1
216.389374084,0,0
216.889270540,1,0
216.889699008,1,1
217.389596130,0,1
217.390025490,0,0
217.889921626,1,0
217.890351106,1,1
218.390247282,0,1
218.390676960,0,0
218.890573260,1,0
218.891001878,1,1
219.390898854,0,1
219.391328288,0,0
219.891224400,1,0
219.891653810,1,1
220.391550284,0,1
220.391980034,0,0
220.891875710,1,0
220.892304270,1,1
221.392201736,0,1
221.392631110,0,0
221.892527124,1,0
221.892956636,1,1
222.392853052,0,1
222.393282396,0,0
222.893178582,1,0
222.893607060,1,1
223.393504312,0,1
223.393933662,0,0
223.893829862,1,0
223.894259560,1,1
224.394155478,0,1
224.394584800,0,0
224.894481188,1,0
224.894909746,1,1
225.394806932,0,1
225.395236266,0,0
225.895132554,1,0
225.895562176,1,1
226.395458366,0,1
226.395887760,0,0
226.895784196,1,0
226.896212692,1,1
227.396109944,0,1
227.396539432,0,0
227.896435452,1,0
227.896864676,1,1
228.396760934,0,1
228.397190296,0,0
228.897086928,1,0
228.897515526,1,1
229.397412294,0,1
229.397842078,0,0
229.897738038,1,0
229.898167256,1,1
230.398063654,0,1
230.398493086,0,0
230.898389632,1,0
230.898818244,1,1
231.398715098,0,1
231.399144776,0,0
231.899040766,1,0
231.899470316,1,1
232.399366370,0,1
232.399796170,0,0
232.899692344,1,0
232.900120708,1,1
233.400017930,0,1
233.400447250,0,0
233.900343422,1,0
233.900772772,1,1
234.400669354,0,1
234.401099098,0,0
234.900994780,1,0
234.901423370,1,1
235.401320668,0,1
235.401750062,0,0
235.901646450,1,0
235.902075782,1,1
236.401971784,0,1
236.402401474,0,0
236.902297774,1,0
236.902726328,1,1
237.402623502,0,1
237.403053012,0,0
237.902948874,1,0
237.903378084,1,1
238.403274484,0,1
238.403703828,0,0
238.903600178,1,0
238.904028798,1,1
239.403925912,0,1
239.404355608,0,0
239.904251574,1,0
239.904680828,1,1
240.404577176,0,1
240.405006620,0,0
240.904902872,1,0
240.905331472,1,1
241.405228726,0,1
241.405658362,0,0
241.905554210,1,0
241.905983410,1,1
242.405879882,0,1
242.406309442,0,0
242.906205916,1,0
242.906634776,1,1
243.406531378,0,1
243.406960508,0,0
243.906857274,1,0
243.907286774,1,1
244.407182856,0,1
244.407612514,0,0
244.907508414,1,0
244.907936916,1,1
245.407834002,0,1
245.408263306,0,0
245.908159658,1,0
245.908589074,1,1
246.408485252,0,1
246.408915012,0,0
246.908811214,1,0
246.909239670,1,1
247.409136946,0,1
247.409566452,0,0
247.909462266,1,0
247.909891936,1,1
248.409788184,0,1
248.410217392,0,0
248.910113740,1,0
248.910542294,1,1
249.410439474,0,1
249.410868984,0,0
249.910764930,1,0
249.911194552,1,1
250.411090572,0,1
250.411519876,0,0
250.911416554,1,0
250.911845046,1,1
251.411742114,0,1
251.412171584,0,0
251.912067642,1,0
251.912496856,1,1
252.412393234,0,1
252.412822580,0,0
252.912718920,1,0
252.913147522,1,1
253.413044560,0,1
253.413474272,0,0
253.913370296,1,0
253.913799564,1,1
254.413695888,0,1
254.414125292,0,0
254.914021912,1,0
254.914450464,1,1
255.414347308,0,1
255.414777106,0,0
255.914673090,1,0
255.915102362,1,1
256.414998834,0,1
256.415428292,0,0
256.915324518,1,0
256.915753310,1,1
257.415650250,0,1
257.416079484,0,0
257.915975740,1,0
257.916404994,1,1
258.416301472,0,1
258.416731024,0,0
258.916627084,1,0
258.917055896,1,1
259.416952876,0,1
259.417382108,0,0
259.917278232,1,0
259.917707496,1,1
260.417603826,0,1
260.418033190,0,0
260.917929504,1,0
260.918358378,1,1
261.418255412,0,1
261.418684720,0,0
261.918580990,1,0
261.919010348,1,1
262.418906450,0,1
262.419336212,0,0
262.919232418,1,0
262.919660896,1,1
263.419557842,0,1
263.419987152,0,0
263.919883610,1,0
263.920313106,1,1
264.420209060,0,1
264.420638710,0,0
264.920534726,1,0
264.920963110,1,1
265.420860428,0,1
265.421289716,0,0
265.921186180,1,0
265.921615432,1,1
266.421511622,0,1
266.421941220,0,0
266.921837284,1,0
266.922051274,0,0
266.922327680,0,1
273.940480000,0,1
