Time [s],Channel 0,Channel 1
3.095934840,0,0
3.195698444,1,0
3.196151730,1,1
3.295914318,0,1
3.296366484,0,0
3.396129702,1,0
3.396582634,1,1
3.496345592,0,1
3.496797872,0,0
3.596560960,1,0
3.597014178,1,1
3.696776816,0,1
3.697228876,0,0
3.796992550,1,0
3.797445624,1,1
3.897207906,0,1
3.897660180,0,0
3.997423798,1,0
3.997877212,1,1
4.097639162,0,1
4.098091126,0,0
4.197854728,1,0
4.198307732,1,1
4.298070358,0,1
4.298522704,0,0
4.398285982,1,0
4.398738636,1,1
4.498501838,0,1
4.498954040,0,0
4.598717562,1,0
4.599170314,1,1
4.698933090,0,1
4.699385728,0,0
4.799148564,1,0
4.799601526,1,1
4.899364376,0,1
4.899816614,0,0
4.999579942,1,0
5.000033146,1,1
5.099795628,0,1
5.100247974,0,0
5.200010994,1,0
5.200463866,1,1
5.300226846,0,1
5.300679136,0,0
5.400442286,1,0
5.400895434,1,1
5.500657932,0,1
5.501110472,0,0
5.600873696,1,0
5.601326430,1,1
5.701089384,0,1
5.701541608,0,0
5.801304880,1,0
5.801757874,1,1
5.901520600,0,1
5.901973162,0,0
6.001736322,1,0
6.002189244,1,1
6.101951626,0,1
6.102403606,0,0
6.202167380,1,0
6.202620496,1,1
6.302382934,0,1
6.302835568,0,0
6.402598498,1,0
6.403051416,1,1
6.502814124,0,1
6.503266336,0,0
6.603030072,1,0
6.603482860,1,1
6.703245634,0,1
6.703698222,0,0
6.803461040,1,0
6.803913972,1,1
6.903676684,0,1
6.904128908,0,0
7.003892248,1,0
7.004344474,1,1
7.104107934,0,1
7.104559970,0,0
7.204323498,1,0
7.204776492,1,1
7.304539350,0,1
7.304991580,0,0
7.404755014,1,0
7.405208328,1,1
7.504970434,0,1
7.505422430,0,0
7.605186030,1,0
7.605638802,1,1
7.705401624,0,1
7.705853946,0,0
7.805617246,1,0
7.806070494,1,1
7.905832874,0,1
7.906285012,0,0
8.006048536,1,0
8.006501460,1,1
8.106264348,0,1
8.106716470,0,0
8.206480068,1,0
8.206933390,1,1
8.306695428,0,1
8.307147426,0,0
8.406910992,1,0
8.407364054,1,1
8.507126744,0,1
8.507579006,0,0
8.607342282,1,0
8.607795460,1,1
8.707557924,0,1
8.708010004,0,0
8.807773630,1,0
8.808226748,1,1
8.907989338,0,1
8.908441668,0,0
9.008204734,1,0
9.008657946,1,1
9.108420360,0,1
9.108872272,0,0
9.208636306,1,0
9.209089244,1,1
9.308851664,0,1
9.309304044,0,0
9.409067360,1,0
9.409520856,1,1
9.509283078,0,1
9.509735208,0,0
9.609498474,1,0
9.609951262,1,1
9.709714100,0,1
9.710166322,0,0
9.809929854,1,0
9.810383200,1,1
9.910145480,0,1
9.910597636,0,0
10.010360968,1,0
10.010813998,1,1
10.110576876,0,1
10.111029040,0,0
10.210792356,1,0
10.211245762,1,1
10.311007840,0,1
10.311459930,0,0
10.411223460,1,0
10.411676542,1,1
10.511439312,0,1
10.511891644,0,0
10.611654748,1,0
10.612107948,1,1
10.711870400,0,1
10.712322558,0,0
10.812086278,1,0
10.812539270,1,1
10.912301896,0,1
10.912754272,0,0
11.012517418,1,0
11.012970750,1,1
11.112732826,0,1
11.113184860,0,0
11.212948664,1,0
11.213401714,1,1
11.313164358,0,1
11.313616682,0,0
11.413380020,1,0
11.413833412,1,1
11.513595320,0,1
11.514047562,0,0
11.613811158,1,0
11.614264016,1,1
11.714026826,0,1
11.714479160,0,0
11.814242406,1,0
11.814695704,1,1
11.914458074,0,1
11.914910338,0,0
12.014673480,1,0
12.015125924,1,1
12.114889124,0,1
12.115341092,0,0
12.215104888,1,0
12.215557862,1,1
12.315320540,0,1
12.315772794,0,0
12.415536260,1,0
12.415989656,1,1
12.515751562,0,1
12.516203706,0,0
12.615967510,1,0
12.616420326,1,1
12.716183120,0,1
12.716635468,0,0
12.816398432,1,0
12.816851748,1,1
12.916614060,0,1
12.917066248,0,0
13.016829682,1,0
13.017282694,1,1
13.117045592,0,1
13.117497936,0,0
13.217261132,1,0
13.217714072,1,1
13.317476616,0,1
13.317928806,0,0
13.417692222,1,0
13.418145302,1,1
13.517908124,0,1
13.518360670,0,0
13.618123428,1,0
13.618576224,1,1
13.718339190,0,1
13.718791348,0,0
13.818554678,1,0
13.819007628,1,1
13.918770304,0,1
13.919222928,0,0
14.018986142,1,0
14.019438940,1,1
14.119201778,0,1
14.119653182,0,0
14.219417174,1,0
14.219870434,1,1
14.319633058,0,1
14.320085168,0,0
14.419848420,1,0
14.420301514,1,1
14.520064046,0,1
14.520516364,0,0
14.620280000,1,0
14.620733184,1,1
14.720495294,0,1
14.720947510,0,0
14.820711048,1,0
14.821163904,1,1
14.920926598,0,1
14.921378938,0,0
15.021142486,1,0
15.021595816,1,1
15.121358028,0,1
15.121810008,0,0
15.221573740,1,0
15.222026828,1,1
15.321789090,0,1
15.322241428,0,0
15.422004786,1,0
15.422458154,1,1
15.522220280,0,1
15.522672388,0,0
15.622435900,1,0
15.622888674,1,1
15.722651584,0,1
15.723103814,0,0
15.822867472,1,0
15.823320692,1,1
15.923082774,0,1
15.923535042,0,0
16.023298536,1,0
16.023750760,1,1
16.123514080,0,1
16.123966442,0,0
16.223729642,1,0
16.224182628,1,1
16.323945268,0,1
16.324397378,0,0
16.424160890,1,0
16.424614088,1,1
16.524376574,0,1
16.524829168,0,0
16.624592354,1,0
16.625045070,1,1
16.724807822,0,1
16.725260126,0,0
16.825023526,1,0
16.825476484,1,1
16.925239012,0,1
16.925691666,0,0
17.025454832,1,0
17.025906932,1,1
17.125670542,0,1
17.126122898,0,0
17.225885880,1,0
17.226338830,1,1
17.326101732,0,1
17.326553912,0,0
17.426317262,1,0
17.426770388,1,1
17.526532982,0,1
17.526985502,0,0
17.626748378,1,0
17.627201120,1,1
17.726964230,0,1
17.727416286,0,0
17.827179768,1,0
17.827633070,1,1
17.927395478,0,1
17.927847750,0,0
18.027610876,1,0
18.028063702,1,1
18.127826728,0,1
18.128278384,0,0
18.228042324,1,0
18.228495200,1,1
18.328258010,0,1
18.328710198,0,0
18.428473574,1,0
18.428926706,1,1
18.528689226,0,1
18.529141546,0,0
18.628904838,1,0
18.629357812,1,1
18.729120250,0,1
18.729572544,0,0
18.829335870,1,0
18.829788986,1,1
18.929551556,0,1
18.930004084,0,0
19.029767262,1,0
19.030219968,1,1
19.129982806,0,1
19.130435090,0,0
19.230198368,1,0
19.230651414,1,1
19.330414254,0,1
19.330866812,0,0
19.430629618,1,0
19.431082504,1,1
19.530845378,0,1
19.531297342,0,0
19.631060866,1,0
19.631513942,1,1
19.731276628,0,1
19.731729188,0,0
19.831492116,1,0
19.831944914,1,1
19.931707868,0,1
19.932160210,0,0
20.031923566,1,0
20.032376710,1,1
20.132139252,0,1
20.132591382,0,0
20.232354940,1,0
20.232807990,1,1
20.332570242,0,1
20.333022438,0,0
20.432786190,1,0
20.433239646,1,1
20.533001492,0,1
20.533453420,0,0
20.633217114,1,0
20.633670054,1,1
20.733432742,0,1
20.733885100,0,0
20.833648404,1,0
20.834101642,1,1
20.933863990,0,1
20.934316074,0,0
21.034079612,1,0
21.034532492,1,1
21.134295298,0,1
21.134747814,0,0
21.234511078,1,0
21.234963974,1,1
21.334726488,0,1
21.335178620,0,0
21.434942310,1,0
21.435395480,1,1
21.535157996,0,1
21.535610436,0,0
21.635373560,1,0
21.635826586,1,1
21.735588988,0,1
21.736041316,0,0
21.835804826,1,0
21.836257958,1,1
21.936020486,0,1
21.936473088,0,0
22.036235858,1,0
22.036688714,1,1
22.136451710,0,1
22.136903386,0,0
22.236667106,1,0
22.237119852,1,1
22.336882792,0,1
22.337334932,0,0
22.437098572,1,0
22.437551840,1,1
22.537314208,0,1
22.537766546,0,0
22.637529604,1,0
22.637982660,1,1
22.737745366,0,1
22.738197558,0,0
22.837960988,1,0
22.838413964,1,1
22.938176540,0,1
22.938629210,0,0
23.038392320,1,0
23.038845094,1,1
23.138608046,0,1
23.139060364,0,0
23.238823392,1,0
23.239276454,1,1
23.339039036,0,1
23.339491618,0,0
23.439254924,1,0
23.439707990,1,1
23.539470226,0,1
23.539922278,0,0
23.639685848,1,0
23.640138944,1,1
23.739901476,0,1
23.740354040,0,0
23.840117098,1,0
23.840569998,1,1
23.940333008,0,1
23.940785328,0,0
24.040548346,1,0
24.041001510,1,1
24.140764032,0,1
24.141216230,0,0
24.240979812,1,0
24.241432838,1,1
24.341195280,0,1
24.341647484,0,0
24.441410844,1,0
24.441864240,1,1
24.541626788,0,1
24.542078728,0,0
24.641842134,1,0
24.642295110,1,1
24.742057720,0,1
24.742509974,0,0
24.842273650,1,0
24.842726964,1,1
24.942489094,0,1
24.942941260,0,0
25.042704590,1,0
25.043157492,1,1
25.142920216,0,1
25.143372830,0,0
25.243135838,1,0
25.243588920,1,1
25.343351464,0,1
25.343803566,0,0
25.443567126,1,0
25.444020338,1,1
25.543782712,0,1
25.544235126,0,0
25.643998466,1,0
25.644451374,1,1
25.744214218,0,1
25.744666536,0,0
25.844429580,1,0
25.844882626,1,1
25.944645290,0,1
25.945097990,0,0
26.044861152,1,0
26.045313904,1,1
26.145076536,0,1
26.145528034,0,0
26.245292408,1,0
26.245745764,1,1
26.345507926,0,1
26.345959928,0,0
26.445723322,1,0
26.446176434,1,1
26.545939172,0,1
26.546391238,0,0
26.646154602,1,0
26.646608020,1,1
26.746370194,0,1
26.746822316,0,0
26.846586142,1,0
26.847039190,1,1
26.946801500,0,1
26.947253768,0,0
27.047017198,1,0
27.047469942,1,1
27.147232748,0,1
27.147684970,0,0
27.247448636,1,0
27.247901660,1,1
27.347663996,0,1
27.348116572,0,0
27.447879560,1,0
27.448332428,1,1
27.548095412,0,1
27.548547466,0,0
27.648311008,1,0
27.648764082,1,1
27.748526660,0,1
27.748979160,0,0
27.848742256,1,0
27.849195182,1,1
27.948957916,0,1
27.949410062,0,0
28.049173520,1,0
28.049626576,1,1
28.149388930,0,1
28.149841030,0,0
28.249604686,1,0
28.250057752,1,1
28.349820238,0,1
28.350272464,0,0
28.450035802,1,0
28.450489088,1,1
28.550251428,0,1
28.550703474,0,0
28.650467268,1,0
28.650920390,1,1
28.750682738,0,1
28.751134968,0,0
28.850898302,1,0
28.851351708,1,1
28.951113930,0,1
28.951565920,0,0
29.051329686,1,0
29.051782636,1,1
29.151545406,0,1
29.151997940,0,0
29.251761130,1,0
29.252214028,1,1
29.351976658,0,1
29.352428840,0,0
29.452192390,1,0
29.452645396,1,1
29.552407910,0,1
29.552860318,0,0
29.652623334,1,0
29.653076232,1,1
29.752839162,0,1
29.753291376,0,0
29.853054560,1,0
29.853507684,1,1
29.953270188,0,1
29.953722762,0,0
30.053486012,1,0
30.053938110,1,1
30.153701440,0,1
30.154153798,0,0
30.253917064,1,0
30.254370354,1,1
30.354132692,0,1
30.354584834,0,0
30.454348316,1,0
30.454801274,1,1
30.554563944,0,1
30.555016012,0,0
30.654779568,1,0
30.655232876,1,1
30.754995456,0,1
30.755447490,0,0
30.855210854,1,0
30.855663880,1,1
30.955426582,0,1
30.955878926,0,0
31.055642072,1,0
31.056095292,1,1
31.155857700,0,1
31.156309896,0,0
31.256073324,1,0
31.256526302,1,1
31.356289028,0,1
31.356741266,0,0
31.456504718,1,0
31.456958006,1,1
31.556720462,0,1
31.557172510,0,0
31.656935870,1,0
31.657388942,1,1
31.757151714,0,1
31.757604038,0,0
31.857367414,1,0
31.857820744,1,1
31.957582766,0,1
31.958034824,0,0
32.057798332,1,0
32.058251356,1,1
32.158013960,0,1
32.158466076,0,0
32.258229626,1,0
32.258682534,1,1
32.358445270,0,1
32.358897580,0,0
32.458661160,1,0
32.459114470,1,1
32.558876522,0,1
32.559328424,0,0
32.659092304,1,0
32.659545406,1,1
32.759307942,0,1
32.759760186,0,0
32.859523474,1,0
32.859976642,1,1
32.959738972,0,1
32.960191138,0,0
33.059954596,1,0
33.060407420,1,1
33.160170226,0,1
33.160622808,0,0
33.260385850,1,0
33.260838698,1,1
33.360601538,0,1
33.361053644,0,0
33.460817246,1,0
33.461270284,1,1
33.561033050,0,1
33.561485306,0,0
33.661248558,1,0
33.661701570,1,1
33.761464046,0,1
33.761916300,0,0
33.861679930,1,0
33.862132990,1,1
33.961895310,0,1
33.962347802,0,0
34.062111010,1,0
34.062563068,1,1
34.162326566,0,1
34.162778938,0,0
34.262542324,1,0
34.262995612,1,1
34.362757980,0,1
34.363210126,0,0
34.462973580,1,0
34.463426516,1,1
34.563189010,0,1
34.563641104,0,0
34.663404634,1,0
34.663858002,1,1
34.763620266,0,1
34.764072498,0,0
34.863836216,1,0
34.864289172,1,1
34.964051580,0,1
34.964503934,0,0
35.064267146,1,0
35.064720416,1,1
35.164482778,0,1
35.164934954,0,0
35.264698404,1,0
35.265151342,1,1
35.364914034,0,1
35.365366238,0,0
35.465129660,1,0
35.465582978,1,1
35.565345348,0,1
35.565797314,0,0
35.665560956,1,0
35.666013946,1,1
35.765776604,0,1
35.766228840,0,0
35.865992504,1,0
35.866445712,1,1
35.966208026,0,1
35.966660142,0,0
36.066423428,1,0
36.066876224,1,1
36.166639058,0,1
36.167091694,0,0
36.266854684,1,0
36.267307500,1,1
36.367070448,0,1
36.367522780,0,0
36.467285940,1,0
36.467738986,1,1
36.567501570,0,1
36.567953908,0,0
36.667717196,1,0
36.668170224,1,1
36.767932826,0,1
36.768384952,0,0
36.868148668,1,0
36.868601710,1,1
36.968364082,0,1
36.968816656,0,0
37.068579924,1,0
37.069032838,1,1
37.168795570,0,1
37.169248110,0,0
37.269010960,1,0
37.269463968,1,1
37.369226848,0,1
37.369679030,0,0
37.469442214,1,0
37.469895322,1,1
37.569657902,0,1
37.570110442,0,0
37.669873610,1,0
37.670326408,1,1
37.770089156,0,1
37.770541488,0,0
37.870304764,1,0
37.870757778,1,1
37.970520352,0,1
37.970972874,0,0
38.070736302,1,0
38.071188390,1,1
38.170951740,0,1
38.171411270,0,0
38.271167272,1,0
38.271620728,1,1
38.371383178,0,1
38.371835282,0,0
38.471598520,1,0
38.472051622,1,1
38.571814400,0,1
38.572266526,0,0
38.672029740,1,0
38.672483124,1,1
38.772245370,0,1
38.772697554,0,0
38.872460996,1,0
38.872913928,1,1
38.972676944,0,1
38.973129240,0,0
39.072892294,1,0
39.073345454,1,1
39.173107882,0,1
39.173559976,0,0
39.273323724,1,0
39.273776766,1,1
39.373539138,0,1
39.373991496,0,0
39.473755030,1,0
39.474208436,1,1
39.573970454,0,1
39.574422340,0,0
39.674186154,1,0
39.674639156,1,1
39.774401708,0,1
39.774854052,0,0
39.874617600,1,0
39.875070924,1,1
39.974832964,0,1
39.975285088,0,0
40.075048856,1,0
40.075501770,1,1
40.175264220,0,1
40.175716690,0,0
40.275479828,1,0
40.275932830,1,1
40.375695418,0,1
40.376147694,0,0
40.475911376,1,0
40.476364400,1,1
40.576126732,0,1
40.576578972,0,0
40.676342632,1,0
40.676795552,1,1
40.776558156,0,1
40.777010414,0,0
40.876773890,1,0
40.877226854,1,1
40.976989246,0,1
40.977441882,0,0
41.077204812,1,0
41.077657680,1,1
41.177420760,0,1
41.177873068,0,0
41.277636270,1,0
41.278089706,1,1
41.377851702,0,1
41.378303768,0,0
41.478067328,1,0
41.478520306,1,1
41.578283218,0,1
41.578735374,0,0
41.678498586,1,0
41.678951854,1,1
41.778714218,0,1
41.779166398,0,0
41.878929886,1,0
41.879383004,1,1
41.979145474,0,1
41.979597846,0,0
42.079361242,1,0
42.079813360,1,1
42.179576866,0,1
42.180029112,0,0
42.279792492,1,0
42.280245850,1,1
42.380008248,0,1
42.380460410,0,0
42.480223750,1,0
42.480676764,1,1
42.580439506,0,1
42.580891682,0,0
42.680655072,1,0
42.681108346,1,1
42.780870562,0,1
42.781322772,0,0
42.881086262,1,0
42.881539176,1,1
42.981301986,0,1
42.981754220,0,0
43.081517388,1,0
43.081970516,1,1
43.181733278,0,1
43.182185402,0,0
43.281948778,1,0
43.282401790,1,1
43.382164336,0,1
43.382616516,0,0
43.482379904,1,0
43.482833172,1,1
43.582595536,0,1
43.583047356,0,0
43.682811162,1,0
43.683264086,1,1
43.783026796,0,1
43.783479114,0,0
43.883242638,1,0
43.883695868,1,1
43.983458346,0,1
43.983910428,0,0
44.083674014,1,0
44.084127158,1,1
44.183889314,0,1
44.184341376,0,0
44.284104940,1,0
44.284557914,1,1
44.384320574,0,1
44.384772926,0,0
44.484536242,1,0
44.484989430,1,1
44.584751834,0,1
44.585203866,0,0
44.684967460,1,0
44.685420380,1,1
44.785183228,0,1
44.785635608,0,0
44.885399056,1,0
44.885852412,1,1
44.985614354,0,1
44.986066372,0,0
45.085830316,1,0
45.086283286,1,1
45.186045616,0,1
45.186498254,0,0
45.286261244,1,0
45.286714226,1,1
45.386476936,0,1
45.386929088,0,0
45.486692506,1,0
45.487145642,1,1
45.586908272,0,1
45.587360646,0,0
45.687123768,1,0
45.687576626,1,1
45.787339400,0,1
45.787791686,0,0
45.887555354,1,0
45.888008458,1,1
45.987770662,0,1
45.988223202,0,0
46.087986616,1,0
46.088438700,1,1
46.188201984,0,1
46.188654286,0,0
46.288417554,1,0
46.288870858,1,1
46.388633246,0,1
46.389085402,0,0
46.488848858,1,0
46.489301790,1,1
46.589064674,0,1
46.589516810,0,0
46.689280078,1,0
46.689733324,1,1
46.789495712,0,1
46.789947952,0,0
46.889711342,1,0
46.890164324,1,1
46.989927260,0,1
46.990379484,0,0
47.090142806,1,0
47.090595540,1,1
47.190358498,0,1
47.190810718,0,0
47.290573870,1,0
47.291026940,1,1
47.390789504,0,1
47.391242016,0,0
47.491005350,1,0
47.491458222,1,1
47.591221026,0,1
47.591673192,0,0
47.691436438,1,0
47.691889456,1,1
47.791652256,0,1
47.792104816,0,0
47.891867984,1,0
47.892320906,1,1
47.992083516,0,1
47.992535834,0,0
48.092299052,1,0
48.092752064,1,1
48.192514778,0,1
48.192966916,0,0
48.292730180,1,0
48.293183122,1,1
48.392945814,0,1
48.393398018,0,0
48.493161442,1,0
48.493614840,1,1
48.593377208,0,1
48.593829194,0,0
48.693592704,1,0
48.694045708,1,1
48.793808336,0,1
48.794260736,0,0
48.894024182,1,0
48.894477574,1,1
48.994239598,0,1
48.994691652,0,0
49.094455550,1,0
49.094908532,1,1
49.194671084,0,1
49.195123020,0,0
49.294886812,1,0
49.295339824,1,1
49.395102254,0,1
49.395554602,0,0
49.495318072,1,0
49.495771340,1,1
49.595533440,0,1
49.595985476,0,0
49.695749342,1,0
49.696202358,1,1
49.795964894,0,1
49.796417318,0,0
49.896180404,1,0
49.896633824,1,1
49.996396162,0,1
49.996848184,0,0
50.096611532,1,0
50.097063648,1,1
50.196827422,0,1
50.197279900,0,0
50.297042790,1,0
50.297495856,1,1
50.397258482,0,1
50.397710650,0,0
50.497474250,1,0
50.497927372,1,1
50.597689940,0,1
50.598142342,0,0
50.697905352,1,0
50.698358238,1,1
50.798120942,0,1
50.798573332,0,0
50.898336786,1,0
50.898789820,1,1
50.998552462,0,1
50.999005016,0,0
51.098767830,1,0
51.099220546,1,1
51.198983464,0,1
51.199435764,0,0
51.299199134,1,0
51.299652270,1,1
51.399414784,0,1
51.399867346,0,0
51.499630356,1,0
51.500083168,1,1
51.599846248,0,1
51.600298680,0,0
51.700061618,1,0
51.700514518,1,1
51.800277570,0,1
51.800729696,0,0
51.900493216,1,0
51.900946318,1,1
52.000708516,0,1
52.001159362,0,0
52.100924478,1,0
52.101377410,1,1
52.201139780,0,1
52.201592328,0,0
52.301355542,1,0
52.301808550,1,1
52.401571102,0,1
52.402023278,0,0
52.501786714,1,0
52.502239868,1,1
52.602002442,0,1
52.602454836,0,0
52.702217970,1,0
52.702670816,1,1
52.802433798,0,1
52.802886076,0,0
52.902649202,1,0
52.903102364,1,1
53.002865096,0,1
53.003317658,0,0

