Time [s],Channel 0,Channel 1
0.000000000,0,0
6.063101484,1,0
6.064242418,1,1
6.166362370,0,1
6.167476034,0,0
6.269529626,1,0
6.270648340,1,1
6.372740804,0,1
6.373852296,0,0
6.475939150,1,0
6.477059596,1,1
6.579159404,0,1
6.580261826,0,0
6.682374126,1,0
6.683488518,1,1
6.785577186,0,1
6.786690632,0,0
6.888745006,1,0
6.889858830,1,1
6.991956192,0,1
6.993064226,0,0
7.095167528,1,0
7.096271408,1,1
7.198378638,0,1
7.199496822,0,0
7.301589908,1,0
7.302703530,1,1
7.404792424,0,1
7.405902726,0,0
7.507948368,1,0
7.509069014,1,1
7.611168334,0,1
7.612273326,0,0
7.714383062,1,0
7.715501650,1,1
7.817594328,0,1
7.818713312,0,0
7.920804604,1,0
7.921916834,1,1
8.024007028,0,1
8.025109570,0,0
8.127176328,1,0
8.128283492,1,1
8.230387828,0,1
8.231506562,0,0
8.333599028,1,0
8.334716984,1,1
8.436797384,0,1
8.437916878,0,0
8.540015528,1,0
8.541129292,1,1
8.643221866,0,1
8.644325788,0,0
8.746391908,1,0
8.747510926,1,1
8.849603146,0,1
8.850701794,0,0
8.952814304,1,0
8.953933292,1,1
9.056025586,0,1
9.057133810,0,0
9.159234394,1,0
9.160340208,1,1
9.262437048,0,1
9.263549752,0,0
9.365607796,1,0
9.366708622,1,1
9.468806176,0,1
9.469926716,0,0
9.572026292,1,0
9.573145422,1,1
9.675241082,0,1
9.676352308,0,0
9.778449182,1,0
9.779562954,1,1
9.881611894,0,1
9.882714764,0,0
9.984823118,1,0
9.985921184,1,1
10.088034358,0,1
10.089151878,0,0
10.191245516,1,0
10.192359526,1,1
10.294457030,0,1
10.295575660,0,0
10.397664390,1,0
10.398763898,1,1
10.500815170,0,1
10.501934732,0,0
10.604035196,1,0
10.605153836,1,1
10.707249910,0,1
10.708365572,0,0
10.810461142,1,0
10.811580326,1,1
10.913672316,0,1
10.914776676,0,0
11.016878898,1,0
11.017982004,1,1
11.120043138,0,1
11.121161796,0,0
11.223254638,1,0
11.224372234,1,1
11.326466844,0,1
11.327584784,0,0
11.429664418,1,0
11.430773686,1,1
11.532884242,0,1
11.534001488,0,0
11.636094050,1,0
11.637208074,1,1
11.739259030,0,1
11.740377014,0,0
11.842470272,1,0
11.843589276,1,1
11.945681436,0,1
11.946790792,0,0
12.048892718,1,0
12.050001154,1,1
12.152103890,0,1
12.153200270,0,0
12.255309238,1,0
12.256422796,1,1
12.358474924,0,1
12.359593728,0,0
12.461673340,1,0
12.462786096,1,1
12.564893294,0,1
12.566011160,0,0
12.668108182,1,0
12.669209294,1,1
12.771319444,0,1
12.772435058,0,0
12.874523848,1,0
12.875638150,1,1
12.977690176,0,1
12.978787554,0,0
13.080901464,1,0
13.082019852,1,1
13.184112624,0,1
13.185215266,0,0
13.287324118,1,0
13.288440846,1,1
13.390535286,0,1
13.391649418,0,0
13.493738456,1,0
13.494847466,1,1
13.596917754,0,1
13.598034910,0,0
13.700132466,1,0
13.701234966,1,1
13.803343550,0,1
13.804459822,0,0
13.906554788,1,0
13.907671994,1,1
14.009765846,0,1
14.010865124,0,0
14.112969134,1,0
14.114080722,1,1
14.216136826,0,1
14.217240140,0,0
14.319347980,1,0
14.320464914,1,1
14.422539346,0,1
14.423658300,0,0
14.525762692,1,0
14.526878106,1,1
14.628981100,0,1
14.630092410,0,0
14.732183862,1,0
14.733284782,1,1
14.835351880,0,1
14.836469286,0,0
14.938563058,1,0
14.939680056,1,1
15.041774242,0,1
15.042879752,0,0
15.144985414,1,0
15.146102416,1,1
15.248196514,0,1
15.249299142,0,0
15.351399044,1,0
15.352510948,1,1
15.454554636,0,1
15.455653500,0,0
15.557774558,1,0
15.558891680,1,1
15.660989468,0,1
15.662106840,0,0
15.764200664,1,0
15.765309510,1,1
15.867411092,0,1
15.868522454,0,0
15.970613562,1,0
15.971708326,1,1
16.073782496,0,1
16.074889426,0,0
16.176993660,1,0
16.178110388,1,1
16.280206044,0,1
16.281316082,0,0
16.383416200,1,0
16.384533168,1,1
16.486613418,0,1
16.487711728,0,0
16.589824830,1,0
16.590936682,1,1
16.692997704,0,1
16.694113906,0,0
16.796208874,1,0
16.797321636,1,1
16.899420032,0,1
16.900537504,0,0
17.002631210,1,0
17.003723148,1,1
17.105840836,0,1
17.106951884,0,0
17.209043256,1,0
17.210162688,1,1
17.312213222,0,1
17.313327514,0,0
17.415399148,1,0
17.416519486,1,1
17.518627774,0,1
17.519731346,0,0
17.621846402,1,0
17.622963442,1,1
17.725055568,0,1
17.726167818,0,0
17.828258078,1,0
17.829369014,1,1
17.931428286,0,1
17.932544638,0,0
18.034639504,1,0
18.035735024,1,1
18.137850626,0,1
18.138967910,0,0
18.241062036,1,0
18.242178688,1,1
18.344270710,0,1
18.345380904,0,0
18.447419918,1,0
18.448539114,1,1
18.550639810,0,1
18.551747522,0,0
18.653854752,1,0
18.654971642,1,1
18.757065834,0,1
18.758163084,0,0
18.860277018,1,0
18.861394438,1,1
18.963485250,0,1
18.964597314,0,0
19.066647784,1,0
19.067746690,1,1
19.169858848,0,1
19.170974974,0,0
19.273070216,1,0
19.274170310,1,1
19.376281390,0,1
19.377398268,0,0
19.479479882,1,0
19.480598452,1,1
19.582696538,0,1
19.583801868,0,0
19.685863030,1,0
19.686980320,1,1
19.789074220,0,1
19.790175536,0,0
19.892285398,1,0
19.893402548,1,1
19.995496462,0,1
19.996601996,0,0
20.098707748,1,0
20.099820206,1,1
20.201915030,0,1
20.203026822,0,0
20.305078582,1,0
20.306181564,1,1
20.408289746,0,1
20.409405954,0,0
20.511488298,1,0
20.512607388,1,1
20.614708222,0,1
20.615822460,0,0
20.717922916,1,0
20.719039352,1,1
20.821129822,0,1
20.822228882,0,0
20.924333650,1,0
20.925445858,1,1
21.027496940,0,1
21.028603280,0,0
21.130708200,1,0
21.131816222,1,1
21.233919532,0,1
21.235036012,0,0
21.337131700,1,0
21.338230146,1,1
21.440329024,0,1
21.441445936,0,0
21.543543350,1,0
21.544655504,1,1
21.646712182,0,1
21.647821352,0,0
21.749923366,1,0
21.751040260,1,1
21.853134522,0,1
21.854234800,0,0
21.956339240,1,0
21.957452944,1,1
22.059549062,0,1
22.060654724,0,0
22.162760214,1,0
22.163860650,1,1
22.265964710,0,1
22.267076756,0,0
22.369131110,1,0
22.370248272,1,1
22.472329456,0,1
22.473445244,0,0
22.575549574,1,0
22.576666560,1,1
22.678764296,0,1
22.679869598,0,0
22.781975422,1,0
22.783089148,1,1
22.885180128,0,1
22.886291886,0,0
22.988381728,1,0
22.989471328,1,1
23.091549542,0,1
23.092666608,0,0
23.194760670,1,0
23.195859874,1,1
23.297972068,0,1
23.299086556,0,0
23.401183268,1,0
23.402300498,1,1
23.504381726,0,1
23.505488920,0,0
23.607593042,1,0
23.608705088,1,1
23.710764748,0,1
23.711864868,0,0
23.813975866,1,0
23.815093478,1,1
23.917180646,0,1
23.918297808,0,0
24.020390480,1,0
24.021484358,1,1
24.123601626,0,1
24.124718006,0,0
24.226811618,1,0
24.227923548,1,1
24.330014122,0,1
24.331124896,0,0
24.433170904,1,0
24.434289704,1,1
24.536390626,0,1
24.537496384,0,0
24.639605584,1,0
24.640722442,1,1
24.742816820,0,1
24.743933740,0,0
24.846026202,1,0
24.847138432,1,1
24.949228648,0,1
24.950340394,0,0
25.052398672,1,0
25.053495642,1,1
25.155609826,0,1
25.156726748,0,0
25.258821218,1,0
25.259919090,1,1
25.362032398,0,1
25.363148736,0,0
25.465228470,1,0
25.466342160,1,1
25.568439708,0,1
25.569544058,0,0
25.671613872,1,0
25.672730866,1,1
25.774825034,0,1
25.775924130,0,0
25.878036150,1,0
25.879153138,1,1
25.981247320,0,1
25.982342970,0,0
26.084455870,1,0
26.085561662,1,1
26.187617972,0,1
26.188734476,0,0
26.290830404,1,0
26.291937784,1,1
26.394040574,0,1
26.395157432,0,0
26.497239130,1,0
26.498357922,1,1
26.600458992,0,1
26.601571086,0,0
26.703670564,1,0
26.704782436,1,1
26.806833192,0,1
26.807936272,0,0
26.910044396,1,0
26.911161614,1,1
27.013255490,0,1
27.014361402,0,0
27.116466654,1,0
27.117580818,1,1
27.219678024,0,1
27.220794790,0,0
27.322885738,1,0
27.323985288,1,1
27.426035774,0,1
27.427154168,0,0
27.529255646,1,0
27.530372700,1,1
27.632470642,0,1
27.633586580,0,0
27.735681880,1,0
27.736798912,1,1
27.838892992,0,1
27.839998576,0,0
27.942100200,1,0
27.943212456,1,1
28.045263728,0,1
28.046349626,0,0
28.148474918,1,0
28.149591950,1,1
28.251686230,0,1
28.252802580,0,0
28.354897380,1,0
28.356003504,1,1
28.458095716,0,1
28.459213882,0,0
28.561311282,1,0
28.562404970,1,1
28.664478886,0,1
28.665602324,0,0
28.767690084,1,0
28.768807056,1,1
28.870901240,0,1
28.872010826,0,0
28.974112380,1,0
28.975229806,1,1
29.077323526,0,1
29.078414368,0,0
29.180529818,1,0
29.181641648,1,1
29.283694412,0,1
29.284811368,0,0
29.386905654,1,0
29.388017040,1,1
29.490103916,0,1
29.491221812,0,0
29.593323982,1,0
29.594425392,1,1
29.696538704,0,1
29.697654288,0,0
29.799744638,1,0
29.800857194,1,1
29.902909426,0,1
29.904021564,0,0
30.006120558,1,0
30.007219728,1,1
30.109331714,0,1
30.110427856,0,0
30.212542938,1,0
30.213653212,1,1
30.315754236,0,1
30.316861466,0,0
30.418934426,1,0
30.420040538,1,1
30.522117164,0,1
30.523227290,0,0
30.625335832,1,0
30.626434046,1,1
30.728546978,0,1
30.729656034,0,0
30.831758080,1,0
30.832868238,1,1
30.934969268,0,1
30.936076208,0,0
31.038174286,1,0
31.039269014,1,1
31.141339974,0,1
31.142438392,0,0
31.244551392,1,0
31.245661240,1,1
31.347763564,0,1
31.348853434,0,0
31.450960872,1,0
31.452073056,1,1
31.554180786,0,1
31.555286978,0,0
31.657389026,1,0
31.658485208,1,1
31.760555172,0,1
31.761665178,0,0
31.863766428,1,0
31.864858458,1,1
31.966977492,0,1
31.968086796,0,0
32.070188656,1,0
32.071288236,1,1
32.173399728,0,1
32.174499122,0,0
32.276604192,1,0
32.277709512,1,1
32.379770714,0,1
32.380862946,0,0
32.482969046,1,0
32.484080812,1,1
32.586189134,0,1
32.587299364,0,0
32.689403992,1,0
32.690508696,1,1
32.792614972,0,1
32.793720534,0,0
32.895818680,1,0
32.896908556,1,1
32.998985710,0,1
33.000085076,0,0
33.102196934,1,0
33.103306948,1,1
33.205407966,0,1
33.206513136,0,0
33.308619416,1,0
33.309728284,1,1
33.411830538,0,1
33.412923146,0,0
33.515033330,1,0
33.516138328,1,1
33.618200842,0,1
33.619310064,0,0
33.721412008,1,0
33.722519844,1,1
33.824623214,0,1
33.825733782,0,0
33.927834404,1,0
33.928932396,1,1
34.031045434,0,1
34.032139392,0,0
34.134248360,1,0
34.135353348,1,1
34.237416456,0,1
34.238526016,0,0
34.340627596,1,0
34.341737512,1,1
34.443825926,0,1
34.444926448,0,0
34.547045860,1,0
34.548155962,1,1
34.650260632,0,1
34.651345922,0,0
34.753463132,1,0
34.754568144,1,1
34.856631420,0,1
34.857740894,0,0
34.959842518,1,0
34.960943924,1,1
35.063053758,0,1
35.064153684,0,0
35.166264932,1,0
35.167356404,1,1
35.269475754,0,1
35.270579972,0,0
35.372678254,1,0
35.373783300,1,1
35.475834102,0,1
35.476939142,0,0
35.579054244,1,0
35.580164314,1,1
35.682268942,0,1
35.683361330,0,0
35.785480108,1,0
35.786590502,1,1
35.888690288,0,1
35.889795886,0,0
35.991892798,1,0
35.992981514,1,1
36.095061952,0,1
36.096170838,0,0
36.198273086,1,0
36.199367976,1,1
36.301485506,0,1
36.302595726,0,0
36.404695682,1,0
36.405805596,1,1
36.507892820,0,1
36.508995012,0,0
36.611104018,1,0
36.612209316,1,1
36.714277098,0,1
36.715374016,0,0
36.817488356,1,0
36.818598468,1,1
36.920699436,0,1
36.921808736,0,0
37.023910586,1,0
37.025007964,1,1
37.127119966,0,1
37.128225156,0,0
37.230322708,1,0
37.231415742,1,1
37.333492662,0,1
37.334601924,0,0
37.436691012,1,0
37.437803012,1,1
37.539910760,0,1
37.541020696,0,0
37.643125810,1,0
37.644235800,1,1
37.746334732,0,1
37.747436158,0,0
37.849537216,1,0
37.850642604,1,1
37.952707628,0,1
37.953798246,0,0
38.055918904,1,0
38.057018350,1,1
38.159129984,0,1
38.160239318,0,0
38.262341350,1,0
38.263442790,1,1
38.365549880,0,1
38.366653908,0,0
38.468699264,1,0
38.469792960,1,1
38.571919194,0,1
38.573028738,0,0
38.675134028,1,0
38.676244434,1,1
38.778345202,0,1
38.779448304,0,0
38.881556394,1,0
38.882666640,1,1
38.984764368,0,1
38.985831016,0,0
39.087927042,1,0
39.089037262,1,1
39.191138148,0,1
39.192248006,0,0
39.294349608,1,0
39.295454386,1,1
39.397560722,0,1
39.398670030,0,0
39.500759256,1,0
39.501856508,1,1
39.603975636,0,1
39.605080784,0,0
39.707142302,1,0
39.708252428,1,1
39.810353418,0,1
39.811459404,0,0
39.913564534,1,0
39.914675200,1,1
40.016775674,0,1
40.017868584,0,0
40.119986934,1,0
40.121103398,1,1
40.223194274,0,1
40.224305140,0,0
40.326357784,1,0
40.327472994,1,1
40.429556124,0,1
40.430674670,0,0
40.532775892,1,0
40.533881090,1,1
40.635990882,0,1
40.637107016,0,0
40.739202098,1,0
40.740318554,1,1
40.842408814,0,1
40.843520396,0,0
40.945572796,1,0
40.946689966,1,1
41.048783994,0,1
41.049879450,0,0
41.151995112,1,0
41.153112162,1,1
41.255206450,0,1
41.256303462,0,0
41.358418744,1,0
41.359534508,1,1
41.461611150,0,1
41.462724116,0,0
41.564784276,1,0
41.565893120,1,1
41.667999182,0,1
41.669116030,0,0
41.771210358,1,0
41.772309200,1,1
41.874421456,0,1
41.875537810,0,0
41.977632572,1,0
41.978741262,1,1
42.080838554,0,1
42.081943330,0,0
42.184003304,1,0
42.185120208,1,1
42.287214686,0,1
42.288314400,0,0
42.390425852,1,0
42.391543104,1,1
42.493624310,0,1
42.494742854,0,0
42.596844302,1,0
42.597954116,1,1
42.700053274,0,1
42.701164492,0,0
42.803218498,1,0
42.804321076,1,1
42.906429706,0,1
42.907546710,0,0
43.009640848,1,0
43.010747054,1,1
43.112851996,0,1
43.113964580,0,0
43.216063346,1,0
43.217178050,1,1
43.319268410,0,1
43.320365426,0,0
43.422410786,1,0
43.423529478,1,1
43.525637534,0,1
43.526754204,0,0
43.628856026,1,0
43.629971024,1,1
43.732067234,0,1
43.733184016,0,0
43.835278444,1,0
43.836381118,1,1
43.938482934,0,1
43.939594578,0,0
44.041649010,1,0
44.042755172,1,1
44.144860284,0,1
44.145976772,0,0
44.248071678,1,0
44.249188576,1,1
44.351282776,0,1
44.352389284,0,0
44.454481146,1,0
44.455596372,1,1
44.557694012,0,1
44.558786454,0,0
44.660864412,1,0
44.661981416,1,1
44.764075496,0,1
44.765192026,0,0
44.867286648,1,0
44.868395520,1,1
44.970497906,0,1
44.971614996,0,0
45.073709034,1,0
45.074793782,1,1
45.176912608,0,1
45.178024100,0,0
45.280079884,1,0
45.281196728,1,1
45.383291058,0,1
45.384401228,0,0
45.486489402,1,0
45.487608164,1,1
45.589709502,0,1
45.590809556,0,0
45.692924156,1,0
45.694036868,1,1
45.796127406,0,1
45.797239578,0,0
45.899294958,1,0
45.900407296,1,1
46.002506008,0,1
46.003611822,0,0
46.105717262,1,0
46.106819324,1,1
46.208928386,0,1
46.210045318,0,0
46.312140782,1,0
46.313253078,1,1
46.415317198,0,1
46.416429086,0,0
46.518502626,1,0
46.519619682,1,1
46.621721292,0,1
46.622825308,0,0
46.724932554,1,0
46.726049618,1,1
46.828143670,0,1
46.829260378,0,0
46.931354614,1,0
46.932465072,1,1
47.034557122,0,1
47.035658388,0,0
47.137725556,1,0
47.138831124,1,1
47.240936856,0,1
47.242053492,0,0
47.344148058,1,0
47.345264968,1,1
47.447346432,0,1
47.448464944,0,0
47.550565734,1,0
47.551677914,1,1
47.653771882,0,1
47.654873530,0,0
47.756940726,1,0
47.758057708,1,1
47.860151932,0,1
47.861249650,0,0
47.963363076,1,0
47.964480402,1,1
48.066574260,0,1
48.067680478,0,0
48.169784336,1,0
48.170888048,1,1
48.272987026,0,1
48.274097472,0,0
48.376156312,1,0
48.377255774,1,1
48.479354628,0,1
48.480472608,0,0
48.582574746,1,0
48.583691828,1,1
48.685789454,0,1
48.686899838,0,0
48.788999124,1,0
48.790111564,1,1
48.892201572,0,1
48.893296764,0,0
48.995371266,1,0
48.996477492,1,1
49.098582492,0,1
49.099699334,0,0
49.201793602,1,0
49.202913704,1,1
49.305004952,0,1
49.306120906,0,0
49.408214262,1,0
49.409311690,1,1
49.511404120,0,1
49.512517908,0,0
49.614583038,1,0
49.615700452,1,1
49.717797672,0,1
49.718910720,0,0
49.821008806,1,0
49.822126132,1,1
49.924219982,0,1
49.925324382,0,0
50.027428818,1,0
50.028530552,1,1
50.130631284,0,1
50.131742412,0,0
50.233802028,1,0
50.234917522,1,1
50.337013220,0,1
50.338130256,0,0
50.440211598,1,0
50.441319450,1,1
50.543431456,0,1
50.544547670,0,0
50.646643526,1,0
50.647755514,1,1
50.749805910,0,1
50.750923040,0,0
50.853017104,1,0
50.854134744,1,1
50.956228238,0,1
50.957334810,0,0
51.059439408,1,0
51.060545964,1,1
51.162650568,0,1
51.163748248,0,0
51.265858754,1,0
51.266971002,1,1
51.369022562,0,1
51.370138720,0,0
51.472219766,1,0
51.473330464,1,1
51.575439942,0,1
51.576557092,0,0
51.678654654,1,0
51.679754486,1,1
51.781865804,0,1
51.782982162,0,0
51.885073284,1,0
51.886185524,1,1
51.988236466,0,1
51.989331382,0,0
52.091447712,1,0
52.092564762,1,1
52.194658762,0,1
52.195758904,0,0
52.297870148,1,0
52.298987266,1,1
52.401081356,0,1
52.402197992,0,0
52.504275860,1,0
52.505385362,1,1
52.607448184,0,1
52.608564378,0,0
52.710662886,1,0
52.711765640,1,1
52.813874010,0,1
52.814991366,0,0
52.917085204,1,0
52.918202712,1,1
53.020296302,0,1
53.021398112,0,0
53.123502980,1,0
53.124614900,1,1
53.226667244,0,1
53.227771624,0,0
53.329878488,1,0
53.330993770,1,1
53.433076770,0,1
53.434194938,0,0
53.536296482,1,0
53.537412482,1,1
53.639511514,0,1
53.640627584,0,0
53.742717784,1,0
53.743818862,1,1
53.845882208,0,1
53.846998680,0,0
53.949093426,1,0
53.950210750,1,1
54.052304602,0,1
54.053411376,0,0
54.155515746,1,0
54.156632622,1,1
54.258727096,0,1
54.259832254,0,0
54.361932942,1,0
54.363045024,1,1
54.465084974,0,1
54.466185158,0,0
54.568304986,1,0
54.569422010,1,1
54.671519786,0,1
54.672635994,0,0
54.774730940,1,0
54.775840348,1,1
54.877942134,0,1
54.879057548,0,0
54.981147470,1,0
54.982220916,1,1
55.084312830,0,1
55.085428866,0,0
55.187523950,1,0
55.188641152,1,1
55.290735344,0,1
55.291846636,0,0
55.393946540,1,0
55.395063388,1,1
55.497145074,0,1
55.498244870,0,0
55.600358702,1,0
55.601470756,1,1
55.703528038,0,1
55.704645438,0,0
55.806739250,1,0
55.807851932,1,1
55.909950560,0,1
55.911067056,0,0
56.013161648,1,0
56.014254126,1,1
56.116372858,0,1
56.117487010,0,0
56.219577596,1,0
56.220689394,1,1
56.322744838,0,1
56.323858344,0,0
56.425942010,1,0
56.427060906,1,1
56.529161830,0,1
56.530266848,0,0
56.632376902,1,0
56.633493884,1,1
56.735588088,0,1
56.736701026,0,0
56.838792116,1,0
56.839903228,1,1
56.941958818,0,1
56.943076302,0,0
57.045170030,1,0
57.046265630,1,1
57.148381116,0,1
57.149497314,0,0
57.251592570,1,0
57.252688982,1,1
57.354803646,0,1
57.355917058,0,0
57.457994516,1,0
57.459108294,1,1
57.561170360,0,1
57.562277384,0,0
59.401830400,0,0
