Time [s],Channel 0,Channel 1
0.000000000,0,0
1.697948960,1,0
1.698582850,1,1
1.797940848,0,1
1.798223812,0,0
1.897943246,1,0
1.898226458,1,1
1.997945734,0,1
1.998227636,0,0
2.097948218,1,0
2.098231174,1,1
2.197951064,0,1
2.198234242,0,0
2.297953446,1,0
2.298236804,1,1
2.397955916,0,1
2.398238038,0,0
2.497958298,1,0
2.498240942,1,1
2.597960686,0,1
2.598243836,0,0
2.697963126,1,0
2.698246430,1,1
2.797965614,0,1
2.798247732,0,0
2.897968096,1,0
2.898251026,1,1
2.997970940,0,1
2.998253752,0,0
3.097973322,1,0
3.098256704,1,1
3.197975792,0,1
3.198257954,0,0
3.297978172,1,0
3.298261282,1,1
3.397980558,0,1
3.398263480,0,0
3.497982996,1,0
3.498266148,1,1
3.597985482,0,1
3.598267656,0,0
3.697987962,1,0
3.698270416,1,1
3.797990806,0,1
3.798274248,0,0
3.897993184,1,0
3.898276074,1,1
3.997995652,0,1
3.998277646,0,0
4.097998032,1,0
4.098281064,1,1
4.198000416,0,1
4.198290330,0,0
4.298002854,1,0
4.298285806,1,1
4.398005336,0,1
4.398287554,0,0
4.498007816,1,0
4.498290704,1,1
4.598010656,0,1
4.598293926,0,0
4.698013034,1,0
4.698302984,1,1
4.798015500,0,1
4.798297890,0,0
4.898017878,1,0
4.898300888,1,1
4.998020260,0,1
4.998303360,0,0
5.098022696,1,0
5.098305542,1,1
5.198025178,0,1
5.198307356,0,0
5.298027656,1,0
5.298310596,1,1
5.398030496,0,1
5.398313860,0,0
5.498032872,1,0
5.498315658,1,1
5.598035336,0,1
5.598317444,0,0
5.698037946,1,0
5.698321084,1,1
5.798040328,0,1
5.798323712,0,0
5.898042704,1,0
5.898325550,1,1
5.998045126,0,1
5.998327268,0,0
6.098047500,1,0
6.098330498,1,1
6.198049964,0,1
6.198333326,0,0
6.298052796,1,0
6.298335680,1,1
6.398055258,0,1
6.398337374,0,0
6.498057632,1,0
6.498340518,1,1
6.598060012,0,1
6.598343186,0,0
6.698062384,1,0
6.698345224,1,1
6.798064822,0,1
6.798346916,0,0
6.898067296,1,0
6.898350368,1,1
6.998070132,0,1
6.998353168,0,0
7.098072506,1,0
7.098355514,1,1
7.198074968,0,1
7.198357256,0,0
7.298077340,1,0
7.298360324,1,1
7.398079718,0,1
7.398363166,0,0
7.498082150,1,0
7.498364794,1,1
7.598084628,0,1
7.598366860,0,0
7.698087100,1,0
7.698370178,1,1
7.798089936,0,1
7.798373154,0,0
7.898092308,1,0
7.898375172,1,1
7.998094770,0,1
7.998376754,0,0
8.098097140,1,0
8.098380180,1,1
8.198099518,0,1
8.198382936,0,0
8.298101948,1,0
8.298384836,1,1
8.398104424,0,1
8.398386726,0,0
8.498106894,1,0
8.498389750,1,1
8.598109728,0,1
8.598393014,0,0
8.698112098,1,0
8.698393822,1,1
8.798114556,0,1
8.798396886,0,0
8.898116926,1,0
8.898400320,1,1
8.998119300,0,1
8.998401918,0,0
9.098121728,1,0
9.098404742,1,1
9.198124204,0,1
9.198406532,0,0
9.298126672,1,0
9.298410098,1,1
9.398129506,0,1
9.398412388,0,0
9.498131874,1,0
9.498414746,1,1
9.598134332,0,1
9.598416642,0,0
9.698136700,1,0
9.698419942,1,1
9.798139074,0,1
9.798421848,0,0
9.898141502,1,0
9.898424448,1,1
9.998143976,0,1
9.998426128,0,0
10.098146444,1,0
10.098429652,1,1
10.198149276,0,1
10.198432208,0,0
10.298151644,1,0
10.298434624,1,1
10.398154100,0,1
10.398436328,0,0
10.498156468,1,0
10.498439502,1,1
10.598158842,0,1
10.598441766,0,0
10.698161508,1,0
10.698444514,1,1
10.798163922,0,1
10.798446252,0,0
10.898166290,1,0
10.898449650,1,1
10.998168680,0,1
10.998451362,0,0
11.098171146,1,0
11.098454218,1,1
11.198173618,0,1
11.198455888,0,0
11.298176084,1,0
11.298459286,1,1
11.398178556,0,1
11.398461390,0,0
11.498181024,1,0
11.498463962,1,1
11.598183494,0,1
11.598465756,0,0
11.698186328,1,0
11.698469652,1,1
11.798188700,0,1
11.798471622,0,0
11.898191066,1,0
11.898473952,1,1
11.998193520,0,1
11.998475696,0,0
12.098195886,1,0
12.098479184,1,1
12.198198308,0,1
12.198481136,0,0
12.298200774,1,0
12.298483866,1,1
12.398203244,0,1
12.398485568,0,0
12.498205710,1,0
12.498488740,1,1
12.598208182,0,1
12.598491082,0,0
12.698210646,1,0
12.698493778,1,1
12.798213118,0,1
12.798495364,0,0
12.898215940,1,0
12.898499226,1,1
12.998218312,0,1
12.998501018,0,0
13.098220676,1,0
13.098503590,1,1
13.198223088,0,1
13.198505390,0,0
13.298225454,1,0
13.298508802,1,1
13.398227924,0,1
13.398510836,0,0
13.498230746,1,0
13.498513588,1,1
13.598233200,0,1
13.598515482,0,0
13.698235566,1,0
13.698517234,1,1
13.798237936,0,1
13.798520894,0,0
13.898240300,1,0
13.898523338,1,1
13.998242728,0,1
13.998525114,0,0
14.098245192,1,0
14.098528050,1,1
14.198248020,0,1
14.198530966,0,0
14.298250384,1,0
14.298533544,1,1
14.398252838,0,1
14.398534636,0,0
14.498255202,1,0
14.498537980,1,1
14.598257570,0,1
14.598540670,0,0
14.698259992,1,0
14.698543414,1,1
14.798262460,0,1
14.798544662,0,0
14.898264924,1,0
14.898547940,1,1
14.998267752,0,1
14.998550580,0,0
15.098270114,1,0
15.098553532,1,1
15.198272566,0,1
15.198554764,0,0
15.298274928,1,0
15.298557940,1,1
15.398277298,0,1
15.398560338,0,0
15.498279718,1,0
15.498562840,1,1
15.598282186,0,1
15.598564246,0,0
15.698284806,1,0
15.698567988,1,1
15.798287174,0,1
15.798570252,0,0
15.898289576,1,0
15.898572844,1,1
15.998292042,0,1
15.998574034,0,0
16.098294504,1,0
16.098577434,1,1
16.198297328,0,1
16.198580398,0,0
16.298299688,1,0
16.298583024,1,1
16.398302096,0,1
16.398584270,0,0
16.498304456,1,0
16.498587288,1,1
16.598306822,0,1
16.598589960,0,0
16.698309282,1,0
16.698592718,1,1
16.798311748,0,1
16.798593866,0,0
16.898314208,1,0
16.898597208,1,1
16.998316674,0,1
16.998599614,0,0
17.098319132,1,0
17.098602480,1,1
17.198321598,0,1
17.198603828,0,0
17.298324424,1,0
17.298607486,1,1
17.398326788,0,1
17.398609800,0,0
17.498329148,1,0
17.498612182,1,1
17.598331596,0,1
17.598613638,0,0
17.698333954,1,0
17.698617130,1,1
17.798336370,0,1
17.798619426,0,0
17.898338828,1,0
17.898622168,1,1
17.998341294,0,1
17.998623240,0,0
18.098343752,1,0
18.098626722,1,1
18.198346216,0,1
18.198629370,0,0
18.298348676,1,0
18.298631994,1,1
18.398351140,0,1
18.398633206,0,0
18.498353958,1,0
18.498636772,1,1
18.598356322,0,1
18.598639444,0,0
18.698358680,1,0
18.698640260,1,1
18.798361086,0,1
18.798643398,0,0
18.898363446,1,0
18.898646440,1,1
18.998365910,0,1
18.998649010,0,0
19.098368726,1,0
19.098651660,1,1
19.198371174,0,1
19.198653340,0,0
19.298373532,1,0
19.298656430,1,1
19.398375896,0,1
19.398659176,0,0
19.498378254,1,0
19.498660908,1,1
19.598380676,0,1
19.598662762,0,0
19.698383136,1,0
19.698666236,1,1
19.798385958,0,1
19.798669148,0,0
19.898388316,1,0
19.898671304,1,1
19.998390764,0,1
19.998672774,0,0
20.098393122,1,0
20.098676190,1,1
20.198395486,0,1
20.198678802,0,0
20.298397904,1,0
20.298680876,1,1
20.398400366,0,1
20.398682488,0,0
20.498402826,1,0
20.498685670,1,1
20.598405648,0,1
20.598688824,0,0
20.698408154,1,0
20.698691164,1,1
20.798410210,0,1
20.798692376,0,0
20.898412668,1,0
20.898695582,1,1
20.998415130,0,1
20.998698220,0,0
21.098417588,1,0
21.098700434,1,1
21.198420052,0,1
21.198702214,0,0
21.298422876,1,0
21.298705902,1,1
21.398425238,0,1
21.398708464,0,0
21.498427596,1,0
21.498710228,1,1
21.598430042,0,1
21.598712214,0,0
21.698432400,1,0
21.698715504,1,1
21.798434812,0,1
21.798718148,0,0
21.898437270,1,0
21.898720136,1,1
21.998439732,0,1
21.998721638,0,0
22.098442188,1,0
22.098725134,1,1
22.198444652,0,1
22.198727994,0,0
22.298447108,1,0
22.298729882,1,1
22.398449570,0,1
22.398731760,0,0
22.498452386,1,0
22.498735206,1,1
22.598454748,0,1
22.598738092,0,0
22.698457106,1,0
22.698740030,1,1
22.798459510,0,1
22.798741690,0,0
22.898461868,1,0
22.898744912,1,1
22.998464330,0,1
22.998747416,0,0
23.098467146,1,0
23.098749944,1,1
23.198469592,0,1
23.198751888,0,0
23.298471950,1,0
23.298754926,1,1
23.398474314,0,1
23.398757670,0,0
23.498476672,1,0
23.498759366,1,1
23.598479092,0,1
23.598761218,0,0
23.698481550,1,0
23.698763646,1,1
23.798484370,0,1
23.798767232,0,0
23.898486728,1,0
23.898769770,1,1
23.998489174,0,1
23.998771288,0,0
24.098491530,1,0
24.098774802,1,1
24.198493894,0,1
24.198776828,0,0
24.298496308,1,0
24.298779300,1,1
24.398498770,0,1
24.398781060,0,0
24.498501226,1,0
24.498784340,1,1
24.598504046,0,1
24.598786876,0,0
24.698506402,1,0
24.698789414,1,1
24.798508846,0,1
24.798791156,0,0
24.898511202,1,0
24.898794494,1,1
24.998513562,0,1
24.998796262,0,0
25.098515976,1,0
25.098798958,1,1
25.198518436,0,1
25.198800818,0,0
25.298520892,1,0
25.298804138,1,1
25.398523710,0,1
25.398806614,0,0
25.498526064,1,0
25.498808860,1,1
25.598528506,0,1
25.598810844,0,0
25.698531118,1,0
25.698814448,1,1
25.798533476,0,1
25.798816340,0,0
25.898535830,1,0
25.898818876,1,1
25.998538230,0,1
25.998820142,0,0
26.098540584,1,0
26.098823936,1,1
26.198543002,0,1
26.198825928,0,0
26.298545454,1,0
26.298828398,1,1
26.398547912,0,1
26.398830122,0,0
26.498550366,1,0
26.498833534,1,1
26.598552824,0,1
26.598835668,0,0
26.698555278,1,0
26.698838320,1,1
26.798557736,0,1
26.798839844,0,0
26.898560554,1,0
26.898844030,1,1
26.998562914,0,1
26.998845680,0,0
27.098565266,1,0
27.098848324,1,1
27.198567708,0,1
27.198849948,0,0
27.298570060,1,0
27.298853434,1,1
27.398572468,0,1
27.398855390,0,0
27.498574922,1,0
27.498857802,1,1
27.598577380,0,1
27.598859684,0,0
27.698579832,1,0
27.698863286,1,1
27.798582292,0,1
27.798865178,0,0
27.898584744,1,0
27.898867648,1,1
27.998587202,0,1
27.998869280,0,0
28.098590014,1,0
28.098873340,1,1
28.198592372,0,1
28.198875282,0,0
28.298594724,1,0
28.298877684,1,1
28.398597122,0,1
28.398879376,0,0
28.498599474,1,0
28.498882686,1,1
28.598601932,0,1
28.598884818,0,0
28.698604742,1,0
28.698886462,1,1
28.798607182,0,1
28.798889612,0,0
28.898609534,1,0
28.898892362,1,1
28.998611890,0,1
28.998894712,0,0
29.098614242,1,0
29.098897388,1,1
29.198616658,0,1
29.198899196,0,0
29.298619110,1,0
29.298902048,1,1
29.398621924,0,1
29.398904872,0,0
29.498624276,1,0
29.498907166,1,1
29.598626716,0,1
29.598909248,0,0
29.698629066,1,0
29.698911982,1,1
29.798631424,0,1
29.798914438,0,0
29.898633834,1,0
29.898916872,1,1
29.998636816,0,1
29.998918438,0,0
30.098638742,1,0
30.098921664,1,1
30.198641550,0,1
30.198924636,0,0
30.298643900,1,0
30.298927222,1,1
30.398646342,0,1
30.398928462,0,0
30.498648694,1,0
30.498931470,1,1
30.598651050,0,1
30.598934136,0,0
30.698653660,1,0
30.698937002,1,1
30.798656060,0,1
30.798938176,0,0
30.898658412,1,0
30.898941358,1,1
30.998660836,0,1
30.998943590,0,0
31.098663286,1,0
31.098946532,1,1
31.198665744,0,1
31.198947804,0,0
31.298668554,1,0
31.298951554,1,1
31.398670912,0,1
31.398953908,0,0
31.498673264,1,0
31.498956350,1,1
31.598675662,0,1
31.598957730,0,0
31.698678014,1,0
31.698961014,1,1
31.798680472,0,1
31.798963552,0,0
31.898683282,1,0
31.898966518,1,1
31.998685722,0,1
31.998967616,0,0
32.098688074,1,0
32.098971024,1,1
32.198690432,0,1
32.198973480,0,0
32.298692784,1,0
32.298976030,1,1
32.398695198,0,1
32.398977218,0,0
32.498697650,1,0
32.498980594,1,1
32.598700466,0,1
32.598983606,0,0
32.698702816,1,0
32.698986122,1,1
32.798705256,0,1
32.798987294,0,0
32.898707606,1,0
32.898990526,1,1
32.998709962,0,1
32.998992790,0,0
33.098712370,1,0
33.098995730,1,1
33.198714826,0,1
33.198996918,0,0
33.298717276,1,0
33.299000268,1,1
33.398720090,0,1
33.399003156,0,0
33.498722440,1,0
33.499005598,1,1
33.598724878,0,1
33.599006994,0,0
33.698727228,1,0
33.699009034,1,1
33.798729584,0,1
33.799012864,0,0
33.898731992,1,0
33.899014930,1,1
33.998734448,0,1
33.999016428,0,0
34.098736898,1,0
34.099019836,1,1
34.198739712,0,1
34.199023040,0,0
34.298742060,1,0
34.299024890,1,1
34.398744498,0,1
34.399026762,0,0
34.498746848,1,0
34.499029686,1,1
34.598749202,0,1
34.599032534,0,0
34.698751610,1,0
34.699034616,1,1
34.798754066,0,1
34.799036138,0,0
34.898756514,1,0
34.899039538,1,1
34.998759328,0,1
34.999042386,0,0
35.098761676,1,0
35.099044494,1,1
35.198764114,0,1
35.199046434,0,0
35.298766464,1,0
35.299049434,1,1
35.398768818,0,1
35.399052106,0,0
35.498771226,1,0
35.499053830,1,1
35.598773680,0,1
35.599055792,0,0
35.698776288,1,0
35.699059406,1,1
35.798778642,0,1
35.799062010,0,0
35.898781034,1,0
35.899063826,1,1
35.998783488,0,1
35.999065522,0,0
36.098785938,1,0
36.099068928,1,1
36.198788752,0,1
36.199072182,0,0
36.298791100,1,0
36.299074016,1,1
36.398793498,0,1
36.399075654,0,0
36.498795846,1,0
36.499078828,1,1
36.598798202,0,1
36.599081424,0,0
36.698800650,1,0
36.699083556,1,1
36.798803106,0,1
36.799085276,0,0
36.898805554,1,0
36.899088658,1,1
36.998808368,0,1
36.999091470,0,0
37.098810716,1,0
37.099093744,1,1
37.198813114,0,1
37.199095482,0,0
37.298815462,1,0
37.299098412,1,1
37.398817818,0,1
37.399101016,0,0
37.498820266,1,0
37.499103040,1,1
37.598822720,0,1
37.599104952,0,0
37.698825170,1,0
37.699108450,1,1
37.798827982,0,1
37.799111254,0,0
37.898830330,1,0
37.899113270,1,1
37.998832724,0,1
37.999114800,0,0
38.098835072,1,0
38.099118140,1,1
38.198837426,0,1
38.199120894,0,0
38.298839874,1,0
38.299122742,1,1
38.398842326,0,1
38.399124530,0,0
38.498844774,1,0
38.499127654,1,1
38.598847586,0,1
38.599130818,0,0
38.698849932,1,0
38.699131756,1,1
38.798852326,0,1
38.799134570,0,0
38.898854674,1,0
38.899137900,1,1
38.998857026,0,1
38.999139846,0,0
39.098859474,1,0
39.099142486,1,1
39.198861926,0,1
39.199144374,0,0
39.298864372,1,0
39.299147606,1,1
39.398867184,0,1
39.399150076,0,0
39.498869532,1,0
39.499152398,1,1
39.598871926,0,1
39.599154260,0,0
39.698874274,1,0
39.699157540,1,1
39.798876628,0,1
39.799159576,0,0
39.898879076,1,0
39.899162008,1,1
39.998881530,0,1
39.999163668,0,0
40.098883976,1,0
40.099167374,1,1
40.198886788,0,1
40.199169662,0,0
40.298889136,1,0
40.299172108,1,1
40.398891530,0,1
40.399173744,0,0
40.498893876,1,0
40.499176966,1,1
40.598896230,0,1
40.599179178,0,0
40.698898844,1,0
40.699181942,1,1
40.798901238,0,1
40.799183512,0,0
40.898903584,1,0
40.899186776,1,1
40.998906028,0,1
40.999188670,0,0
41.098908834,1,0
41.099191860,1,1
41.198911228,0,1
41.199193680,0,0
41.298913576,1,0
41.299196744,1,1
41.398915928,0,1
41.399198814,0,0
41.498918316,1,0
41.499201270,1,1
41.598920728,0,1
41.599203000,0,0
41.698923174,1,0
41.699206430,1,1
41.798925986,0,1
41.799208650,0,0
41.898928332,1,0
41.899211280,1,1
41.998930728,0,1
41.999213042,0,0
42.098933074,1,0
42.099216046,1,1
42.198935428,0,1
42.199218498,0,0
42.298937874,1,0
42.299220978,1,1
42.398940328,0,1
42.399222848,0,0
42.498942774,1,0
42.499225536,1,1
42.598945586,0,1
42.599228446,0,0
42.698947934,1,0
42.699231142,1,1
42.798950328,0,1
42.799232744,0,0
42.898952676,1,0
42.899235558,1,1
42.998955030,0,1
42.999237902,0,0
43.098957478,1,0
43.099240490,1,1
43.198959930,0,1
43.199242510,0,0
43.298962376,1,0
43.299245256,1,1
43.398965188,0,1
43.399248090,0,0
43.498967534,1,0
43.499250412,1,1
43.598969928,0,1
43.599252456,0,0
43.698972276,1,0
43.699253994,1,1
43.798974628,0,1
43.799257604,0,0
43.898977076,1,0
43.899260382,1,1
43.998979528,0,1
43.999261426,0,0
44.098981976,1,0
44.099264948,1,1
44.198984788,0,1
44.199267882,0,0
44.298987134,1,0
44.299270628,1,1
44.398989530,0,1
44.399271630,0,0
44.498991878,1,0
44.499274666,1,1
44.598994230,0,1
44.599277244,0,0
44.698996678,1,0
44.699280122,1,1
44.798999130,0,1
44.799281274,0,0
44.899001576,1,0
44.899284536,1,1
44.999004388,0,1
44.999287194,0,0
45.099006736,1,0
45.099290014,1,1
45.199009130,0,1
45.199291314,0,0
45.299011476,1,0
45.299294508,1,1
45.399013830,0,1
45.399296858,0,0
45.499016276,1,0
45.499299378,1,1
45.599018730,0,1
45.599300754,0,0
45.699021410,1,0
45.699304466,1,1
45.799023764,0,1
45.799306832,0,0
45.899026112,1,0
45.899309444,1,1
45.999028530,0,1
45.999310420,0,0
46.099030978,1,0
46.099313974,1,1
46.199033788,0,1
46.199317042,0,0
46.299036176,1,0
46.299319586,1,1
46.399038570,0,1
46.399320688,0,0
46.499040918,1,0
46.499323692,1,1
46.599043270,0,1
46.599326218,0,0
46.699045674,1,0
46.699329012,1,1
46.799048126,0,1
46.799330296,0,0
46.899050572,1,0
46.899333176,1,1
46.999053380,0,1
46.999336584,0,0
47.099055768,1,0
47.099338620,1,1
47.199058162,0,1
47.199340354,0,0
47.299060508,1,0
47.299343566,1,1
47.399062858,0,1
47.399346050,0,0
47.499065262,1,0
47.499348020,1,1
47.599067714,0,1
47.599349778,0,0
47.699070160,1,0
47.699353240,1,1
47.799072970,0,1
47.799356192,0,0
47.899075358,1,0
47.899358402,1,1
47.999077750,0,1
47.999359812,0,0
48.099080098,1,0
48.099363266,1,1
48.199082450,0,1
48.199365732,0,0
48.299084854,1,0
48.299367810,1,1
48.399087306,0,1
48.399369528,0,0
48.499089752,1,0
48.499372572,1,1
48.599092564,0,1
48.599375572,0,0
48.699094952,1,0
48.699376942,1,1
48.799097344,0,1
48.799379466,0,0
48.899099690,1,0
48.899382728,1,1
48.999102042,0,1
48.999385020,0,0
49.099104446,1,0
49.099387690,1,1
49.199106898,0,1
49.199389072,0,0
49.299109344,1,0
49.299392266,1,1
49.399112154,0,1
49.399395166,0,0
49.499114542,1,0
49.499397602,1,1
49.599116936,0,1
49.599399042,0,0
49.699119282,1,0
49.699402220,1,1
49.799121634,0,1
49.799404654,0,0
49.899124040,1,0
49.899407464,1,1
49.999126492,0,1
49.999408238,0,0
50.099128938,1,0
50.099411908,1,1
50.199131748,0,1
50.199414808,0,0
50.299134136,1,0
50.299417552,1,1
50.399136530,0,1
50.399418618,0,0
50.499138878,1,0
50.499421504,1,1
50.599141230,0,1
50.599424146,0,0
50.699143794,1,0
50.699427306,1,1
50.799146188,0,1
50.799428224,0,0
50.899148536,1,0
50.899431534,1,1
50.999150988,0,1
50.999433860,0,0
51.099153436,1,0
51.099436762,1,1
51.199155888,0,1
51.199438062,0,0
51.299158702,1,0
51.299441688,1,1
51.399161054,0,1
51.399444122,0,0
51.499163402,1,0
51.499446474,1,1
51.599165796,0,1
51.599447848,0,0
51.699168144,1,0
51.699199546,0,0
51.699483442,0,1
56.918016000,0,1
