Time [s],Channel 0,Channel 1
0.000000000,0,0
0.762505394,1,0
0.763140612,1,1
1.262506160,0,1
1.262789276,0,0
1.762520152,1,0
1.762803474,1,1
2.262534146,0,1
2.262816342,0,0
2.762548134,1,0
2.762831332,1,1
3.262562124,0,1
3.262844272,0,0
3.762576104,1,0
3.762859286,1,1
4.262590084,0,1
4.262872334,0,0
4.762604056,1,0
4.762886880,1,1
5.262618026,0,1
5.262900310,0,0
5.762631986,1,0
5.762914916,1,1
6.262645946,0,1
6.262928240,0,0
6.762659900,1,0
6.762942702,1,1
7.262673854,0,1
7.262956016,0,0
7.762687802,1,0
7.762970556,1,1
8.262701754,0,1
8.262984298,0,0
8.762715696,1,0
8.762998528,1,1
9.262729642,0,1
9.263011792,0,0
9.762743582,1,0
9.763026822,1,1
10.262757526,0,1
10.263039638,0,0
10.762771462,1,0
10.763054802,1,1
11.262785400,0,1
11.263067676,0,0
11.762799348,1,0
11.763082662,1,1
12.262813298,0,1
12.263095664,0,0
12.762827242,1,0
12.763110658,1,1
13.262841190,0,1
13.263123556,0,0
13.762855132,1,0
13.763138548,1,1
14.262869080,0,1
14.263151440,0,0
14.762883022,1,0
14.763166018,1,1
15.262896996,0,1
15.263180196,0,0
15.762910938,1,0
15.763193816,1,1
16.262924886,0,1
16.263208054,0,0
16.762938828,1,0
16.763221748,1,1
17.262952774,0,1
17.263235914,0,0
17.762966716,1,0
17.763249722,1,1
18.262980666,0,1
18.263263882,0,0
18.762994608,1,0
18.763277650,1,1
19.263007756,0,1
19.263299714,0,0
19.763021682,1,0
19.763304584,1,1
20.263035608,0,1
20.263318040,0,0
20.763049526,1,0
20.763332468,1,1
21.263063448,0,1
21.263345868,0,0
21.763077362,1,0
21.763360164,1,1
22.263091282,0,1
22.263373482,0,0
22.763105194,1,0
22.763387980,1,1
23.263119110,0,1
23.263401300,0,0
23.763133018,1,0
23.763415864,1,1
24.263146928,0,1
24.263429454,0,0
24.763160828,1,0
24.763443818,1,1
25.263174734,0,1
25.263457254,0,0
25.763188638,1,0
25.763471646,1,1
26.263202546,0,1
26.263485158,0,0
26.763216474,1,0
26.763499520,1,1
27.263230378,0,1
27.263512528,0,0
27.763244296,1,0
27.763527704,1,1
28.263258192,0,1
28.263540308,0,0
28.763272108,1,0
28.763554966,1,1
29.263286002,0,1
29.263568618,0,0
29.763299914,1,0
29.763582974,1,1
30.263313804,0,1
30.263595952,0,0
30.763327686,1,0
30.763610792,1,1
31.263341568,0,1
31.263623672,0,0
31.763355460,1,0
31.763638586,1,1
32.263369356,0,1
32.263651532,0,0
32.763383246,1,0
32.763666352,1,1
33.263397138,0,1
33.263679262,0,0
33.763411026,1,0
33.763694066,1,1
34.263424916,0,1
34.263707160,0,0
34.763438802,1,0
34.763722092,1,1
35.263452716,0,1
35.263735130,0,0
35.763466602,1,0
35.763749924,1,1
36.263480494,0,1
36.263762756,0,0
36.763494380,1,0
36.763777732,1,1
37.263508274,0,1
37.263791348,0,0
37.763522160,1,0
37.763805026,1,1
38.263536050,0,1
38.263819210,0,0
38.763549930,1,0
38.763832888,1,1
39.263565948,0,1
39.263848530,0,0
39.763577680,1,0
39.763860482,1,1
40.263591542,0,1
40.263873788,0,0
40.763605398,1,0
40.763888254,1,1
41.263619256,0,1
41.263901410,0,0
41.763633108,1,0
41.763915908,1,1
42.263646964,0,1
42.263930060,0,0
42.763660816,1,0
42.763943706,1,1
43.263674672,0,1
43.263957668,0,0
43.763688522,1,0
43.763971698,1,1
44.263702376,0,1
44.263985330,0,0
44.763716224,1,0
44.763999564,1,1
45.263730076,0,1
45.264012938,0,0
45.763743922,1,0
45.764027288,1,1
46.263757772,0,1
46.264040608,0,0
46.763771620,1,0
46.764055086,1,1
47.263785480,0,1
47.264068484,0,0
47.763799338,1,0
47.764082640,1,1
48.263813200,0,1
48.264096088,0,0
48.763827058,1,0
48.764110362,1,1
49.263840918,0,1
49.264123850,0,0
49.763854768,1,0
49.764137650,1,1
50.263868618,0,1
50.264151542,0,0
50.763882460,1,0
50.764165428,1,1
51.263896310,0,1
51.264179252,0,0
51.763910176,1,0
51.764193168,1,1
52.263924048,0,1
52.264206988,0,0
52.763937910,1,0
52.764220962,1,1
53.263951778,0,1
53.264234902,0,0
53.763965638,1,0
53.764248738,1,1
54.263979506,0,1
54.264262954,0,0
54.763993370,1,0
54.764276494,1,1
55.264007264,0,1
55.264290674,0,0
55.764021128,1,0
55.764304262,1,1
56.264034994,0,1
56.264318322,0,0
56.764048850,1,0
56.764331844,1,1
57.264062710,0,1
57.264346254,0,0
57.764076566,1,0
57.764359640,1,1
58.264090424,0,1
58.264373816,0,0
58.764104280,1,0
58.764387286,1,1
59.264118440,0,1
59.264408446,0,0
59.764131990,1,0
59.764415074,1,1
60.264145840,0,1
60.264428274,0,0
60.764159682,1,0
60.764442718,1,1
61.264173530,0,1
61.264455954,0,0
61.764187368,1,0
61.764470366,1,1
62.264201212,0,1
62.264483632,0,0
62.764215052,1,0
62.764498044,1,1
63.264228896,0,1
63.264511362,0,0
63.764242734,1,0
63.764525708,1,1
64.264256580,0,1
64.264538656,0,0
64.764270422,1,0
64.764553386,1,1
65.264284266,0,1
65.264566318,0,0
65.764298100,1,0
65.764581098,1,1
66.264311934,0,1
66.264594082,0,0
66.764325764,1,0
66.764608774,1,1
67.264339596,0,1
67.264621738,0,0
67.764353428,1,0
67.764636430,1,1
68.264367266,0,1
68.264649294,0,0
68.764381100,1,0
68.764664050,1,1
69.264394938,0,1
69.264677046,0,0
69.764408768,1,0
69.764692032,1,1
70.264422604,0,1
70.264704788,0,0
70.764436436,1,0
70.764719768,1,1
71.264450272,0,1
71.264732454,0,0
71.764464116,1,0
71.764747400,1,1
72.264477966,0,1
72.264760184,0,0
72.764491810,1,0
72.764775164,1,1
73.264505658,0,1
73.264787850,0,0
73.764519500,1,0
73.764802870,1,1
74.264533346,0,1
74.264816338,0,0
74.764547190,1,0
74.764830160,1,1
75.264561064,0,1
75.264844220,0,0
75.764574910,1,0
75.764857856,1,1
76.264588762,0,1
76.264871798,0,0
76.764602610,1,0
76.764885614,1,1
77.264616466,0,1
77.264899554,0,0
77.764630318,1,0
77.764913422,1,1
78.264644174,0,1
78.264927208,0,0
78.764658024,1,0
78.764941022,1,1
79.264670906,0,1
79.265007168,0,0
79.764684574,1,0
79.764967408,1,1
80.264698420,0,1
80.264980706,0,0
80.764712262,1,0
80.764995168,1,1
81.264726108,0,1
81.265008386,0,0
81.764739948,1,0
81.765022716,1,1
82.264753796,0,1
82.265036148,0,0
82.764767640,1,0
82.765050506,1,1
83.264781496,0,1
83.265063568,0,0
83.764795348,1,0
83.765078094,1,1
84.264809206,0,1
84.265091664,0,0
84.764823062,1,0
84.765106076,1,1
85.264836924,0,1
85.265119376,0,0
85.764850784,1,0
85.765133768,1,1
86.264864648,0,1
86.265147200,0,0
86.764878508,1,0
86.765161476,1,1
87.264892370,0,1
87.265174822,0,0
87.764906230,1,0
87.765189228,1,1
88.264920092,0,1
88.265202572,0,0
88.764933952,1,0
88.765216840,1,1
89.264947816,0,1
89.265229872,0,0
89.764961678,1,0
89.765244764,1,1
90.264975548,0,1
90.265257612,0,0
90.764989414,1,0
90.765272472,1,1
91.265003286,0,1
91.265285356,0,0
91.765017172,1,0
91.765300198,1,1
92.265031064,0,1
92.265313078,0,0
92.765044952,1,0
92.765328098,1,1
93.265058842,0,1
93.265340890,0,0
93.765072726,1,0
93.765355880,1,1
94.265086610,0,1
94.265368746,0,0
94.765100486,1,0
94.765383824,1,1
95.265114390,0,1
95.265396672,0,0
95.765128264,1,0
95.765411696,1,1
96.265142140,0,1
96.265424374,0,0
96.765156010,1,0
96.765439460,1,1
97.265169884,0,1
97.265452084,0,0
97.765183750,1,0
97.765467184,1,1
98.265197626,0,1
98.265479818,0,0
98.765211496,1,0
98.765494862,1,1
99.265224400,0,1
99.265838296,0,0
99.765238090,1,0
99.765521382,1,1
100.265251952,0,1
100.265534988,0,0
100.765265812,1,0
100.765549090,1,1
101.265279678,0,1
101.265562734,0,0
101.765293538,1,0
101.765576936,1,1
102.265307406,0,1
102.265590408,0,0
102.765321266,1,0
102.765604594,1,1
103.265335132,0,1
103.265618168,0,0
103.765348994,1,0
103.765631912,1,1
104.265362862,0,1
104.265646264,0,0
104.765376726,1,0
104.765659760,1,1
105.265390596,0,1
105.265674060,0,0
105.765404466,1,0
105.765687388,1,1
106.265418340,0,1
106.265701754,0,0
106.765432212,1,0
106.765715092,1,1
107.265446090,0,1
107.265729336,0,0
107.765459962,1,0
107.765742876,1,1
108.265473834,0,1
108.265757158,0,0
108.765487700,1,0
108.765770568,1,1
109.265501570,0,1
109.265784486,0,0
109.765515432,1,0
109.765798440,1,1
110.265529300,0,1
110.265812264,0,0
110.765543168,1,0
110.765826216,1,1
111.265557040,0,1
111.265839120,0,0
111.765570926,1,0
111.765854034,1,1
112.265584818,0,1
112.265866818,0,0
112.765598704,1,0
112.765881694,1,1
113.265612598,0,1
113.265894678,0,0
113.765626486,1,0
113.765909468,1,1
114.265640380,0,1
114.265922662,0,0
114.765654272,1,0
114.765937454,1,1
115.265668192,0,1
115.265950444,0,0
115.765682086,1,0
115.765965352,1,1
116.265695986,0,1
116.265978366,0,0
116.765709880,1,0
116.765993094,1,1
117.265723782,0,1
117.266006026,0,0
117.765737676,1,0
117.766020938,1,1
118.265751578,0,1
118.266033858,0,0
118.765765476,1,0
118.766048770,1,1
119.265779374,0,1
119.266061688,0,0
119.765792078,1,0
119.766075300,1,1
120.265805952,0,1
120.266089010,0,0
120.765819816,1,0
120.766103180,1,1
121.265833682,0,1
121.266116606,0,0
121.765847546,1,0
121.766130974,1,1
122.265861412,0,1
122.266144450,0,0
122.765875270,1,0
122.766158568,1,1
123.265889128,0,1
123.266172124,0,0
123.765902982,1,0
123.766186240,1,1
124.265916838,0,1
124.266199904,0,0
124.765930688,1,0
124.766213494,1,1
125.265944544,0,1
125.266227654,0,0
125.765958392,1,0
125.766241174,1,1
126.265972242,0,1
126.266255332,0,0
126.765986084,1,0
126.766268988,1,1
127.265999930,0,1
127.266283116,0,0
127.766013772,1,0
127.766296654,1,1
128.266027614,0,1
128.266310648,0,0
128.766041452,1,0
128.766324286,1,1
129.266055294,0,1
129.266338634,0,0
129.766069130,1,0
129.766352076,1,1
130.266082968,0,1
130.266366324,0,0
130.766096796,1,0
130.766379782,1,1
131.266110630,0,1
131.266394062,0,0
131.766124456,1,0
131.766407468,1,1
132.266138302,0,1
132.266421716,0,0
132.766152144,1,0
132.766435240,1,1
133.266165990,0,1
133.266448958,0,0
133.766179830,1,0
133.766462886,1,1
134.266193674,0,1
134.266476668,0,0
134.766207512,1,0
134.766490682,1,1
135.266221378,0,1
135.266504440,0,0
135.766235214,1,0
135.766518490,1,1
136.266249054,0,1
136.266532048,0,0
136.766262888,1,0
136.766546166,1,1
137.266276722,0,1
137.266559720,0,0
137.766290548,1,0
137.766573954,1,1
138.266304382,0,1
138.266587502,0,0
138.766318208,1,0
138.766601640,1,1
139.266332038,0,1
139.266615264,0,0
139.766345066,1,0
139.766627566,1,1
140.266358882,0,1
140.266641866,0,0
140.766372694,1,0
140.766655210,1,1
141.266386508,0,1
141.266669458,0,0
141.766400316,1,0
141.766682930,1,1
142.266414128,0,1
142.266697090,0,0
142.766427934,1,0
142.766710526,1,1
143.266441746,0,1
143.266724850,0,0
143.766455552,1,0
143.766738048,1,1
144.266469364,0,1
144.266752358,0,0
144.766483176,1,0
144.766765210,1,1
145.266496996,0,1
145.266780116,0,0
145.766510814,1,0
145.766792884,1,1
146.266524638,0,1
146.266807608,0,0
146.766538486,1,0
146.766820622,1,1
147.266552316,0,1
147.266835584,0,0
147.766566168,1,0
147.766849084,1,1
148.266580002,0,1
148.266862964,0,0
148.766593854,1,0
148.766877128,1,1
149.266607686,0,1
149.266890778,0,0
149.766621536,1,0
149.766904412,1,1
150.266635368,0,1
150.266918736,0,0
150.766649192,1,0
150.766932188,1,1
151.266663020,0,1
151.266946298,0,0
151.766676842,1,0
151.766959850,1,1
152.266690682,0,1
152.266973990,0,0
152.766704516,1,0
152.766987542,1,1
153.266718360,0,1
153.267001648,0,0
153.766732204,1,0
153.767015234,1,1
154.266746056,0,1
154.267028832,0,0
154.766759904,1,0
154.767042924,1,1
155.266773776,0,1
155.267056640,0,0
155.766787618,1,0
155.767070602,1,1
156.266801466,0,1
156.267084402,0,0
156.766815310,1,0
156.767098378,1,1
157.266829160,0,1
157.267112006,0,0
157.766843010,1,0
157.767126114,1,1
158.266856866,0,1
158.267139788,0,0
158.766870716,1,0
158.767153846,1,1
159.266884574,0,1
159.267167722,0,0
159.766899128,1,0
159.767181568,1,1
160.266912254,0,1
160.267195258,0,0
160.766926094,1,0
160.767208326,1,1
161.266939940,0,1
161.267222982,0,0
161.766953778,1,0
161.767236046,1,1
162.266967620,0,1
162.267250464,0,0
162.766981454,1,0
162.767263728,1,1
163.266995294,0,1
163.267278146,0,0
163.767009126,1,0
163.767291764,1,1
164.267022964,0,1
164.267305954,0,0
164.767036796,1,0
164.767318906,1,1
165.267050624,0,1
165.267333712,0,0
165.767064442,1,0
165.767346494,1,1
166.267078262,0,1
166.267361264,0,0
166.767092080,1,0
166.767374210,1,1
167.267105902,0,1
167.267389060,0,0
167.767119712,1,0
167.767401756,1,1
168.267133526,0,1
168.267416660,0,0
168.767147334,1,0
168.767429482,1,1
169.267161146,0,1
169.267444632,0,0
169.767174950,1,0
169.767457066,1,1
170.267188760,0,1
170.267472092,0,0
170.767202562,1,0
170.767484814,1,1
171.267216368,0,1
171.267499876,0,0
171.767230170,1,0
171.767512316,1,1
172.267243994,0,1
172.267527244,0,0
172.767257812,1,0
172.767540150,1,1
173.267271634,0,1
173.267555028,0,0
173.767285450,1,0
173.767567718,1,1
174.267299266,0,1
174.267582218,0,0
174.767313074,1,0
174.767595496,1,1
175.267326886,0,1
175.267609744,0,0
175.767340690,1,0
175.767623074,1,1
176.267354498,0,1
176.267637374,0,0
176.767368302,1,0
176.767650678,1,1
177.267382110,0,1
177.267665072,0,0
177.767395908,1,0
177.767678108,1,1
178.267409716,0,1
178.267692514,0,0
178.767423518,1,0
178.767705844,1,1
179.267437330,0,1
179.267720340,0,0
179.767453232,1,0
179.767736528,1,1
180.267464948,0,1
180.267747892,0,0
180.767478744,1,0
180.767761902,1,1
181.267492544,0,1
181.267775552,0,0
181.767506342,1,0
181.767789484,1,1
182.267520142,0,1
182.267803086,0,0
182.767533936,1,0
182.767817012,1,1
183.267547732,0,1
183.267830614,0,0
183.767561520,1,0
183.767844660,1,1
184.267575254,0,1
184.267858148,0,0
184.767589102,1,0
184.767871652,1,1
185.267602902,0,1
185.267885878,0,0
185.767616702,1,0
185.767899300,1,1
186.267630510,0,1
186.267913560,0,0
186.767644312,1,0
186.767926932,1,1
187.267658116,0,1
187.267941292,0,0
187.767671908,1,0
187.767954412,1,1
188.267685704,0,1
188.267968924,0,0
188.767699496,1,0
188.767982012,1,1
189.267713294,0,1
189.267996322,0,0
189.767727088,1,0
189.768009218,1,1
190.267740890,0,1
190.268023920,0,0
190.767754690,1,0
190.768036830,1,1
191.267768496,0,1
191.268051628,0,0
191.767782296,1,0
191.768064536,1,1
192.267796118,0,1
192.268079184,0,0
192.767809934,1,0
192.768092024,1,1
193.267823754,0,1
193.268106818,0,0
193.767837568,1,0
193.768119806,1,1
194.267851388,0,1
194.268134756,0,0
194.767865204,1,0
194.768147380,1,1
195.267879052,0,1
195.268162426,0,0
195.767892872,1,0
195.768175100,1,1
196.267906700,0,1
196.268190030,0,0
196.767920524,1,0
196.768202722,1,1
197.267934354,0,1
197.268217768,0,0
197.767948176,1,0
197.768230308,1,1
198.267962004,0,1
198.268245438,0,0
198.767975828,1,0
198.768258094,1,1
199.267989662,0,1
199.268272600,0,0
199.768003834,1,0
199.768293052,1,1
200.268017322,0,1
200.268300590,0,0
200.768031140,1,0
200.768314272,1,1
201.268044962,0,1
201.268328292,0,0
201.768058780,1,0
201.768341926,1,1
202.268072602,0,1
202.268356034,0,0
202.768086420,1,0
202.768369584,1,1
203.268100244,0,1
203.268383574,0,0
203.768114066,1,0
203.768397122,1,1
204.268127894,0,1
204.268410828,0,0
204.768141720,1,0
204.768424902,1,1
205.268155552,0,1
205.268438484,0,0
205.768169380,1,0
205.768452558,1,1
206.268183216,0,1
206.268466058,0,0
206.768197048,1,0
206.768480170,1,1
207.268210882,0,1
207.268493820,0,0
207.768224706,1,0
207.768507862,1,1
208.268238530,0,1
208.268521512,0,0
208.768252352,1,0
208.768535474,1,1
209.268266182,0,1
209.268549226,0,0
209.768280006,1,0
209.768563448,1,1
210.268293838,0,1
210.268576876,0,0
210.768307664,1,0
210.768591082,1,1
211.268321498,0,1
211.268604524,0,0
211.768335328,1,0
211.768618658,1,1
212.268349182,0,1
212.268632232,0,0
212.768363030,1,0
212.768646582,1,1
213.268376882,0,1
213.268659956,0,0
213.768390730,1,0
213.768674174,1,1
214.268404586,0,1
214.268687722,0,0
214.768418438,1,0
214.768701364,1,1
215.268432318,0,1
215.268715358,0,0
215.768446166,1,0
215.768729114,1,1
216.268460022,0,1
216.268743158,0,0
216.768473874,1,0
216.768756910,1,1
217.268487734,0,1
217.268770832,0,0
217.768501586,1,0
217.768784516,1,1
218.268515442,0,1
218.268798640,0,0
218.768529294,1,0
218.768812274,1,1
219.268543150,0,1
219.268826590,0,0
219.768556026,1,0
219.768839018,1,1
220.268569700,0,1
220.268852018,0,0
220.768583536,1,0
220.768866544,1,1
221.268597380,0,1
221.268879756,0,0
221.768611220,1,0
221.768894280,1,1
222.268625062,0,1
222.268907430,0,0
222.768638900,1,0
222.768922004,1,1
223.268652742,0,1
223.268935186,0,0
223.768666576,1,0
223.768949542,1,1
224.268680412,0,1
224.268962606,0,0
224.768694234,1,0
224.768977322,1,1
225.268708058,0,1
225.268990274,0,0
225.768721874,1,0
225.769005106,1,1
226.268735692,0,1
226.269017846,0,0
226.768749504,1,0
226.769032680,1,1
227.268763318,0,1
227.269045470,0,0
227.768777124,1,0
227.769060220,1,1
228.268790938,0,1
228.269073096,0,0
228.768804748,1,0
228.769087896,1,1
229.268818504,0,1
229.269101350,0,0
229.768832364,1,0
229.769115670,1,1
230.268846170,0,1
230.269129248,0,0
230.768859966,1,0
230.769143434,1,1
231.268873768,0,1
231.269156926,0,0
231.768887562,1,0
231.769170982,1,1
232.268901374,0,1
232.269184512,0,0
232.768915178,1,0
232.769198620,1,1
233.268928982,0,1
233.269212082,0,0
233.768942780,1,0
233.769226204,1,1
234.268956582,0,1
234.269239642,0,0
234.768970378,1,0
234.769253424,1,1
235.268984206,0,1
235.269267376,0,0
235.768998006,1,0
235.769280956,1,1
236.269011814,0,1
236.269294942,0,0
236.769025612,1,0
236.769308604,1,1
237.269039418,0,1
237.269322590,0,0
237.769053224,1,0
237.769336204,1,1
238.269067034,0,1
238.269350156,0,0
238.769080836,1,0
238.769363850,1,1
239.269094642,0,1
239.269378074,0,0
239.769107474,1,0
239.769701590,1,1
240.269121108,0,1
240.269403400,0,0
240.769134904,1,0
240.769417898,1,1
241.269148708,0,1
241.269430986,0,0
241.769162504,1,0
241.769445468,1,1
242.269176306,0,1
242.269458588,0,0
242.769190098,1,0
242.769473066,1,1
243.269203898,0,1
243.269486264,0,0
243.769217692,1,0
243.769500570,1,1
244.269231484,0,1
244.269514000,0,0
244.769245268,1,0
244.769528414,1,1
245.269259058,0,1
245.269541718,0,0
245.769272842,1,0
245.769555768,1,1
246.269286630,0,1
246.269569190,0,0
246.769300416,1,0
246.769583390,1,1
247.269314200,0,1
247.269596730,0,0
247.769327978,1,0
247.769610948,1,1
248.269341758,0,1
248.269624322,0,0
248.769355534,1,0
248.769638658,1,1
249.269369312,0,1
249.269651582,0,0
249.769383086,1,0
249.769666310,1,1
250.269396864,0,1
250.269678926,0,0
287.866880000,0,0
