Time [s],Channel 0,Channel 1
5.777744532,0,0
5.877382610,1,0
5.877810786,1,1
5.977448584,0,1
5.977877762,0,0
6.077514720,1,0
6.077944056,1,1
6.177581060,0,1
6.178010590,0,0
6.277646870,1,0
6.278075216,1,1
6.377713126,0,1
6.378142224,0,0
6.477779028,1,0
6.478208444,1,1
6.577845150,0,1
6.578274626,0,0
6.677911166,1,0
6.678339504,1,1
6.777977580,0,1
6.778406752,0,0
6.878043404,1,0
6.878472472,1,1
6.978109526,0,1
6.978539278,0,0
7.078175750,1,0
7.078604056,1,1
7.178241714,0,1
7.178670788,0,0
7.278307854,1,0
7.278737198,1,1
7.378374240,0,1
7.378803638,0,0
7.478439998,1,0
7.478868356,1,1
7.578506336,0,1
7.578935470,0,0
7.678572026,1,0
7.679001230,1,1
7.778638336,0,1
7.779067976,0,0
7.878704494,1,0
7.879132576,1,1
7.978770822,0,1
7.979200032,0,0
8.078836528,1,0
8.079265856,1,1
8.178902714,0,1
8.179332254,0,0
8.278968918,1,0
8.279397328,1,1
8.379034822,0,1
8.379463734,0,0
8.479100960,1,0
8.479530382,1,1
8.579167294,0,1
8.579596796,0,0
8.679233066,1,0
8.679661320,1,1
8.779299200,0,1
8.779728566,0,0
8.879365480,1,0
8.879794564,1,1
8.979431364,0,1
8.979860934,0,0
9.079497584,1,0
9.079925822,1,1
9.179563544,0,1
9.179992784,0,0
9.279629682,1,0
9.280059072,1,1
9.379696016,0,1
9.380125308,0,0
9.479762002,1,0
9.480190422,1,1
9.579827904,0,1
9.580257084,0,0
9.679893972,1,0
9.680323288,1,1
9.779960156,0,1
9.780389914,0,0
9.880026368,1,0
9.880454594,1,1
9.980092268,0,1
9.980521562,0,0
10.080158404,1,0
10.080587634,1,1
10.180224738,0,1
10.180654376,0,0
10.280290724,1,0
10.280719046,1,1
10.380356882,0,1
10.380785838,0,0
10.480422692,1,0
10.480852358,1,1
10.580488808,0,1
10.580917966,0,0
10.680555218,1,0
10.680983618,1,1
10.780620992,0,1
10.781050244,0,0
10.880687128,1,0
10.881116404,1,1
10.980753460,0,1
10.981182772,0,0
11.080819262,1,0
11.081247624,1,1
11.180885594,0,1
11.181314782,0,0
11.280951402,1,0
11.281380968,1,1
11.381017518,0,1
11.381446486,0,0
11.481083952,1,0
11.481512496,1,1
11.581149710,0,1
11.581578920,0,0
11.681215760,1,0
11.681645306,1,1
11.781281982,0,1
11.781711248,0,0
11.881348308,1,0
11.881776524,1,1
11.981414048,0,1
11.981843306,0,0
12.081480348,1,0
12.081909858,1,1
12.181546220,0,1
12.181975314,0,0
12.281612354,1,0
12.282040848,1,1
12.381678686,0,1
12.382107896,0,0
12.481744452,1,0
12.482174054,1,1
12.581810724,0,1
12.582239942,0,0
12.681876666,1,0
12.682305024,1,1
12.781942996,0,1
12.782372330,0,0
12.882008804,1,0
12.882438204,1,1
12.982075210,0,1
12.982504400,0,0
13.082141010,1,0
13.082569532,1,1
13.182207340,0,1
13.182636470,0,0
13.282273148,1,0
13.282702834,1,1
13.382339552,0,1
13.382768512,0,0
13.482405352,1,0
13.482833952,1,1
13.582471682,0,1
13.582900888,0,0
13.682537498,1,0
13.682966970,1,1
13.782603678,0,1
13.783032956,0,0
13.882670044,1,0
13.883098312,1,1
13.982735806,0,1
13.983165108,0,0
14.082802064,1,0
14.083231638,1,1
14.182868026,0,1
14.183297042,0,0
14.282934010,1,0
14.283362572,1,1
14.383000138,0,1
14.383429268,0,0
14.483066412,1,0
14.483495972,1,1
14.583132634,0,1
14.583561910,0,0
14.683198574,1,0
14.683627022,1,1
14.783264470,0,1
14.783693726,0,0
14.883330602,1,0
14.883759866,1,1
14.983396640,0,1
14.983825992,0,0
15.083462856,1,0
15.083891240,1,1
15.183528810,0,1
15.183958042,0,0
15.283594942,1,0
15.284024490,1,1
15.383660986,0,1
15.384090042,0,0
15.483727118,1,0
15.484155756,1,1
15.583793404,0,1
15.584222926,0,0
15.683859518,1,0
15.684288522,1,1
15.783925330,0,1
15.784354708,0,0
15.883991420,1,0
15.884419778,1,1
15.984057748,0,1
15.984487404,0,0
16.084123554,1,0
16.084552732,1,1
16.184189732,0,1
16.184618982,0,0
16.284255722,1,0
16.284684394,1,1
16.384321850,0,1
16.384751154,0,0
16.484388124,1,0
16.484817340,1,1
16.584454126,0,1
16.584883440,0,0
16.684520100,1,0
16.684948468,1,1
16.784586428,0,1
16.785016086,0,0
16.884652234,1,0
16.885081238,1,1
16.984718678,0,1
16.985148046,0,0
17.084784434,1,0
17.085212808,1,1
17.184850804,0,1
17.185280190,0,0
17.284916568,1,0
17.285345784,1,1
17.384982746,0,1
17.385411808,0,0
17.485048734,1,0
17.485477228,1,1
17.585114862,0,1
17.585543844,0,0
17.685181200,1,0
17.685610304,1,1
17.785247020,0,1
17.785676370,0,0
17.885313234,1,0
17.885741788,1,1
17.985379186,0,1
17.985808312,0,0
18.085445316,1,0
18.085874554,1,1
18.185511352,0,1
18.185940686,0,0
18.285577482,1,0
18.286006362,1,1
18.385643768,0,1
18.386072720,0,0
18.485709574,1,0
18.486138870,1,1
18.585775842,0,1
18.586205168,0,0
18.685841782,1,0
18.686270626,1,1
18.785908108,0,1
18.786337142,0,0
18.885973914,1,0
18.886402958,1,1
18.986040098,0,1
18.986469446,0,0
19.086106078,1,0
19.086534836,1,1
19.186172356,0,1
19.186601432,0,0
19.286238244,1,0
19.286667488,1,1
19.386304512,0,1
19.386733660,0,0
19.486370408,1,0
19.486799192,1,1
19.586436534,0,1
19.586865570,0,0
19.686502872,1,0
19.686932160,1,1
19.786568848,0,1
19.786998306,0,0
19.886635120,1,0
19.887063672,1,1
19.986700878,0,1
19.987130076,0,0
20.086767140,1,0
20.087196198,1,1
20.186833016,0,1
20.187262278,0,0
20.286899146,1,0
20.287327934,1,1
20.386965214,0,1
20.387394212,0,0
20.487031476,1,0
20.487460784,1,1
20.587097510,0,1
20.587527062,0,0
20.687163448,1,0
20.687591652,1,1
20.787229772,0,1
20.787659112,0,0
20.887295576,1,0
20.887724694,1,1
20.987361684,0,1
20.987791328,0,0
21.087427896,1,0
21.087856332,1,1
21.187493846,0,1
21.187922960,0,0
21.287559976,1,0
21.287989230,1,1
21.387626008,0,1
21.388055482,0,0
21.487692136,1,0
21.488120426,1,1
21.587758420,0,1
21.588187554,0,0
21.687824306,1,0
21.688253590,1,1
21.787890340,0,1
21.788319916,0,0
21.887956550,1,0
21.888384678,1,1
21.988022500,0,1
21.988451662,0,0
22.088088626,1,0
22.088517950,1,1
22.188154658,0,1
22.188584260,0,0
22.288220786,1,0
22.288649146,1,1
22.388287068,0,1
22.388716148,0,0
22.488352868,1,0
22.488782144,1,1
22.588419268,0,1
22.588848820,0,0
22.688485286,1,0
22.688913690,1,1
22.788551142,0,1
22.788980466,0,0
22.888617268,1,0
22.889046326,1,1
22.988683298,0,1
22.989112910,0,0
23.088749382,1,0
23.089177630,1,1
23.188815706,0,1
23.189244754,0,0
23.288881506,1,0
23.289310892,1,1
23.388947678,0,1
23.389376992,0,0
23.489013662,1,0
23.489442052,1,1
23.589079784,0,1
23.589508828,0,0
23.689146058,1,0
23.689575298,1,1
23.789212056,0,1
23.789641706,0,0
23.889277980,1,0
23.889706000,1,1
23.989344102,0,1
23.989773368,0,0
24.089410368,1,0
24.089839638,1,1
24.189476364,0,1
24.189905980,0,0
24.289542664,1,0
24.289970966,1,1
24.389608420,0,1
24.390037466,0,0
24.489674678,1,0
24.490103976,1,1
24.589740548,0,1
24.590170134,0,0
24.689806848,1,0
24.690235318,1,1
24.789872710,0,1
24.790301976,0,0
24.889938834,1,0
24.890367928,1,1
24.990004862,0,1
24.990434200,0,0
25.090071070,1,0
25.090499484,1,1
25.190137014,0,1
25.190566492,0,0
25.290203138,1,0
25.290632358,1,1
25.390269334,0,1
25.390698482,0,0
25.490335600,1,0
25.490764416,1,1
25.590401354,0,1
25.590830422,0,0
25.690467652,1,0
25.690896890,1,1
25.790533488,0,1
25.790962830,0,0
25.890599754,1,0
25.891028322,1,1
25.990665932,0,1
25.991095036,0,0
26.090731756,1,0
26.091160952,1,1
26.190798084,0,1
26.191227392,0,0
26.290863874,1,0
26.291292708,1,1
26.390930194,0,1
26.391359072,0,0
26.490996118,1,0
26.491425364,1,1
26.591062388,0,1
26.591491736,0,0
26.691128528,1,0
26.691557318,1,1
26.791194316,0,1
26.791623338,0,0
26.891260540,1,0
26.891689546,1,1
26.991326410,0,1
26.991755826,0,0
27.091392616,1,0
27.091821290,1,1
27.191458578,0,1
27.191887696,0,0
27.291524842,1,0
27.291954062,1,1
27.391590712,0,1
27.392019808,0,0
27.491656918,1,0
27.492085582,1,1
27.591722880,0,1
27.592151954,0,0
27.691788918,1,0
27.692218170,1,1
27.791855088,0,1
27.792291074,0,0
27.891921068,1,0
27.892349732,1,1
27.991987186,0,1
27.992416244,0,0
28.092053442,1,0
28.092482626,1,1
28.192119318,0,1
28.192548664,0,0
28.292185522,1,0
28.292614394,1,1
28.392251466,0,1
28.392680408,0,0
28.492317586,1,0
28.492746832,1,1
28.592383904,0,1
28.592813120,0,0
28.692449698,1,0
28.692878450,1,1
28.792515932,0,1
28.792945054,0,0
28.892581812,1,0
28.893010728,1,1
28.992647912,0,1
28.993077256,0,0
29.092714116,1,0
29.093142788,1,1
29.192780074,0,1
29.193209142,0,0
29.292846338,1,0
29.293275558,1,1
29.392912204,0,1
29.393341338,0,0
29.492978408,1,0
29.493407162,1,1
29.593044366,0,1
29.593473316,0,0
29.693110404,1,0
29.693539616,1,1
29.793176504,0,1
29.793605688,0,0
29.893242706,1,0
29.893671294,1,1
29.993308664,0,1
29.993737874,0,0
30.093374926,1,0
30.093804124,1,1
30.193440792,0,1
30.193870194,0,0
30.293507052,1,0
30.293935726,1,1
30.393572942,0,1
30.394001948,0,0
30.493639112,1,0
30.494068380,1,1
30.593705378,0,1
30.594134968,0,0
30.693771172,1,0
30.694199434,1,1
30.793837322,0,1
30.794266338,0,0
30.893903632,1,0
30.894332762,1,1
30.993969422,0,1
30.994398124,0,0
31.094035684,1,0
31.094464924,1,1
31.194101600,0,1
31.194530710,0,0
31.294167918,1,0
31.294597426,1,1
31.394233710,0,1
31.394662338,0,0
31.494299970,1,0
31.494729078,1,1
31.594365886,0,1
31.594795082,0,0
31.694432214,1,0
31.694861464,1,1
31.794498004,0,1
31.794926802,0,0
31.894564264,1,0
31.894993208,1,1
31.994630172,0,1
31.995059354,0,0
32.094696450,1,0
32.095125886,1,1
32.194762290,0,1
32.195191022,0,0
32.294828552,1,0
32.295257636,1,1
32.394894468,0,1
32.395323364,0,0
32.494960786,1,0
32.495390154,1,1
32.595026618,0,1
32.595455272,0,0
32.695092820,1,0
32.695522054,1,1
32.795158936,0,1
32.795588040,0,0
32.895224746,1,0
32.895653928,1,1
32.995291004,0,1
32.995719772,0,0
33.095356888,1,0
33.095785970,1,1
33.195423062,0,1
33.195852356,0,0
33.295489322,1,0
33.295918620,1,1
33.395555162,0,1
33.395983630,0,0
33.495621420,1,0
33.496050518,1,1
33.595687502,0,1
33.596116638,0,0
33.695753662,1,0
33.696183034,1,1
33.795819454,0,1
33.796248120,0,0
33.895885706,1,0
33.896314608,1,1
33.995951638,0,1
33.996380884,0,0
34.096017898,1,0
34.096447280,1,1
34.196083738,0,1
34.196512566,0,0
34.296149998,1,0
34.296579078,1,1
34.396215846,0,1
34.396644954,0,0
34.496281888,1,0
34.496711258,1,1
34.596348144,0,1
34.596776810,0,0
34.696414288,1,0
34.696843306,1,1
34.796480260,0,1
34.796909424,0,0
34.896546520,1,0
34.896975662,1,1
34.996612310,0,1
34.997041038,0,0
35.096678568,1,0
35.097107668,1,1
35.196744484,0,1
35.197173586,0,0
35.296810802,1,0
35.297240116,1,1
35.396876942,0,1
35.397305018,0,0
35.496942660,1,0
35.497371996,1,1
35.597008940,0,1
35.597438132,0,0
35.697074918,1,0
35.697504528,1,1
35.797140866,0,1
35.797569246,0,0
35.897206918,1,0
35.897635968,1,1
35.997273240,0,1
35.997702562,0,0
36.097339042,1,0
36.097768606,1,1
36.197405298,0,1
36.197833558,0,0
36.297471182,1,0
36.297900454,1,1
36.397537356,0,1
36.397966464,0,0
36.497603616,1,0
36.498033284,1,1
36.597669580,0,1
36.598097836,0,0
36.697735722,1,0
36.698164932,1,1
36.797801570,0,1
36.798230884,0,0
36.897867680,1,0
36.898297204,1,1
36.997933744,0,1
36.998362096,0,0
37.098000004,1,0
37.098429092,1,1
37.198065852,0,1
37.198495160,0,0
37.298132052,1,0
37.298561656,1,1
37.398198368,0,1
37.398626498,0,0
37.498264052,1,0
37.498693436,1,1
37.598330374,0,1
37.598759570,0,0
37.698396248,1,0
37.698825814,1,1
37.798462654,0,1
37.798890948,0,0
37.898528336,1,0
37.898957266,1,1
37.998594658,0,1
37.999023942,0,0
38.098660458,1,0
38.099089920,1,1
38.198726554,0,1
38.199154786,0,0
38.298792846,1,0
38.299222130,1,1
38.398858692,0,1
38.399287854,0,0
38.498924892,1,0
38.499354588,1,1
38.598990862,0,1
38.599419020,0,0
38.699056896,1,0
38.699486164,1,1
38.799123216,0,1
38.799552380,0,0
38.899189090,1,0
38.899618414,1,1
38.999255362,0,1
38.999683720,0,0
39.099321152,1,0
39.099750230,1,1
39.199387324,0,1
39.199816494,0,0
39.299453580,1,0
39.299883138,1,1
39.399519760,0,1
39.399947826,0,0
39.499585442,1,0
39.500014726,1,1
39.599651764,0,1
39.600080858,0,0
39.699717636,1,0
39.700147134,1,1
39.799784040,0,1
39.800212314,0,0
39.899849720,1,0
39.900278798,1,1
39.999916038,0,1
40.000345388,0,0
40.099981834,1,0
40.100411496,1,1
40.200048302,0,1
40.200476626,0,0
40.300114132,1,0
40.300543284,1,1
40.400180066,0,1
40.400609348,0,0
40.500246196,1,0
40.500675454,1,1
40.600312198,0,1
40.600740600,0,0
40.700378246,1,0
40.700807474,1,1
40.800444448,0,1
40.800873952,0,0
40.900510670,1,0
40.900939634,1,1
41.000576506,0,1
41.001004938,0,0
41.100642760,1,0
41.101072060,1,1
41.200708606,0,1
41.201138072,0,0
41.300774644,1,0
41.301203730,1,1
41.400840896,0,1
41.401269016,0,0
41.500906778,1,0
41.501336148,1,1
41.600973098,0,1
41.601402542,0,0
41.701039262,1,0
41.701468398,1,1
41.801105048,0,1
41.801533458,0,0
41.901171344,1,0
41.901600372,1,1
42.001237214,0,1
42.001666824,0,0
42.101303528,1,0
42.101732696,1,1
42.201369354,0,1
42.201797756,0,0
42.301435568,1,0
42.301864778,1,1
42.401501412,0,1
42.401930730,0,0
42.501567450,1,0
42.501996758,1,1
42.601633760,0,1
42.602062102,0,0
42.701699606,1,0
42.702128854,1,1
42.801765924,0,1
42.802195414,0,0
42.901831722,1,0
42.902260776,1,1
43.001897974,0,1
43.002326394,0,0
43.101963854,1,0
43.102393030,1,1
43.202030024,0,1
43.202459490,0,0
43.302096328,1,0
43.302525426,1,1
43.402162114,0,1
43.402590310,0,0
43.502228370,1,0
43.502657722,1,1
43.602294280,0,1
43.602723714,0,0
43.702360602,1,0
43.702789800,1,1
43.802426388,0,1
43.802854742,0,0
43.902492644,1,0
43.902921786,1,1
44.002558554,0,1
44.002988086,0,0
44.102624868,1,0
44.103054104,1,1
44.202690694,0,1
44.203119162,0,0
44.302756948,1,0
44.303186180,1,1
44.402822750,0,1
44.403252180,0,0
44.502888786,1,0
44.503318006,1,1
44.602955038,0,1
44.603383398,0,0
44.703021092,1,0
44.703450416,1,1
44.803087144,0,1
44.803516574,0,0
44.903153398,1,0
44.903582418,1,1
45.003219182,0,1
45.003647634,0,0
45.103285354,1,0
45.103714586,1,1
45.203351346,0,1
45.203780878,0,0
45.303417600,1,0
45.303846612,1,1
45.403483418,0,1
45.403911770,0,0
45.503549738,1,0
45.503979288,1,1
45.603615548,0,1
45.604044612,0,0
45.703681936,1,0
45.704111132,1,1
45.803747720,0,1
45.804176088,0,0
45.903813742,1,0
45.904242948,1,1
46.003880060,0,1
46.004309180,0,0
46.103945856,1,0
46.104375116,1,1
46.204012108,0,1
46.204440540,0,0
46.304078004,1,0
46.304507542,1,1
46.404144322,0,1
46.404573224,0,0
46.504210118,1,0
46.504639452,1,1
46.604276370,0,1
46.604704808,0,0
46.704342274,1,0
46.704771810,1,1
46.804408592,0,1
46.804837584,0,0
46.904474388,1,0
46.904903460,1,1
47.004540640,0,1
47.004969176,0,0
47.104606518,1,0
47.105035910,1,1
47.204672688,0,1
47.205101800,0,0
47.304738942,1,0
47.305168252,1,1
47.404804776,0,1
47.405233100,0,0
47.504871030,1,0
47.505300660,1,1
47.604936874,0,1
47.605365866,0,0
47.705002920,1,0
47.705432118,1,1
47.805069122,0,1
47.805497692,0,0
47.905135076,1,0
47.905564318,1,1
48.005201378,0,1
48.005630550,0,0
48.105267182,1,0
48.105696536,1,1
48.205333434,0,1
48.205761758,0,0
48.305399312,1,0
48.305828760,1,1
48.405465480,0,1
48.405894358,0,0
48.505531734,1,0
48.505961050,1,1
48.605597694,0,1
48.606026174,0,0
48.705663830,1,0
48.706093374,1,1
48.805729674,0,1
48.806158748,0,0
48.905795870,1,0
48.906225024,1,1
49.005862180,0,1
49.006290606,0,0
49.105927858,1,0
49.106357272,1,1
49.205994060,0,1
49.206423130,0,0
49.306060314,1,0
49.306489530,1,1
49.406126282,0,1
49.406554496,0,0
49.506192104,1,0
49.506621622,1,1
49.606258322,0,1
49.606687296,0,0
49.706324408,1,0
49.706753714,1,1
49.806390718,0,1
49.806819136,0,0
49.906456394,1,0
49.906885762,1,1
50.006522710,0,1
50.006951812,0,0
50.106588504,1,0
50.107017846,1,1
50.206654594,0,1
50.207083070,0,0
50.306720880,1,0
50.307150420,1,1
50.406786728,0,1
50.407215694,0,0
50.506852828,1,0
50.507282112,1,1
50.606918886,0,1
50.607347602,0,0
50.706985186,1,0
50.707414336,1,1
50.807050986,0,1
50.807480026,0,0
50.907117178,1,0
50.907546402,1,1
51.007183144,0,1
51.007611918,0,0
51.107249394,1,0
51.107678436,1,1
51.207315310,0,1
51.207744408,0,0
51.307381562,1,0
51.307810944,1,1
51.407447576,0,1
51.407876176,0,0
51.507513394,1,0
51.507942552,1,1
51.607579560,0,1
51.608008660,0,0
51.707645602,1,0
51.708074994,1,1
51.807711650,0,1
51.808140318,0,0
51.907777944,1,0
51.908206828,1,1
52.007843742,0,1
52.008273044,0,0
52.107909934,1,0
52.108339246,1,1
52.207976240,0,1
52.208404918,0,0
52.308041916,1,0
52.308470970,1,1
52.408108232,0,1
52.408537220,0,0
52.508174024,1,0
52.508603428,1,1
52.608240114,0,1
52.608668736,0,0
52.708306324,1,0
52.708735388,1,1
52.808372248,0,1
52.808801560,0,0
52.908438348,1,0
52.908867520,1,1
53.008504406,0,1
53.008933170,0,0
53.108570658,1,0
53.108999822,1,1
53.208636498,0,1
53.209065728,0,0
53.308702600,1,0
53.309132014,1,1
53.408768990,0,1
53.409197562,0,0
53.508834674,1,0
53.509263706,1,1
53.608900990,0,1
53.609330046,0,0
53.708966858,1,0
53.709396348,1,1
53.809033258,0,1
53.809461956,0,0
53.909098934,1,0
53.909527900,1,1
54.009165250,0,1
54.009594448,0,0
54.109231044,1,0
54.109660516,1,1
54.209297134,0,1
54.209725906,0,0
54.309363420,1,0
54.309792558,1,1
54.409429260,0,1
54.409858240,0,0
54.509495362,1,0
54.509924818,1,1
54.609561418,0,1
54.609989992,0,0
54.709627720,1,0
54.710056726,1,1
54.809693520,0,1
54.810122700,0,0
54.909759622,1,0
54.910188858,1,1
55.009826020,0,1
55.010254740,0,0
55.109891698,1,0
55.110320740,1,1
55.209958014,0,1
55.210387180,0,0
55.310023806,1,0
55.310453198,1,1
55.410089940,0,1
55.410518004,0,0
55.510156192,1,0
55.510585336,1,1
55.610222032,0,1
55.610651208,0,0
