Time [s],Channel 0,Channel 1
0.000000000,0,0
8.250755930,1,0
8.252165300,1,1
8.351258768,0,1
8.352652920,0,0
8.451761578,1,0
8.453073580,1,1
8.552264390,0,1
8.553638384,0,0
8.652767240,1,0
8.654081580,1,1
8.753270012,0,1
8.754582764,0,0
8.853772820,1,0
8.855110178,1,1
8.954275632,0,1
8.955606430,0,0
9.054778482,1,0
9.055911020,1,1
9.155281252,0,1
9.156577892,0,0
9.255784060,1,0
9.257199422,1,1
9.356286872,0,1
9.357854276,0,0
9.456789718,1,0
9.458363888,1,1
9.557292488,0,1
9.558653968,0,0
9.657795294,1,0
9.659332748,1,1
9.758298106,0,1
9.759590610,0,0
9.858800952,1,0
9.860101004,1,1
9.959303722,0,1
9.960599488,0,0
10.059806526,1,0
10.061175350,1,1
10.160309336,0,1
10.161804734,0,0
10.260812182,1,0
10.262317878,1,1
10.361314952,0,1
10.362821210,0,0
10.461817756,1,0
10.463104148,1,1
10.562320564,0,1
10.563642796,0,0
10.662823410,1,0
10.664351726,1,1
10.763326178,0,1
10.764630304,0,0
10.863828982,1,0
10.865351942,1,1
10.964331790,0,1
10.965848990,0,0
11.064834636,1,0
11.066201470,1,1
11.165337404,0,1
11.166698902,0,0
11.265840206,1,0
11.266936262,1,1
11.366343014,0,1
11.367662614,0,0
11.466845858,1,0
11.468159498,1,1
11.567348624,0,1
11.568735046,0,0
11.667851426,1,0
11.669171844,1,1
11.768354232,0,1
11.769670924,0,0
11.868857074,1,0
11.870147406,1,1
11.969359838,0,1
11.970680754,0,0
12.069862640,1,0
12.071172836,1,1
12.170365446,0,1
12.171664632,0,0
12.270868288,1,0
12.272186332,1,1
12.371371052,0,1
12.372508674,0,0
12.471873852,1,0
12.473405764,1,1
12.572376658,0,1
12.573913160,0,0
12.672879498,1,0
12.674640196,1,1
12.773382270,0,1
12.774755786,0,0
12.873885062,1,0
12.875177498,1,1
12.974387866,0,1
12.975523542,0,0
13.074890708,1,0
13.076023824,1,1
13.175393470,0,1
13.176698972,0,0
13.275896270,1,0
13.277005134,1,1
13.376399074,0,1
13.377383392,0,0
13.476901916,1,0
13.478229564,1,1
13.577404678,0,1
13.578734308,0,0
13.677907478,1,0
13.679395842,1,1
13.778410282,0,1
13.779755316,0,0
13.878913122,1,0
13.880237946,1,1
13.979415884,0,1
13.980549004,0,0
14.079918682,1,0
14.081272688,1,1
14.180421486,0,1
14.181407760,0,0
14.280924326,1,0
14.282267646,1,1
14.381427088,0,1
14.382737306,0,0
14.481929886,1,0
14.483067200,1,1
14.582432690,0,1
14.583420458,0,0
14.682935530,1,0
14.684080392,1,1
14.783438292,0,1
14.784804408,0,0
14.883941090,1,0
14.885262970,1,1
14.984443892,0,1
14.985775682,0,0
15.084946732,1,0
15.086458616,1,1
15.185449494,0,1
15.186586102,0,0
15.285952292,1,0
15.287244628,1,1
15.386455094,0,1
15.387778180,0,0
15.486957932,1,0
15.488308936,1,1
15.587460694,0,1
15.588757012,0,0
15.687963490,1,0
15.689113798,1,1
15.788466292,0,1
15.789985498,0,0
15.888969130,1,0
15.890341726,1,1
15.989471892,0,1
15.990846636,0,0
16.089974688,1,0
16.091269646,1,1
16.190477492,0,1
16.191799790,0,0
16.290980330,1,0
16.292316186,1,1
16.391483090,0,1
16.392805612,0,0
16.491985886,1,0
16.493120736,1,1
16.592488688,0,1
16.593986236,0,0
16.692991528,1,0
16.694301826,1,1
16.793494288,0,1
16.794628748,0,0
16.893997086,1,0
16.895512584,1,1
16.994499888,0,1
16.995985974,0,0
17.095002728,1,0
17.096298482,1,1
17.195505490,0,1
17.197014112,0,0
17.296008286,1,0
17.297506188,1,1
17.396511088,0,1
17.398042664,0,0
17.497013928,1,0
17.498517826,1,1
17.597516688,0,1
17.599049484,0,0
17.698019484,1,0
17.699349208,1,1
17.798522294,0,1
17.799816498,0,0
17.899025124,1,0
17.900347260,1,1
17.999527886,0,1
18.001049572,0,0
18.100030682,1,0
18.101549166,1,1
18.200533484,0,1
18.201867870,0,0
18.301036322,1,0
18.302355464,1,1
18.401539082,0,1
18.402846788,0,0
18.502041878,1,0
18.503139660,1,1
18.602544678,0,1
18.603859204,0,0
18.703047516,1,0
18.704353762,1,1
18.803550276,0,1
18.804863618,0,0
18.904053072,1,0
18.905366860,1,1
19.004555872,0,1
19.005922202,0,0
19.105058710,1,0
19.106425844,1,1
19.205561468,0,1
19.206939584,0,0
19.306064264,1,0
19.307359192,1,1
19.406567064,0,1
19.408097804,0,0
19.507069900,1,0
19.508558412,1,1
19.607572660,0,1
19.608893800,0,0
19.708075454,1,0
19.709390276,1,1
19.808578256,0,1
19.809944016,0,0
19.909081092,1,0
19.910438892,1,1
20.009583850,0,1
20.010947882,0,0
20.110086644,1,0
20.111238022,1,1
20.210589444,0,1
20.212093618,0,0
20.311092278,1,0
20.312581844,1,1
20.411595036,0,1
20.412919030,0,0
20.512097830,1,0
20.513385238,1,1
20.612600628,0,1
20.614088532,0,0
20.713103464,1,0
20.714390802,1,1
20.813606222,0,1
20.815110330,0,0
20.914109014,1,0
20.915245314,1,1
21.014611814,0,1
21.015927482,0,0
21.115114648,1,0
21.116502142,1,1
21.215617406,0,1
21.216944104,0,0
21.316120200,1,0
21.317654716,1,1
21.416622998,0,1
21.417951010,0,0
21.517125834,1,0
21.518439900,1,1
21.617628592,0,1
21.618927980,0,0
21.718131386,1,0
21.719260952,1,1
21.818634184,0,1
21.819932768,0,0
21.919137020,1,0
21.920453060,1,1
22.019639778,0,1
22.020771986,0,0
22.120142572,1,0
22.121281744,1,1
22.220645370,0,1
22.222006912,0,0
22.321148206,1,0
22.322819110,1,1
22.421650964,0,1
22.423029936,0,0
22.522153758,1,0
22.523693946,1,1
22.622656558,0,1
22.623965240,0,0
22.723159394,1,0
22.724482248,1,1
22.823662160,0,1
22.825198016,0,0
22.924164946,1,0
22.925523702,1,1
23.024667736,0,1
23.026185502,0,0
23.125170580,1,0
23.126515924,1,1
23.225673340,0,1
23.227011654,0,0
23.326176134,1,0
23.327470344,1,1
23.426678932,0,1
23.428167910,0,0
23.527181768,1,0
23.528691318,1,1
23.627684526,0,1
23.628972194,0,0
23.728187320,1,0
23.729328416,1,1
23.828690120,0,1
23.830205452,0,0
23.929192956,1,0
23.930714392,1,1
24.029695714,0,1
24.030828948,0,0
24.130198508,1,0
24.131504958,1,1
24.230701308,0,1
24.232001522,0,0
24.331204144,1,0
24.332339708,1,1
24.431706902,0,1
24.433013258,0,0
24.532209698,1,0
24.533748352,1,1
24.632712498,0,1
24.634115112,0,0
24.733215334,1,0
24.734538102,1,1
24.833718092,0,1
24.835009930,0,0
24.934220886,1,0
24.935535872,1,1
25.034723686,0,1
25.036033418,0,0
25.135226522,1,0
25.136546642,1,1
25.235729278,0,1
25.237065288,0,0
25.336232072,1,0
25.337347208,1,1
25.436734872,0,1
25.438048008,0,0
25.537237706,1,0
25.538619634,1,1
25.637740462,0,1
25.639093278,0,0
25.738243254,1,0
25.739593086,1,1
25.838746052,0,1
25.839856820,0,0
25.939248886,1,0
25.940355834,1,1
26.039751642,0,1
26.040906614,0,0
26.140254434,1,0
26.141576448,1,1
26.240757232,0,1
26.242044128,0,0
26.341260066,1,0
26.342609910,1,1
26.441762822,0,1
26.443071238,0,0
26.542265616,1,0
26.543411432,1,1
26.642768414,0,1
26.643754174,0,0
26.743271248,1,0
26.744607012,1,1
26.843774004,0,1
26.845113508,0,0
26.944276796,1,0
26.945563736,1,1
27.044779594,0,1
27.045882244,0,0
27.145282428,1,0
27.146794480,1,1
27.245785184,0,1
27.247286574,0,0
27.346287976,1,0
27.347601884,1,1
27.446790774,0,1
27.448088360,0,0
27.547293608,1,0
27.548613824,1,1
27.647796364,0,1
27.648949514,0,0
27.748299164,1,0
27.749712032,1,1
27.848801954,0,1
27.850171108,0,0
27.949304778,1,0
27.950631686,1,1
28.049807544,0,1
28.051153580,0,0
28.150310336,1,0
28.151625808,1,1
28.250813134,0,1
28.252135636,0,0
28.351315966,1,0
28.352623264,1,1
28.451818724,0,1
28.453132640,0,0
28.552321516,1,0
28.553649754,1,1
28.652824314,0,1
28.654225632,0,0
28.753327148,1,0
28.754703810,1,1
28.853829904,0,1
28.855200034,0,0
28.954332696,1,0
28.955701896,1,1
29.054835494,0,1
29.055969316,0,0
29.155338328,1,0
29.156434542,1,1
29.255841084,0,1
29.257168522,0,0
29.356343876,1,0
29.357672882,1,1
29.456846674,0,1
29.458044856,0,0
29.557349508,1,0
29.558716486,1,1
29.657852264,0,1
29.659211310,0,0
29.758355056,1,0
29.759858656,1,1
29.858857854,0,1
29.860155160,0,0
29.959360688,1,0
29.960858190,1,1
30.059863444,0,1
30.061187410,0,0
30.160366236,1,0
30.161653112,1,1
30.260869032,0,1
30.262390414,0,0
30.361371866,1,0
30.362907924,1,1
30.461874622,0,1
30.463365748,0,0
30.562377414,1,0
30.563685920,1,1
30.662880210,0,1
30.664026274,0,0
30.763383044,1,0
30.764668920,1,1
30.863885800,0,1
30.864980548,0,0
30.964388590,1,0
30.965765362,1,1
31.064891388,0,1
31.066286078,0,0
31.165394220,1,0
31.166708402,1,1
31.265896974,0,1
31.267205916,0,0
31.366399766,1,0
31.367720210,1,1
31.466902562,0,1
31.468226092,0,0
31.567405396,1,0
31.568712384,1,1
31.667908150,0,1
31.669232132,0,0
31.768410942,1,0
31.769728158,1,1
31.868913738,0,1
31.870019138,0,0
31.969416570,1,0
31.970773786,1,1
32.069919326,0,1
32.071300784,0,0
32.170422118,1,0
32.171816012,1,1
32.270924914,0,1
32.272217792,0,0
32.371427746,1,0
32.372760286,1,1
32.471930500,0,1
32.473225952,0,0
32.572433292,1,0
32.573531458,1,1
32.672936088,0,1
32.674468366,0,0
32.773438928,1,0
32.774929374,1,1
32.873941674,0,1
32.875428204,0,0
32.974444464,1,0
32.975578590,1,1
33.074947260,0,1
33.076305108,0,0
33.175450092,1,0
33.176961152,1,1
33.275952846,0,1
33.277087694,0,0
33.376455636,1,0
33.377953276,1,1
33.476958430,0,1
33.478329038,0,0
33.577461262,1,0
33.578601508,1,1
33.677964016,0,1
33.678950218,0,0
33.778466804,1,0
33.779601596,1,1
33.878969600,0,1
33.880074126,0,0
33.979472430,1,0
33.980780770,1,1
34.079975184,0,1
34.081108364,0,0
34.180477972,1,0
34.181796208,1,1
34.280980768,0,1
34.282352056,0,0
34.381483598,1,0
34.382798730,1,1
34.481986350,0,1
34.483296726,0,0
34.582489140,1,0
34.583623146,1,1
34.682991934,0,1
34.684288296,0,0
34.783494766,1,0
34.784812454,1,1
34.883997520,0,1
34.885334134,0,0
34.984500308,1,0
34.985834824,1,1
35.085003104,0,1
35.086136100,0,0
35.185505934,1,0
35.186824460,1,1
35.286008688,0,1
35.287377340,0,0
35.386511478,1,0
35.387869796,1,1
35.487014274,0,1
35.488372226,0,0
35.587517104,1,0
35.588610344,1,1
35.688019858,0,1
35.689158274,0,0
35.788522648,1,0
35.789808516,1,1
35.889025418,0,1
35.890513516,0,0
35.989528232,1,0
35.990818228,1,1
36.090031028,0,1
36.091527162,0,0
36.190533818,1,0
36.191860024,1,1
36.291036656,0,1
36.292515922,0,0
36.391539404,1,0
36.392824434,1,1
36.492042198,0,1
36.493347564,0,0
36.592544988,1,0
36.593872430,1,1
36.693047826,0,1
36.694142890,0,0
36.793550574,1,0
36.794696422,1,1
36.894053368,0,1
36.895332288,0,0
36.994556158,1,0
36.995882206,1,1
37.095058994,0,1
37.096048878,0,0
37.195561742,1,0
37.196879034,1,1
37.296064536,0,1
37.297389412,0,0
37.396567326,1,0
37.397939038,1,1
37.497070162,0,1
37.498637662,0,0
37.597572910,1,0
37.598939556,1,1
37.698075704,0,1
37.699404252,0,0
37.798578502,1,0
37.799729280,1,1
37.899081330,0,1
37.900394930,0,0
37.999584078,1,0
38.000929080,1,1
38.100086872,0,1
38.101218106,0,0
38.200589662,1,0
38.201877724,1,1
38.301092498,0,1
38.302225100,0,0
38.401595244,1,0
38.403150724,1,1
38.502098040,0,1
38.503483100,0,0
38.602600828,1,0
38.603983416,1,1
38.703103664,0,1
38.704238822,0,0
38.803606412,1,0
38.805100360,1,1
38.904109206,0,1
38.905208548,0,0
39.004611996,1,0
39.006117938,1,1
39.105114832,0,1
39.106220224,0,0
39.205617580,1,0
39.206942044,1,1
39.306120374,0,1
39.307617392,0,0
39.406623162,1,0
39.407919536,1,1
39.507125996,0,1
39.508417014,0,0
39.607628744,1,0
39.608768208,1,1
39.708131536,0,1
39.709269936,0,0
39.808634324,1,0
39.809928204,1,1
39.909137158,0,1
39.910615736,0,0
40.009639904,1,0
40.010987048,1,1
40.110142698,0,1
40.111281056,0,0
40.210645484,1,0
40.211942240,1,1
40.311148320,0,1
40.312435852,0,0
40.411651066,1,0
40.412938318,1,1
40.512153858,0,1
40.513261426,0,0
40.612656646,1,0
40.613983046,1,1
40.713159482,0,1
40.714513774,0,0
40.813662228,1,0
40.815050566,1,1
40.914165020,0,1
40.915487568,0,0
41.014667808,1,0
41.015982732,1,1
41.115170644,0,1
41.116492486,0,0
41.215673390,1,0
41.216979218,1,1
41.316176184,0,1
41.317477088,0,0
41.416678972,1,0
41.418187174,1,1
41.517181808,0,1
41.518319320,0,0
41.617684554,1,0
41.618972454,1,1
41.718187346,0,1
41.719725846,0,0
41.818690134,1,0
41.820079258,1,1
41.919192968,0,1
41.920569962,0,0
42.019695714,1,0
42.020995010,1,1
42.120198508,0,1
42.121291676,0,0
42.220701294,1,0
42.221986896,1,1
42.321204130,0,1
42.322311846,0,0
42.421706874,1,0
42.422892130,1,1
42.522209668,0,1
42.523322650,0,0
42.622712454,1,0
42.624219398,1,1
42.723215288,0,1
42.724522074,0,0
42.823718042,1,0
42.825053456,1,1
42.924220828,0,1
42.925547394,0,0
43.024723614,1,0
43.026052410,1,1
43.125226448,0,1
43.126707284,0,0
43.225729194,1,0
43.226896842,1,1
43.326231988,0,1
43.327562234,0,0
43.426734774,1,0
43.427882112,1,1
43.527237610,0,1
43.528572920,0,0
43.627740356,1,0
43.629229122,1,1
43.728243148,0,1
43.729565190,0,0
43.828745936,1,0
43.830059188,1,1
43.929248770,0,1
43.930750028,0,0
44.029751516,1,0
44.031106524,1,1
44.130254308,0,1
44.131567826,0,0
44.230757096,1,0
44.232085226,1,1
44.331259930,0,1
44.332626580,0,0
44.431762676,1,0
44.433246914,1,1
44.532265468,0,1
44.533564096,0,0
44.632768254,1,0
44.634089978,1,1
44.733271088,0,1
44.734612216,0,0
44.833773834,1,0
44.835151582,1,1
44.934276626,0,1
44.935646252,0,0
45.034779412,1,0
45.036407856,1,1
45.135282246,0,1
45.136673088,0,0
45.235784992,1,0
45.237326938,1,1
45.336287784,0,1
45.337807342,0,0
45.436790572,1,0
45.438110568,1,1
45.537293406,0,1
45.538817844,0,0
45.637796150,1,0
45.639300624,1,1
45.738298944,0,1
45.739436088,0,0
45.838801730,1,0
45.840087846,1,1
45.939304564,0,1
45.940479214,0,0
46.039807310,1,0
46.040943704,1,1
46.140310102,0,1
46.141840964,0,0
46.240812890,1,0
46.242110616,1,1
46.341315724,0,1
46.342665488,0,0
46.441818470,1,0
46.443326830,1,1
46.542321262,0,1
46.543807782,0,0
46.642824050,1,0
46.644155018,1,1
46.743326884,0,1
46.744662588,0,0
46.843829630,1,0
46.844965722,1,1
46.944332424,0,1
46.945432092,0,0
47.044835210,1,0
47.046130050,1,1
47.145338046,0,1
47.146659854,0,0
47.245840790,1,0
47.247194358,1,1
47.346343584,0,1
47.347675244,0,0
47.446846372,1,0
47.448160800,1,1
47.547349206,0,1
47.548661334,0,0
47.647851952,1,0
47.649354360,1,1
47.748354752,0,1
47.749489322,0,0
47.848857532,1,0
47.849998944,1,1
47.949360358,0,1
47.950652766,0,0
48.049863112,1,0
48.051157738,1,1
48.150365906,0,1
48.151742074,0,0
48.250868692,1,0
48.252236930,1,1
48.351371528,0,1
48.352736666,0,0
48.451874274,1,0
48.452975132,1,1
48.552377066,0,1
48.553663688,0,0
48.652879854,1,0
48.654374246,1,1
48.753382690,0,1
48.754924134,0,0
48.853885436,1,0
48.855032314,1,1
48.954388230,0,1
48.955712720,0,0
49.054891018,1,0
49.056046822,1,1
49.155393852,0,1
49.156577242,0,0
49.255896598,1,0
49.257004628,1,1
49.356399392,0,1
49.357892322,0,0
49.456902180,1,0
49.458238374,1,1
49.557405014,0,1
49.558519756,0,0
49.657907760,1,0
49.659396584,1,1
49.758410554,0,1
49.759550862,0,0
49.858913342,1,0
49.860046034,1,1
49.959416176,0,1
49.960512454,0,0
50.059918922,1,0
50.061405916,1,1
50.160421716,0,1
50.161515596,0,0
50.260924502,1,0
50.262213506,1,1
50.361427338,0,1
50.362723042,0,0
50.461930084,1,0
50.463308114,1,1
50.562432878,0,1
50.563792950,0,0
50.662935664,1,0
50.664259370,1,1
50.763438500,0,1
50.764574152,0,0
50.863941246,1,0
50.865270260,1,1
50.964444038,0,1
50.965749804,0,0
51.064946826,1,0
51.066041054,1,1
51.165449662,0,1
51.166761686,0,0
51.265952408,1,0
51.267269174,1,1
51.366455202,0,1
51.367566432,0,0
51.466957988,1,0
51.468515562,1,1
51.567460824,0,1
51.568861352,0,0
51.667963570,1,0
51.669459108,1,1
51.768466364,0,1
51.769959734,0,0
51.868969152,1,0
51.870470438,1,1
51.969471986,0,1
51.970769610,0,0
52.069974732,1,0
52.071461768,1,1
52.170477526,0,1
52.171955012,0,0
52.270980314,1,0
52.272275978,1,1
52.371483150,0,1
52.372797088,0,0
52.471985896,1,0
52.473306308,1,1
52.572488690,0,1
52.573629948,0,0
52.672991478,1,0
52.674132670,1,1
52.773494322,0,1
52.774836550,0,0
52.873997060,1,0
52.875502108,1,1
52.974499852,0,1
52.975985084,0,0
53.075002642,1,0
53.076325852,1,1
53.175505478,0,1
53.176991082,0,0
53.276008224,1,0
53.277505170,1,1
53.376511018,0,1
53.378002146,0,0
53.477013806,1,0
53.478302514,1,1
53.577516640,0,1
53.578846024,0,0
53.678019388,1,0
53.679159058,1,1
53.778522180,0,1
53.780150978,0,0
53.879024968,1,0
53.880341458,1,1
53.979527804,0,1
53.980843618,0,0
54.080030552,1,0
54.081361654,1,1
54.180533344,0,1
54.181844514,0,0
54.281036134,1,0
54.282343600,1,1
54.381538968,0,1
54.382835792,0,0
54.482041716,1,0
54.483330746,1,1
54.582544508,0,1
54.583847106,0,0
54.683047296,1,0
54.684583030,1,1
54.783550132,0,1
54.784911102,0,0
54.884052878,1,0
54.885578092,1,1
54.984555672,0,1
54.985881714,0,0
55.085058458,1,0
55.086548286,1,1
55.185561294,0,1
55.186700272,0,0
55.286064040,1,0
55.287583516,1,1
55.386566832,0,1
55.387884070,0,0
55.487069618,1,0
55.488362706,1,1
55.587572454,0,1
55.588910864,0,0
55.688075198,1,0
55.689400734,1,1
55.788577992,0,1
55.790102704,0,0
55.889080780,1,0
55.890602230,1,1
55.989583614,0,1
55.991090288,0,0
56.090086360,1,0
56.091398946,1,1
56.190589146,0,1
56.191950472,0,0
56.291091942,1,0
56.292601984,1,1
56.391594776,0,1
56.392902738,0,0
56.492097522,1,0
56.493581568,1,1
56.592600316,0,1
56.593927772,0,0
56.693103104,1,0
56.694419230,1,1
56.793605938,0,1
56.795123358,0,0
56.894108684,1,0
56.895439812,1,1
56.994611478,0,1
56.995982786,0,0
57.095114266,1,0
57.096426778,1,1
57.195617092,0,1
57.197121388,0,0
57.296119848,1,0
57.297427642,1,1
57.396622640,0,1
57.398120078,0,0
57.497125504,1,0
57.498418908,1,1
57.597628338,0,1
57.598918680,0,0
57.698131086,1,0
57.699433022,1,1
57.798633886,0,1
57.799934662,0,0
57.899136666,1,0
57.900518856,1,1
57.999639502,0,1
58.001199984,0,0
58.100142248,1,0
58.101547072,1,1
58.200645040,0,1
58.201939294,0,0
58.301147828,1,0
58.302634422,1,1
58.401650662,0,1
58.403136746,0,0
60.109619200,0,0
