Time [s],Channel 0,Channel 1
0.000000000,0,0
6.294658730,1,0
6.375044962,1,1
6.416661010,1,0
6.428950454,0,0
6.545305912,1,0
6.547970060,1,1
6.667238204,1,0
6.669594336,0,0
6.791557374,0,1
6.803899038,1,1
6.918220430,0,1
6.920891554,0,0
7.040185840,0,1
7.042528748,1,1
7.164483950,1,0
7.166827362,0,0
7.276121904,1,0
7.278786362,1,1
7.388079886,1,0
7.400411720,0,0
7.513921422,1,0
7.516575124,1,1
7.633218968,0,1
7.635833542,0,0
7.755204812,0,1
7.757558418,1,1
7.879481562,1,0
7.881835706,0,0
7.991144614,1,0
7.993840674,1,1
8.100442394,0,1
8.103133488,0,0
8.226525050,0,1
8.228840176,1,1
8.350820900,1,0
8.353136196,0,0
8.472439436,1,0
8.475127252,1,1
8.591781072,0,1
8.594472686,0,0
8.711082012,1,0
8.713744080,1,1
8.830372906,0,1
8.833057930,0,0
8.949662968,1,0
8.952339030,1,1
9.071630322,1,0
9.073956570,0,0
9.183257126,1,0
9.185927414,1,1
9.305209720,1,0
9.312544184,0,0
9.434553108,0,1
9.436894772,1,1
9.556198700,0,1
9.558858424,0,0
9.670485696,1,0
9.673132790,1,1
9.792437498,1,0
9.799781688,0,0
9.911717448,0,1
9.924037498,1,1
10.050124542,1,0
10.057474458,0,0
10.179423860,0,1
10.181770336,1,1
10.303772084,1,0
10.311121804,0,0
10.433068662,0,1
10.440417564,1,1
10.562363936,1,0
10.569713332,0,0
10.679005860,1,0
10.681642426,1,1
10.800948816,1,0
10.808303560,0,0
10.917577812,1,0
10.920275582,1,1
11.039576288,1,0
11.046887978,0,0
11.156237958,1,0
11.158932822,1,1
11.279644948,0,1
11.282334928,0,0
11.398939850,1,0
11.401630234,1,1
11.518234216,0,1
11.520923022,0,0
11.637528794,1,0
11.640196520,1,1
11.756824042,0,1
11.759507426,0,0
11.878775140,0,1
11.881086894,1,1
12.003137496,1,0
12.005454542,0,0
12.127429336,0,1
12.134755334,1,1
12.244047782,0,1
12.246730932,0,0
12.366020304,0,1
12.368369866,1,1
12.490315184,1,0
12.497667072,0,0
12.606959606,1,0
12.609612122,1,1
12.721261912,0,1
12.723891834,0,0
12.843167998,0,1
12.845515118,1,1
12.964849034,0,1
12.967495136,0,0
13.084143224,1,0
13.086794592,1,1
13.203494690,0,1
13.206185580,0,0
13.325414276,0,1
13.332756954,1,1
13.452055910,0,1
13.454714414,0,0
13.574046702,0,1
13.576397010,1,1
13.698322548,1,0
13.705694990,0,0
13.827637936,0,1
13.834988864,1,1
13.949297554,0,1
13.951945724,0,0
14.071240886,0,1
14.073598418,1,1
14.187901150,0,1
14.190590248,0,0
14.312186572,1,0
14.314857536,1,1
14.434174438,1,0
14.436509894,0,0
14.555814418,1,0
14.558481378,1,1
14.675107512,0,1
14.677757862,0,0
14.794456070,1,0
14.797124252,1,1
14.913832208,0,1
14.916494530,0,0
15.033140956,1,0
15.035802244,1,1
15.152438858,0,1
15.155100220,0,0
15.271733212,1,0
15.274394758,1,1
15.393724586,1,0
15.396045572,0,0
15.518015448,0,1
15.520340528,1,1
15.634643722,0,1
15.637300716,0,0
15.756605220,0,1
15.763932926,1,1
15.873210188,0,1
15.875885564,0,0
15.982568420,1,0
15.985244484,1,1
16.104530752,1,0
16.111869122,0,0
16.223833048,0,1
16.236144818,1,1
16.354670506,0,1
16.357329786,0,0
16.476616788,0,1
16.478958034,1,1
16.600906598,1,0
16.603253534,0,0
16.725180476,0,1
16.732551662,1,1
16.841878648,0,1
16.844528504,0,0
16.956188618,1,0
16.958837764,1,1
17.078128024,1,0
17.080485768,0,0
17.199790272,1,0
17.202479686,1,1
17.319084554,0,1
17.321768504,0,0
17.433377342,1,0
17.436057256,1,1
17.555337540,1,0
17.557659866,0,0
17.677021920,1,0
17.679679594,1,1
17.791308404,0,1
17.793987444,0,0
17.913258564,0,1
17.915583488,1,1
18.029900506,0,1
18.032570448,0,0
18.151866526,0,1
18.154191216,1,1
18.276148142,1,0
18.278486514,0,0
18.397837518,1,0
18.400501846,1,1
18.507228744,0,1
18.509887914,0,0
18.629147724,0,1
18.636525710,1,1
18.758463976,1,0
18.765821682,0,0
18.887739722,0,1
18.895099024,1,1
19.009413982,0,1
19.012057314,0,0
19.131345758,0,1
19.133703340,1,1
19.248053882,0,1
19.250747162,0,0
19.370034764,0,1
19.372347064,1,1
19.491651578,0,1
19.494335890,0,0
19.613619400,0,1
19.615937218,1,1
19.725232142,0,1
19.727907618,0,0
19.847165970,0,1
19.854495072,1,1
19.976490572,1,0
19.983818182,0,0
20.093170234,1,0
20.095842424,1,1
20.205130950,1,0
20.217464402,0,0
20.343623472,0,1
20.345962950,1,1
20.460259946,0,1
20.462927756,0,0
20.579551336,1,0
20.582213916,1,1
20.698857756,0,1
20.701501682,0,0
20.813145538,1,0
20.815812868,1,1
20.935134802,1,0
20.937474032,0,0
21.056794248,1,0
21.059451162,1,1
21.171080926,0,1
21.173736754,0,0
21.293018440,0,1
21.295374116,1,1
21.409676904,0,1
21.412323340,0,0
21.531651594,0,1
21.533963994,1,1
21.655979270,1,0
21.658312506,0,0
21.777617606,1,0
21.780298656,1,1
21.899665924,1,0
21.901984194,0,0
22.021302920,1,0
22.023984278,1,1
22.143266644,1,0
22.145591990,0,0
22.264896314,1,0
22.267573606,1,1
22.386857506,1,0
22.389180044,0,0
22.511200768,0,1
22.513530118,1,1
22.632834492,0,1
22.635465676,0,0
22.754785014,0,1
22.757120416,1,1
22.879064506,1,0
22.881397588,0,0
23.003373108,0,1
23.010710212,1,1
23.132670934,1,0
23.140008716,0,0
23.261967738,0,1
23.264300558,1,1
23.386316114,1,0
23.388650464,0,0
23.497945540,1,0
23.500618050,1,1
23.619910492,1,0
23.627247780,0,0
23.749198438,0,1
23.751535670,1,1
23.873472862,1,0
23.875813000,0,0
23.987781532,0,1
24.000125116,1,1
24.126271428,1,0
24.128623946,0,0
24.240622148,0,1
24.252975254,1,1
24.379158644,1,0
24.381471342,0,0
24.500776258,1,0
24.503465840,1,1
24.622747548,1,0
24.625061788,0,0
24.747038034,0,1
24.749357602,1,1
24.871311686,1,0
24.873634872,0,0
24.995626898,0,1
25.002947152,1,1
25.124970658,1,0
25.127296480,0,0
25.236591398,1,0
25.239273778,1,1
25.358561578,1,0
25.365888540,0,0
25.485180322,1,0
25.487852240,1,1
25.607146998,1,0
25.609477366,0,0
25.728782246,1,0
25.731448410,1,1
25.850708376,1,0
25.853042156,0,0
25.962411116,1,0
25.965076696,1,1
26.076710752,0,1
26.079370294,0,0
26.186003400,1,0
26.188658780,1,1
26.307946246,1,0
26.310298144,0,0
26.429602666,1,0
26.432247624,1,1
26.551530582,1,0
26.553888090,0,0
26.668187580,1,0
26.670818300,1,1
26.790173960,1,0
26.792531506,0,0
26.914452986,0,1
26.916808234,1,1
27.038760988,1,0
27.046120768,0,0
27.158066982,0,1
27.170419346,1,1
27.288922676,0,1
27.291611720,0,0
27.410897238,0,1
27.413209954,1,1
27.535189172,1,0
27.542505896,0,0
27.661863052,1,0
27.664525934,1,1
27.783921202,1,0
27.786248686,0,0
27.908200480,0,1
27.910526006,1,1
28.024843068,0,1
28.027517190,0,0
28.146801650,0,1
28.154135712,1,1
28.276096986,1,0
28.278429204,0,0
28.397729958,1,0
28.400397938,1,1
28.519733900,1,0
28.522071894,0,0
28.644008286,0,1
28.646367788,1,1
28.765672308,0,1
28.768337130,0,0
28.887593724,0,1
28.894941602,1,1
29.016900858,1,0
29.019249844,0,0
29.141199746,0,1
29.143548432,1,1
29.262847852,0,1
29.265506198,0,0
29.384842550,0,1
29.387190982,1,1
29.509132526,1,0
29.511486560,0,0
29.633387496,0,1
29.640784304,1,1
29.762718740,1,0
29.770080398,0,0
29.889364404,1,0
29.892055052,1,1
30.011345236,1,0
30.013664588,0,0
30.133024686,1,0
30.135707672,1,1
30.255091882,1,0
30.257410206,0,0
30.379382218,0,1
30.381705918,1,1
30.501010404,0,1
30.503682702,0,0
30.622961070,0,1
30.625295698,1,1
30.739598916,0,1
30.742245978,0,0
30.861514946,0,1
30.863867536,1,1
30.983232696,0,1
30.985879148,0,0
31.105168492,0,1
31.107528166,1,1
31.216823142,0,1
31.219470660,0,0
31.331125128,1,0
31.333767652,1,1
31.453052452,1,0
31.460414318,0,0
31.572349322,0,1
31.584710178,1,1
31.710825124,1,0
31.713207236,0,0
31.835189862,0,1
31.837552996,1,1
31.959478170,1,0
31.961843462,0,0
32.071144908,1,0
32.073787140,1,1
32.193069780,1,0
32.195439634,0,0
32.317412468,0,1
32.329743242,1,1
32.449039450,0,1
32.451711844,0,0
32.570990330,0,1
32.573323670,1,1
32.695315756,1,0
32.697673528,0,0
32.819636250,0,1
32.826971388,1,1
32.946273006,0,1
32.948928502,0,0
33.068207688,0,1
33.070558684,1,1
33.189863202,0,1
33.192514238,0,0
33.311797842,0,1
33.314148622,1,1
33.436087726,1,0
33.443444096,0,0
33.565430730,0,1
33.567792418,1,1
33.687097128,0,1
33.689717690,0,0
33.801389966,1,0
33.804024874,1,1
33.923287092,1,0
33.925659116,0,0
34.044977480,1,0
34.047606470,1,1
34.166894180,1,0
34.169266546,0,0
34.288565718,1,0
34.291246308,1,1
34.407918036,0,1
34.410587660,0,0
34.527312500,1,0
34.529983366,1,1
34.641605560,0,1
34.644252998,0,0
34.763550160,0,1
34.765892628,1,1
34.885178662,0,1
34.887833562,0,0
35.007126032,0,1
35.009477690,1,1
35.131477384,1,0
35.138832314,0,0
35.258134826,1,0
35.260784282,1,1
35.380061158,1,0
35.382420150,0,0
35.504358170,0,1
35.511717994,1,1
35.633618330,1,0
35.636011402,0,0
35.755316164,1,0
35.757959920,1,1
35.874589232,0,1
35.877236754,0,0
35.996586892,0,1
36.003947118,1,1
36.125880378,1,0
36.128243758,0,0
36.250171016,0,1
36.252539412,1,1
36.374465528,1,0
36.376835028,0,0
36.491137848,1,0
36.493767900,1,1
36.613098586,1,0
36.620426872,0,0
36.739726210,1,0
36.742405382,1,1
36.861721518,1,0
36.864049518,0,0
36.978360156,1,0
36.981038274,1,1
37.100323334,1,0
37.107659404,0,0
37.221960274,1,0
37.224628638,1,1
37.343912574,1,0
37.346247232,0,0
37.468203696,0,1
37.470542774,1,1
37.584891910,0,1
37.587559974,0,0
37.706928880,0,1
37.709285622,1,1
37.823578630,0,1
37.826243300,0,0
37.945517570,0,1
37.947862166,1,1
38.067179398,0,1
38.069831266,0,0
38.189115328,0,1
38.196467132,1,1
38.310766764,0,1
38.313418538,0,0
38.432757810,0,1
38.440109506,1,1
38.549402464,0,1
38.552054464,0,0
38.671319700,0,1
38.678699872,1,1
38.800631744,1,0
38.807995450,0,0
38.922279886,1,0
38.924916008,1,1
39.044214126,1,0
39.051581748,0,0
39.170884534,1,0
39.173523340,1,1
39.292853434,1,0
39.295225406,0,0
39.414529832,1,0
39.417160716,1,1
39.536445050,1,0
39.538815396,0,0
39.653118580,1,0
39.655731338,1,1
39.775078182,1,0
39.782407684,0,0
39.896690036,1,0
39.899363546,1,1
40.018709156,1,0
40.026046592,0,0
40.148007686,0,1
40.155345390,1,1
40.277297074,1,0
40.279638870,0,0
40.401594104,0,1
40.408937070,1,1
40.530889874,1,0
40.533230166,0,0
40.647533194,1,0
40.650184278,1,1
40.769486080,1,0
40.771820224,0,0
40.893818976,0,1
40.896149990,1,1
41.005459242,0,1
41.008133720,0,0
41.127424916,0,1
41.134759998,1,1
41.254062386,0,1
41.256730894,0,0
41.363347080,1,0
41.366015956,1,1
41.472647606,0,1
41.475311840,0,0
41.594592610,0,1
41.601937594,1,1
41.723923948,1,0
41.726285324,0,0
41.835545444,1,0
41.838210884,1,1
41.954878966,0,1
41.957532194,0,0
42.076819590,0,1
42.079168416,1,1
42.188463440,0,1
42.191118574,0,0
42.310401612,0,1
42.312758198,1,1
42.434741614,1,0
42.442053434,0,0
42.564086596,0,1
42.566402018,1,1
42.685706824,0,1
42.688374556,0,0
42.807676752,0,1
42.809992400,1,1
42.929280606,0,1
42.931967296,0,0
43.048590606,1,0
43.051271366,1,1
43.170554376,1,0
43.172876178,0,0
43.287173146,1,0
43.289853430,1,1
43.409186742,1,0
43.411518586,0,0
43.533482680,0,1
43.535814360,1,1
43.657760042,1,0
43.665112356,0,0
43.784414732,1,0
43.787084048,1,1
43.906351708,1,0
43.913684002,0,0
44.035660698,0,1
44.037992302,1,1
44.160005694,1,0
44.162343416,0,0
44.284302250,0,1
44.286638990,1,1
44.405943496,0,1
44.408607946,0,0
44.527892350,0,1
44.530229172,1,1
44.652169678,1,0
44.659527034,0,0
44.781483968,0,1
44.788822672,1,1
44.903105072,0,1
44.905771814,0,0
45.025122886,0,1
45.032461736,1,1
45.146759286,0,1
45.149423330,0,0
45.268710910,0,1
45.271052642,1,1
45.393012848,1,0
45.395348114,0,0
45.517301736,0,1
45.519643730,1,1
45.628945022,0,1
45.631565312,0,0
45.738237906,1,0
45.740898984,1,1
45.860216412,1,0
45.867564302,0,0
45.989525320,0,1
45.991872478,1,1
46.113823374,1,0
46.116171406,0,0
46.238120096,0,1
46.240466872,1,1
46.362414092,1,0
46.364762452,0,0
46.484066828,1,0
46.486720706,1,1
46.606003834,1,0
46.608350924,0,0
46.722702500,1,0
46.725344706,1,1
46.844609300,1,0
46.846960654,0,0
46.968928232,0,1
46.971286746,1,1
47.093272428,1,0
47.095585792,0,0
47.204880736,1,0
47.207575118,1,1
47.314181052,0,1
47.316864786,0,0
47.436152376,0,1
47.443468660,1,1
47.565494464,1,0
47.567817964,0,0
47.687122664,1,0
47.689784010,1,1
47.809085106,1,0
47.811408336,0,0
47.923370884,0,1
47.935677410,1,1
48.061870592,1,0
48.064199666,0,0
48.183507624,1,0
48.186175622,1,1
48.305453242,1,0
48.307791662,0,0
48.429802258,0,1
48.432141212,1,1
48.554097278,1,0
48.556436826,0,0
48.678376242,0,1
48.685734950,1,1
48.807689138,1,0
48.810028346,0,0
48.931968944,0,1
48.939309918,1,1
49.058627850,0,1
49.061290266,0,0
49.180568854,0,1
49.182912116,1,1
49.292261010,0,1
49.294923226,0,0
49.404217564,0,1
49.416557850,1,1
49.540063042,0,1
49.542720504,0,0
49.659358076,1,0
49.661997860,1,1
49.781299146,1,0
49.783643548,0,0
49.897927900,1,0
49.900587336,1,1
50.012232990,0,1
50.014893830,0,0
50.134235296,0,1
50.136579800,1,1
50.258525876,1,0
50.260875462,0,0
50.382816856,0,1
50.385171096,1,1
50.507112452,1,0
50.509466686,0,0
50.631369284,0,1
50.638764276,1,1
50.758066966,0,1
50.760714440,0,0
50.880023372,0,1
50.882330606,1,1
51.001705514,0,1
51.004394252,0,0
51.121003448,1,0
51.123692616,1,1
51.242975496,1,0
51.245289078,0,0
51.367271578,0,1
51.369584628,1,1
51.491566676,1,0
51.493880050,0,0
51.615862600,0,1
51.623177800,1,1
51.745158646,1,0
51.747467762,0,0
51.869484828,0,1
51.871801520,1,1
51.981110488,0,1
51.983798358,0,0
52.103084980,0,1
52.110411262,1,1
52.224712060,0,1
52.227389652,0,0
52.346674958,0,1
52.354001308,1,1
52.475965156,1,0
52.478294630,0,0
52.600313696,0,1
52.602642832,1,1
52.724592108,1,0
52.726938822,0,0
52.848872498,0,1
52.856202246,1,1
52.965525164,0,1
52.968202220,0,0
53.079831016,1,0
53.082497918,1,1
53.201778280,1,0
53.204118130,0,0
53.326068586,0,1
53.333415680,1,1
53.455411168,1,0
53.457761820,0,0
53.579701908,0,1
53.582057520,1,1
53.701362310,0,1
53.704031846,0,0
53.815655118,1,0
53.818342136,1,1
53.937609890,1,0
53.944927964,0,0
54.064246098,1,0
54.066927106,1,1
54.186210602,1,0
54.188530368,0,0
54.310559292,0,1
54.312879818,1,1
54.434854480,1,0
54.442177538,0,0
54.564151054,0,1
54.566471086,1,1
54.673432924,1,0
54.685730558,0,0
54.811943460,0,1
54.814268950,1,1
54.923547992,0,1
54.926222830,0,0
55.037862292,1,0
55.040529070,1,1
55.159818032,1,0
55.162149438,0,0
55.281510014,1,0
55.284177122,1,1
55.403459860,1,0
55.405795500,0,0
55.527751292,0,1
55.530091090,1,1
55.642029944,1,0
55.654374994,0,0
55.777893378,1,0
55.780549788,1,1
55.897159116,0,1
55.899810750,0,0
56.019120140,0,1
56.021467624,1,1
56.143465980,1,0
56.145822462,0,0
56.267761920,0,1
56.270118076,1,1
56.389422740,0,1
56.392067384,0,0
56.511352490,0,1
56.518710472,1,1
56.628009396,0,1
56.630627186,0,0
56.737304556,1,0
56.739993560,1,1
56.851627828,0,1
56.854322806,0,0
56.973622746,0,1
56.975935718,1,1
57.097919136,1,0
57.100234612,0,0
57.219539136,1,0
57.222220534,1,1
57.341502906,1,0
57.343824506,0,0
57.458127314,1,0
57.460808696,1,1
57.580088626,1,0
57.587415966,0,0
57.696762376,1,0
57.699425834,1,1
57.811058266,0,1
57.813732364,0,0
57.932997962,0,1
57.935335138,1,1
58.057304144,1,0
58.059646424,0,0
58.178951056,1,0
58.181605460,1,1
58.300887682,1,0
58.303236390,0,0
58.422537480,1,0
58.425194580,1,1
58.544525962,1,0
58.546878998,0,0
58.666183738,1,0
58.668814694,1,1
58.788114682,1,0
58.790469272,0,0
58.912418432,0,1
58.914732740,1,1
59.036726940,1,0
59.039039800,0,0
59.161078374,0,1
59.163393838,1,1
59.272688726,0,1
59.275373820,0,0
59.391992530,1,0
59.394673686,1,1
59.513957274,1,0
59.516277964,0,0
59.638220500,0,1
59.640573486,1,1
59.762537290,1,0
59.769872428,0,0
59.889150384,1,0
59.891827708,1,1
60.011176732,1,0
60.013508420,0,0
60.122806378,1,0
60.125481680,1,1
60.238970746,1,0
60.251293732,0,0
60.373264556,0,1
60.380603370,1,1
60.502560180,1,0
60.504896846,0,0
60.626846464,0,1
60.629192202,1,1
60.756153304,1,0
60.763496578,0,0
60.885471514,0,1
60.892819582,1,1
61.012136388,0,1
61.014790106,0,0
61.126426588,1,0
61.129085754,1,1
61.248371352,1,0
61.250719734,0,0
61.372668028,0,1
61.375015198,1,1
61.496963526,1,0
61.499310844,0,0
61.621259160,0,1
61.623602858,1,1
61.742958206,0,1
61.745616518,0,0
61.862239798,1,0
61.864896050,1,1
61.984187256,1,0
61.986540034,0,0
62.095838204,1,0
62.098492406,1,1
62.221882512,1,0
62.224235940,0,0
62.338539190,1,0
62.341188662,1,1
62.460468268,1,0
62.467823852,0,0
62.589817096,0,1
62.592174634,1,1
62.706471414,0,1
62.709147210,0,0
62.828452218,0,1
62.835763392,1,1
62.955061122,0,1
62.957745626,0,0
63.064353846,1,0
63.067038040,1,1
63.190527082,1,0
63.192850432,0,0
63.314876776,0,1
63.317199054,1,1
63.436503632,0,1
63.439183140,0,0
63.558567200,0,1
63.560889204,1,1
63.670184418,0,1
63.672844704,0,0
63.792145696,0,1
63.799481386,1,1
63.908738290,0,1
63.911415426,0,0
64.023053230,1,0
64.025719368,1,1
64.145060224,1,0
64.152399880,0,0
64.274356542,0,1
64.281695630,1,1
64.395990158,0,1
64.398660332,0,0
64.502950614,0,1
64.515241612,1,1
64.641325556,1,0
64.648688218,0,0
64.757987700,1,0
64.760641614,1,1
64.872265392,0,1
64.874921410,0,0
64.994219734,0,1
64.996562678,1,1
65.110919632,0,1
65.113578508,0,0
65.232871284,0,1
65.235212842,1,1
65.349515676,0,1
65.352169740,0,0
65.471450498,0,1
65.473802804,1,1
65.595743746,1,0
65.603100494,0,0
65.725065848,0,1
65.727394112,1,1
65.836707442,0,1
65.839405078,0,0
65.946031566,1,0
65.948727554,1,1
66.065339260,0,1
66.068029442,0,0
66.187313642,0,1
66.189624812,1,1
66.311605466,1,0
66.318922520,0,0
66.440896134,0,1
66.443216072,1,1
66.565185508,1,0
66.567511306,0,0
66.689511058,0,1
66.691955562,1,1
66.811258248,0,1
66.813928434,0,0
66.933197190,0,1
66.935533800,1,1
67.049852204,0,1
67.052516996,0,0
70.254592000,0,0
